  can0  1B4   [7]  00 00 E9 06 40 00 E4
  can0  2B0   [8]  00 0F FF 81 00 8C 00 CD
  can0  2B3   [6]  00 00 00 00 80 52
  can0  2DE   [8]  00 00 82 00 00 00 0A 1B
  can0  002   [8]  EF FD 00 07 BF A6 9F 0A
  can0  216   [2]  42 64
  can0  160   [7]  33 C3 1D 00 08 FF E0
  can0  180   [8]  14 9B 31 D3 3C 00 2F 10
  can0  182   [8]  00 00 00 00 00 0F 00 CF
  can0  0C1   [8]  B0 FD 00 00 08 00 03 79
  can0  1F9   [8]  20 00 14 9B 00 00 00 80
  can0  239   [5]  00 FF B1 80 57
  can0  290   [8]  40 05 E9 06 E9 06 12 C7
  can0  285   [8]  00 00 00 00 00 00 16 9D
  can0  284   [8]  00 00 00 00 00 00 16 9C
  can0  1B4   [7]  00 00 E9 06 40 01 E5
  can0  2B0   [8]  00 0F FF 81 00 8C 10 DD
  can0  385   [7]  04 00 00 00 00 00 00
  can0  280   [8]  03 00 80 00 00 00 3A 40
  can0  2DE   [8]  00 00 83 00 00 00 0A 1B
  can0  002   [8]  EF FD 00 07 40 A6 9F 0A
  can0  215   [6]  FF F0 FF 00 FF FF
  can0  160   [7]  33 C3 1F 00 08 FF E0
  can0  180   [8]  14 9B 31 F3 3C 00 20 10
  can0  0C1   [8]  B0 FD 00 00 08 00 00 76
  can0  182   [8]  00 00 00 00 00 00 00 CF
  can0  1F9   [8]  20 00 14 9B 00 00 00 80
  can0  2A0   [6]  FF 7F FE 7F FE FE
  can0  245   [8]  FF E0 00 18 00 00 FF E0
  can0  1B4   [7]  00 00 E9 06 40 02 E6
  can0  2B0   [8]  00 0F FF 81 00 8C 20 ED
  can0  2B3   [6]  00 00 00 00 80 52
  can0  2DE   [8]  00 00 80 00 00 00 0A 1B
  can0  002   [8]  EF FD 00 07 51 A6 9F 0A
  can0  216   [2]  42 64
  can0  0C1   [8]  B0 FD 00 00 08 00 01 77
  can0  160   [7]  33 C3 1D 00 08 FF E0
  can0  180   [8]  14 9B 31 D3 3C 00 21 10
  can0  182   [8]  00 00 00 00 00 01 00 CF
  can0  1F9   [8]  20 00 14 9B 00 00 00 80
  can0  239   [5]  00 FF B1 80 54
  can0  290   [8]  40 05 E9 06 E9 06 22 D7
  can0  285   [8]  00 00 00 00 00 00 17 9E
  can0  284   [8]  00 00 00 00 00 00 17 9D
  can0  1B4   [7]  00 00 E9 06 40 03 E7
  can0  2B0   [8]  00 0F FF 81 00 8C 30 FD
  can0  540   [8]  28 20 00 00 00 00 00 00
  can0  541   [8]  00 00 00 00 00 00 00 80
  can0  542   [8]  00 00 00 00 00 00 00 00
  can0  2DE   [8]  00 00 81 00 00 00 0A 1B
  can0  280   [8]  03 00 80 00 00 00 3A 40
  can0  355   [7]  00 00 00 00 00 00 60
  can0  5C5   [8]  44 02 75 EE 00 0C 00 00
  can0  60D   [8]  00 06 00 00 00 00 00 00
  can0  002   [8]  EF FD 00 07 62 A6 9F 0A
  can0  215   [6]  FF F0 FF 00 FF FF
  can0  0C1   [8]  B0 FD 00 00 08 00 02 78
  can0  160   [7]  33 C3 1C 00 08 FF E0
  can0  180   [8]  14 B4 31 C3 3C 00 22 10
  can0  182   [8]  00 00 00 00 00 02 00 CF
  can0  1F9   [8]  20 00 14 B4 00 00 00 80
  can0  354   [8]  00 00 00 00 00 10 04 00
  can0  2A0   [6]  FF 7F FE 7F FE FE
  can0  245   [8]  FF E0 00 18 00 00 FF E1
  can0  1B4   [7]  00 00 E9 06 40 04 E8
  can0  2B0   [8]  00 0F FF 81 00 8C 40 0D
  can0  2B3   [6]  00 00 00 00 80 52
  can0  625   [6]  02 00 FF 1D 20 00
  can0  2DE   [8]  00 00 82 00 00 00 0A 1B
  can0  002   [8]  EF FD 00 07 73 A6 9F 0A
  can0  216   [2]  42 64
  can0  0C1   [8]  B0 FD 00 00 08 00 03 79
  can0  160   [7]  33 C3 1C 00 08 FF E0
  can0  180   [8]  14 B4 31 C3 3C 00 23 10
  can0  182   [8]  00 00 00 00 00 03 00 CE
  can0  1F9   [8]  20 00 14 B4 00 00 00 80
  can0  239   [5]  00 FF B1 80 55
  can0  290   [8]  40 05 E9 06 E9 06 32 E7
  can0  285   [8]  00 00 00 00 00 00 18 9F
  can0  284   [8]  00 00 00 00 00 00 18 9E
  can0  1B4   [7]  00 00 E9 06 40 05 E9
  can0  2B0   [8]  00 0F FF 81 00 8C 50 1D
  can0  525   [1]  C0
  can0  280   [8]  03 00 80 00 00 00 3A 40
  can0  2DE   [8]  00 00 83 00 00 00 0A 1B
  can0  35D   [8]  80 03 00 00 00 00 00 00
  can0  002   [8]  EF FD 00 07 04 A6 9F 0A
  can0  215   [6]  FF F0 FF 00 FF FF
  can0  0C1   [8]  B0 FD 00 00 08 00 00 76
  can0  2A0   [6]  FF 7F FD 7F FE FE
  can0  160   [7]  33 C3 1A 00 08 FF E0
  can0  180   [8]  14 B4 31 A3 3C 00 24 10
  can0  182   [8]  00 00 00 00 00 04 00 CF
  can0  1F9   [8]  20 00 14 B4 00 00 00 80
  can0  245   [8]  FF E0 00 18 00 00 FF E2
  can0  551   [8]  83 79 00 80 00 02 80 FF
  can0  580   [3]  00 82 40
  can0  6E2   [3]  64 15 79
  can0  1B4   [7]  00 00 E9 06 40 06 EA
  can0  2B0   [8]  00 0F FF 81 00 8C 60 2D
  can0  2B3   [6]  00 00 00 00 80 52
  can0  2DE   [8]  00 00 80 00 00 00 0A 1B
  can0  002   [8]  EF FD 00 07 15 A6 9F 0A
  can0  216   [2]  42 64
  can0  0C1   [8]  B0 FD 00 00 08 00 01 77
  can0  290   [8]  40 05 E9 06 E9 06 42 F7
  can0  285   [8]  00 00 00 00 00 00 19 A0
  can0  160   [7]  33 C3 1A 00 08 FF E0
  can0  180   [8]  14 B4 31 A3 3C 00 25 10
  can0  182   [8]  00 00 00 00 00 05 00 CF
  can0  1F9   [8]  20 00 14 B4 00 00 00 80
  can0  239   [5]  00 FF B1 80 56
  can0  284   [8]  00 00 00 00 00 00 19 9F
  can0  1B4   [7]  00 00 E9 06 40 07 EB
  can0  2B0   [8]  00 0F FF 81 00 8C 70 3D
  can0  2DE   [8]  00 00 81 00 00 00 0A 1B
  can0  280   [8]  03 01 80 00 00 00 38 40
  can0  355   [7]  00 00 00 00 00 00 60
  can0  358   [8]  00 00 00 00 80 00 00 00
  can0  002   [8]  EF FD 00 07 26 A6 9F 0A
  can0  215   [6]  FF F0 FF 00 FF FF
  can0  0C1   [8]  B0 FD 00 00 08 00 02 78
  can0  354   [8]  00 00 00 00 00 18 04 00
  can0  2A0   [6]  FF 7F FE 7F FE FE
  can0  245   [8]  FF E0 00 18 00 00 FF E3
  can0  160   [7]  33 C3 1C 00 08 FF E0
  can0  180   [8]  14 B4 31 C3 3C 00 26 10
  can0  182   [8]  00 00 00 00 00 06 00 CF
  can0  1F9   [8]  20 00 14 B4 00 00 00 80
  can0  1B4   [7]  00 00 E9 06 40 08 EC
  can0  2B0   [8]  00 0F FF 81 00 8C 80 4D
  can0  2B3   [6]  00 00 00 00 80 52
  can0  2DE   [8]  00 00 82 00 00 00 0A 1B
  can0  54A   [8]  DA 20 70 0A 55 55 00 78
  can0  54B   [8]  02 48 90 02 14 00 00 00
  can0  54C   [8]  F9 63 40 00 00 80 04 08
  can0  002   [8]  EF FD 00 07 37 A6 9F 0A
  can0  216   [2]  42 64
  can0  0C1   [8]  B0 FD 00 00 08 00 03 79
  can0  290   [8]  40 05 E9 06 E9 06 52 07
  can0  285   [8]  00 00 00 00 00 00 1A A1
  can0  284   [8]  00 00 00 00 00 00 1A A0
  can0  160   [7]  33 C3 1C 00 08 FF E0
  can0  180   [8]  14 B4 31 C3 3C 00 27 10
  can0  182   [8]  00 00 00 00 00 07 00 CF
  can0  1F9   [8]  20 00 14 B4 00 00 00 80
  can0  239   [5]  00 FF B1 80 57
  can0  1B4   [7]  00 00 E9 06 40 09 ED
  can0  2B0   [8]  00 0F FF 81 00 8C 90 5D
  can0  351   [8]  00 00 00 00 00 08 00 22
  can0  280   [8]  03 01 80 00 00 00 38 40
  can0  2DE   [8]  00 00 83 00 00 00 0A 1B
  can0  002   [8]  EF FD 00 07 C8 A6 9F 0A
  can0  215   [6]  FF F0 FF 00 FF FF
  can0  0C1   [8]  B0 FD 00 00 08 00 00 76
  can0  2A0   [6]  FF 7F FF 7F FE FE
  can0  245   [8]  FF E0 00 18 00 00 FF E0
  can0  160   [7]  33 C3 19 00 08 FF E0
  can0  180   [8]  14 B4 31 93 3C 00 28 10
  can0  182   [8]  00 00 00 00 00 08 00 CF
  can0  1F9   [8]  20 00 14 B4 00 00 00 80
  can0  1B4   [7]  00 00 E9 06 40 0A EE
  can0  2B0   [8]  00 0F FF 81 00 8C A0 6D
  can0  2B3   [6]  00 00 00 00 80 52
  can0  2DE   [8]  00 00 80 00 00 00 0A 1B
  can0  002   [8]  EF FD 00 07 D9 A6 9F 0A
  can0  216   [2]  42 64
  can0  0C1   [8]  B0 FD 00 00 08 00 01 77
  can0  290   [8]  40 05 E9 06 E9 06 62 17
  can0  285   [8]  00 00 00 00 00 00 1B A2
  can0  284   [8]  00 00 00 00 00 00 1B A1
  can0  160   [7]  33 C3 1D 00 08 FF E0
  can0  180   [8]  14 B4 31 D3 3C 00 29 10
  can0  182   [8]  00 00 00 00 00 09 00 CF
  can0  1F9   [8]  20 00 14 B4 00 00 00 80
  can0  239   [5]  00 FF B1 80 54
  can0  1B4   [7]  00 00 E9 06 40 0B EF
  can0  2B0   [8]  00 0F FF 81 00 8C B0 7D
  can0  385   [7]  04 00 00 00 00 00 00
  can0  2DE   [8]  00 00 81 00 00 00 0A 1B
  can0  280   [8]  03 01 80 00 00 00 3C 40
  can0  355   [7]  00 00 00 00 00 00 60
  can0  002   [8]  EF FD 00 07 EA A6 9F 0A
  can0  215   [6]  FF F0 FF 00 FF FF
  can0  0C1   [8]  B0 FD 00 00 08 00 02 78
  can0  354   [8]  00 00 00 00 00 00 04 00
  can0  2A0   [6]  FF 7F FE 7F FE FE
  can0  245   [8]  FF E0 00 18 00 00 FF E1
  can0  160   [7]  33 C3 1C 00 08 FF E0
  can0  180   [8]  14 B4 31 C3 3C 00 2A 10
  can0  182   [8]  00 00 00 00 00 0A 00 CF
  can0  1F9   [8]  20 00 14 B4 00 00 00 80
  can0  1B4   [7]  00 00 E9 06 40 0C F0
  can0  2B0   [8]  00 0F FF 81 00 8C C0 8D
  can0  2B3   [6]  00 00 00 00 80 52
  can0  2DE   [8]  00 00 82 00 00 00 0A 1B
  can0  002   [8]  EF FD 00 07 FB A6 9F 0A
  can0  216   [2]  42 64
  can0  0C1   [8]  B0 FD 00 00 08 00 03 79
  can0  290   [8]  40 05 E9 06 E9 06 72 27
  can0  285   [8]  00 00 00 00 00 00 1C A3
  can0  284   [8]  00 00 00 00 00 00 1C A2
  can0  160   [7]  33 C3 1C 00 08 FF E0
  can0  180   [8]  14 9B 31 C3 3C 00 2B 10
  can0  182   [8]  00 00 00 00 00 0B 00 CF
  can0  1F9   [8]  20 00 14 9B 00 00 00 80
  can0  239   [5]  00 FF B1 80 55
  can0  1B4   [7]  00 00 E9 06 40 0D F1
  can0  2B0   [8]  00 0F FF 81 00 8C D0 9D
  can0  540   [8]  28 20 00 00 00 00 00 01
  can0  541   [8]  00 00 00 00 00 00 00 81
  can0  542   [8]  00 00 00 00 00 00 00 01
  can0  60D   [8]  00 06 00 00 00 00 00 00
  can0  280   [8]  03 01 80 00 00 00 3C 40
  can0  2DE   [8]  00 00 83 00 00 00 0A 1B
  can0  5C5   [8]  44 02 75 EE 00 0C 00 00
  can0  002   [8]  EF FD 00 07 8C A6 9F 0A
  can0  215   [6]  FF F0 FF 00 FF FF
  can0  0C1   [8]  B0 FD 00 00 08 00 00 76
  can0  2A0   [6]  FF 7F FD 7F FE FE
  can0  245   [8]  FF E0 00 18 00 00 FF E2
  can0  160   [7]  33 C3 1B 00 08 FF E0
  can0  180   [8]  14 9B 31 B3 3C 00 2C 10
  can0  182   [8]  00 00 00 00 00 0C 00 CF
  can0  1F9   [8]  20 00 14 9B 00 00 00 80
  can0  1B4   [7]  00 00 E9 06 40 0E F2
  can0  2B0   [8]  00 0F FF 81 00 8C E0 AD
  can0  625   [6]  02 00 FF 1D 20 00
  can0  2B3   [6]  00 00 00 00 80 52
  can0  2DE   [8]  00 00 80 00 00 00 0A 1B
  can0  002   [8]  EF FD 00 07 9D A6 9F 0A
  can0  216   [2]  42 64
  can0  0C1   [8]  B0 FD 00 00 08 00 01 77
  can0  290   [8]  40 05 E9 06 E9 06 82 37
  can0  285   [8]  00 00 00 00 00 00 1D A4
  can0  284   [8]  00 00 00 00 00 00 1D A3
  can0  160   [7]  33 C3 1B 00 08 FF E0
  can0  180   [8]  14 9B 31 B3 3C 00 2D 10
  can0  182   [8]  00 00 00 00 00 0D 00 CF
  can0  1B4   [7]  00 00 E9 06 40 0F F3
  can0  1F9   [8]  20 00 14 9B 00 00 00 80
  can0  239   [5]  00 FF B1 80 56
  can0  2B0   [8]  00 0F FF 81 00 8C F0 BD
  can0  525   [1]  C0
  can0  2DE   [8]  00 00 81 00 00 00 0A 1B
  can0  280   [8]  03 01 80 00 00 00 3C 40
  can0  355   [7]  00 00 00 00 00 00 60
  can0  35D   [8]  80 03 00 00 00 00 00 00
  can0  002   [8]  EF FD 00 07 AE A6 9F 0A
  can0  215   [6]  FF F0 FF 00 FF FF
  can0  0C1   [8]  B0 FD 00 00 08 00 02 78
  can0  354   [8]  00 00 00 00 00 08 04 00
  can0  2A0   [6]  FF 7F FE 7F FE FE
  can0  245   [8]  FF E0 00 18 00 00 FF E3
  can0  160   [7]  33 C3 1B 00 08 FF E0
  can0  180   [8]  14 9B 31 B3 3C 00 2E 10
  can0  182   [8]  00 00 00 00 00 0E 00 CF
  can0  1B4   [7]  00 00 E9 06 40 00 E4
  can0  1F9   [8]  20 00 14 9B 00 00 00 80
  can0  2B0   [8]  00 0F FF 81 00 8C 00 CD
  can0  551   [8]  83 7A 00 80 00 02 80 FF
  can0  2B3   [6]  00 00 00 00 80 52
  can0  580   [3]  00 82 40
  can0  6E2   [3]  64 15 7A
  can0  2DE   [8]  00 00 82 00 00 00 0A 1B
  can0  002   [8]  EF FD 00 07 BF A6 9F 0A
  can0  216   [2]  42 64
  can0  0C1   [8]  B0 FD 00 00 08 00 03 79
  can0  290   [8]  40 05 E9 06 E9 06 92 47
  can0  285   [8]  00 00 00 00 00 00 1E A5
  can0  284   [8]  00 00 00 00 00 00 1E A4
  can0  160   [7]  33 C3 1C 00 08 FF E0
  can0  180   [8]  14 9B 31 C3 3C 00 2F 10
  can0  182   [8]  00 00 00 00 00 0F 00 CF
  can0  1B4   [7]  00 00 E9 06 40 01 E5
  can0  1F9   [8]  20 00 14 9B 00 00 00 80
  can0  239   [5]  00 FF B1 80 57
  can0  2B0   [8]  00 0F FF 81 00 8C 10 DD
  can0  2DE   [8]  00 00 83 00 00 00 0A 1B
  can0  280   [8]  03 FF 40 00 00 00 39 40
  can0  358   [8]  00 00 00 00 80 00 00 00
  can0  002   [8]  EF FD 00 07 40 A6 9F 0A
  can0  215   [6]  FF F0 FF 00 FF FF
  can0  0C1   [8]  B0 FD 00 00 08 00 00 76
  can0  2A0   [6]  FF 7F FE 7F FE FE
  can0  245   [8]  FF E0 00 18 00 00 FF E0
  can0  160   [7]  33 C3 1C 00 08 FF E0
  can0  180   [8]  14 9B 31 C3 3C 00 20 10
  can0  182   [8]  00 00 00 00 00 00 00 CF
  can0  1B4   [7]  00 00 E9 06 40 02 E6
  can0  1F9   [8]  20 00 14 9B 00 00 00 80
  can0  2B0   [8]  00 0F FF 81 00 8C 20 ED
  can0  2B3   [6]  00 00 00 00 80 52
  can0  2DE   [8]  00 00 80 00 00 00 0A 1B
  can0  54A   [8]  3C 20 70 0A 55 55 00 78
  can0  54B   [8]  02 48 90 02 14 00 00 00
  can0  54C   [8]  F9 63 40 00 00 80 04 08
  can0  002   [8]  EF FD 00 07 51 A6 9F 0A
  can0  216   [2]  42 64
  can0  0C1   [8]  B0 FD 00 00 08 00 01 77
  can0  290   [8]  40 05 E9 06 E9 06 A2 57
  can0  285   [8]  00 00 00 00 00 00 1F A6
  can0  284   [8]  00 00 00 00 00 00 1F A5
  can0  1B4   [7]  00 00 E9 06 40 03 E7
  can0  160   [7]  33 C3 1C 00 08 FF E0
  can0  180   [8]  14 82 31 C3 3C 00 21 10
  can0  182   [8]  00 00 00 00 00 01 00 CF
  can0  1F9   [8]  20 00 14 82 00 00 00 80
  can0  239   [5]  00 FF B1 80 54
  can0  2B0   [8]  00 0F FF 81 00 8C 30 FD
  can0  351   [8]  00 00 00 00 00 08 00 22
  can0  280   [8]  03 FF 40 00 00 00 39 40
  can0  2DE   [8]  00 00 81 00 00 00 0A 1B
  can0  355   [7]  00 00 00 00 00 00 60
  can0  002   [8]  EF FD 00 07 62 A6 9F 0A
  can0  215   [6]  FF F0 FF 00 FF FF
  can0  0C1   [8]  B0 FD 00 00 08 00 02 78
  can0  354   [8]  00 00 00 00 00 10 04 00
  can0  2A0   [6]  FF 7F FE 7F FE FE
  can0  245   [8]  FF E0 00 18 00 00 FF E1
  can0  1B4   [7]  00 00 E9 06 40 04 E8
  can0  2B0   [8]  00 0F FF 81 00 8C 40 0D
  can0  160   [7]  33 C3 1D 00 08 FF E0
  can0  180   [8]  14 82 31 D3 3C 00 22 10
  can0  182   [8]  00 00 00 00 00 02 00 CF
  can0  1F9   [8]  20 00 14 82 00 00 00 80
  can0  2B3   [6]  00 00 00 00 80 52
  can0  2DE   [8]  00 00 82 00 00 00 0A 1B
  can0  002   [8]  EF FD 00 07 73 A6 9F 0A
  can0  216   [2]  42 64
  can0  0C1   [8]  B0 FD 00 00 08 00 03 79
  can0  290   [8]  40 05 E9 06 E9 06 B2 67
  can0  285   [8]  00 00 00 00 00 00 20 A7
  can0  284   [8]  00 00 00 00 00 00 20 A6
  can0  1B4   [7]  00 00 E9 06 40 05 E9
  can0  2B0   [8]  00 0F FF 81 00 8C 50 1D
  can0  160   [7]  33 C3 1A 00 08 FF E0
  can0  180   [8]  14 82 31 A3 3C 00 23 10
  can0  182   [8]  00 00 00 00 00 03 00 CF
  can0  1F9   [8]  20 00 14 82 00 00 00 80
  can0  239   [5]  00 FF B1 80 55
  can0  385   [7]  04 00 00 00 00 00 00
  can0  280   [8]  03 00 80 00 00 00 39 40
  can0  2DE   [8]  00 00 83 00 00 00 0A 1B
  can0  002   [8]  EF FD 00 07 04 A6 9F 0A
  can0  215   [6]  FF F0 FF 00 FF FF
  can0  0C1   [8]  B0 FD 00 00 08 00 00 76
  can0  2A0   [6]  FF 7F FE 7F FE FE
  can0  245   [8]  FF E0 00 18 00 00 FF E2
  can0  1B4   [7]  00 00 E9 06 40 06 EA
  can0  2B0   [8]  00 0F FF 81 00 8C 60 2D
  can0  2B3   [6]  00 00 00 00 80 52
  can0  160   [7]  33 C3 1A 00 08 FF E0
  can0  180   [8]  14 9B 31 A3 3C 00 24 10
  can0  182   [8]  00 00 00 00 00 04 00 CF
  can0  1F9   [8]  20 00 14 9B 00 00 00 80
  can0  2DE   [8]  00 00 80 00 00 00 0A 1B
  can0  002   [8]  EF FD 00 07 15 A6 9F 0A
  can0  216   [2]  42 64
  can0  0C1   [8]  B0 FD 00 00 08 00 01 77
  can0  290   [8]  40 05 E9 06 E9 06 C2 77
  can0  285   [8]  00 00 00 00 00 00 21 A8
  can0  284   [8]  00 00 00 00 00 00 21 A7
  can0  1B4   [7]  00 00 E9 06 40 07 EB
  can0  2B0   [8]  00 0F FF 81 00 8C 70 3D
  can0  160   [7]  33 C3 1C 00 08 FF E0
  can0  180   [8]  14 9B 31 C3 3C 00 25 10
  can0  182   [8]  00 00 00 00 00 05 00 CF
  can0  1F9   [8]  20 00 14 9B 00 00 00 80
  can0  239   [5]  00 FF B1 80 56
  can0  540   [8]  28 20 00 00 00 00 00 02
  can0  541   [8]  00 00 00 00 00 00 00 82
  can0  542   [8]  00 00 00 00 00 00 00 02
  can0  2DE   [8]  00 00 81 00 00 00 0A 1B
  can0  280   [8]  03 00 80 00 00 00 39 40
  can0  355   [7]  00 00 00 00 00 00 60
  can0  5C5   [8]  44 02 75 EE 00 0C 00 00
  can0  002   [8]  EF FD 00 07 26 A6 9F 0A
  can0  60D   [8]  00 06 00 00 00 00 00 00
  can0  215   [6]  FF F0 FF 00 FF FF
  can0  0C1   [8]  B0 FD 00 00 08 00 02 78
  can0  354   [8]  00 00 00 00 00 18 04 00
  can0  2A0   [6]  FF 7F FC 7F FE FE
  can0  245   [8]  FF E0 00 18 00 00 FF E3
  can0  1B4   [7]  00 00 E9 06 40 08 EC
  can0  625   [6]  02 00 FF 1D 20 00
  can0  2B0   [8]  00 0F FF 81 00 8C 80 4D
  can0  2B3   [6]  00 00 00 00 80 52
  can0  160   [7]  33 C3 1C 00 08 FF E0
  can0  180   [8]  14 9B 31 C3 3C 00 26 10
  can0  182   [8]  00 00 00 00 00 06 00 CF
  can0  1F9   [8]  20 00 14 9B 00 00 00 80
  can0  2DE   [8]  00 00 82 00 00 00 0A 1B
  can0  002   [8]  EF FD 00 07 37 A6 9F 0A
  can0  216   [2]  42 64
  can0  0C1   [8]  B0 FD 00 00 08 00 03 79
  can0  290   [8]  40 05 E9 06 E9 06 D2 87
  can0  285   [8]  00 00 00 00 00 00 22 A9
  can0  284   [8]  00 00 00 00 00 00 22 A8
  can0  1B4   [7]  00 00 E9 06 40 09 ED
  can0  2B0   [8]  00 0F FF 81 00 8C 90 5D
  can0  160   [7]  33 C3 1C 00 08 FF E0
  can0  180   [8]  14 82 31 C3 3C 00 27 10
  can0  182   [8]  00 00 00 00 00 07 00 CF
  can0  1F9   [8]  20 00 14 82 00 00 00 80
  can0  239   [5]  00 FF B1 80 57
  can0  525   [1]  C0
  can0  2DE   [8]  00 00 83 00 00 00 0A 1B
  can0  280   [8]  03 00 80 00 00 00 39 40
  can0  35D   [8]  80 03 00 00 00 00 00 00
  can0  002   [8]  EF FD 00 07 C8 A6 9F 0A
  can0  215   [6]  FF F0 FF 00 FF FF
  can0  0C1   [8]  B0 FD 00 00 08 00 00 76
  can0  2A0   [6]  FF 7F FC 7F FE FE
  can0  245   [8]  FF E0 00 18 00 00 FF E0
  can0  1B4   [7]  00 00 E9 06 40 0A EE
  can0  2B0   [8]  00 0F FF 81 00 8C A0 6D
  can0  2B3   [6]  00 00 00 00 80 52
  can0  160   [7]  33 C3 1C 00 08 FF E0
  can0  180   [8]  14 82 31 C3 3C 00 28 10
  can0  182   [8]  00 00 00 00 00 08 00 CF
  can0  1F9   [8]  20 00 14 82 00 00 00 80
  can0  551   [8]  83 7A 00 80 00 02 80 FF
  can0  580   [3]  00 82 40
  can0  6E2   [3]  64 15 7B
  can0  2DE   [8]  00 00 80 00 00 00 0A 1B
  can0  002   [8]  EF FD 00 07 D9 A6 9F 0A
  can0  216   [2]  42 64
  can0  0C1   [8]  B0 FD 00 00 08 00 01 77
  can0  290   [8]  40 05 E9 06 E9 06 E2 97
  can0  285   [8]  00 00 00 00 00 00 23 AA
  can0  284   [8]  00 00 00 00 00 00 23 A9
  can0  1B4   [7]  00 00 E9 06 40 0B EF
  can0  2B0   [8]  00 0F FF 81 00 8C B0 7D
  can0  160   [7]  33 C3 1D 00 08 FF E0
  can0  180   [8]  14 82 31 D3 3C 00 29 10
  can0  182   [8]  00 00 00 00 00 09 00 CF
  can0  1F9   [8]  20 00 14 82 00 00 00 80
  can0  239   [5]  00 FF B1 80 54
  can0  2DE   [8]  00 00 81 00 00 00 0A 1B
  can0  280   [8]  03 01 80 00 00 00 3C 40
  can0  355   [7]  00 00 00 00 00 00 60
  can0  358   [8]  00 00 00 00 80 00 00 00
  can0  002   [8]  EF FD 00 07 EA A6 9F 0A
  can0  215   [6]  FF F0 FF 00 FF FF
  can0  0C1   [8]  B0 FD 00 00 08 00 02 78
  can0  354   [8]  00 00 00 00 00 00 04 00
  can0  2A0   [6]  FF 7F FE 7F FE FE
  can0  245   [8]  FF E0 00 18 00 00 FF E1
  can0  1B4   [7]  00 00 E9 06 40 0C F0
  can0  2B0   [8]  00 0F FF 81 00 8C C0 8D
  can0  2B3   [6]  00 00 00 00 80 52
  can0  160   [7]  33 C3 1D 00 08 FF E0
  can0  180   [8]  14 82 31 D3 3C 00 2A 10
  can0  182   [8]  00 00 00 00 00 0A 00 CF
  can0  1F9   [8]  20 00 14 82 00 00 00 80
  can0  2DE   [8]  00 00 82 00 00 00 0A 1B
  can0  54A   [8]  DA 20 70 0A 55 55 00 78
  can0  54B   [8]  02 48 90 02 14 00 00 00
  can0  54C   [8]  F9 63 40 00 00 80 04 08
  can0  002   [8]  EF FD 00 07 FB A6 9F 0A
  can0  216   [2]  42 64
  can0  0C1   [8]  B0 FD 00 00 08 00 03 79
  can0  290   [8]  40 05 E9 06 E9 06 F2 A7
  can0  285   [8]  00 00 00 00 00 00 24 AB
  can0  284   [8]  00 00 00 00 00 00 24 AA
  can0  1B4   [7]  00 00 E9 06 40 0D F1
  can0  2B0   [8]  00 0F FF 81 00 8C D0 9D
  can0  160   [7]  33 C3 1E 00 08 FF E0
  can0  180   [8]  14 82 31 E3 3C 00 2B 10
  can0  182   [8]  00 00 00 00 00 0B 00 CF
  can0  1F9   [8]  20 00 14 82 00 00 00 80
  can0  239   [5]  00 FF B1 80 55
  can0  2DE   [8]  00 00 83 00 00 00 0A 1B
  can0  280   [8]  03 01 80 00 00 00 3C 40
  can0  351   [8]  00 00 00 00 00 08 00 22
  can0  002   [8]  EF FD 00 07 8C A6 9F 0A
  can0  215   [6]  FF F0 FF 00 FF FF
  can0  0C1   [8]  B0 FD 00 00 08 00 00 76
  can0  2A0   [6]  FF 7F FE 7F FE FE
  can0  245   [8]  FF E0 00 18 00 00 FF E2
  can0  1B4   [7]  00 00 E9 06 40 0E F2
  can0  2B0   [8]  00 0F FF 81 00 8C E0 AD
  can0  2B3   [6]  00 00 00 00 80 52
  can0  160   [7]  33 C3 1B 00 08 FF E0
  can0  180   [8]  14 82 31 B3 3C 00 2C 10
  can0  182   [8]  00 00 00 00 00 0C 00 CF
  can0  1F9   [8]  20 00 14 82 00 00 00 80
  can0  2DE   [8]  00 00 80 00 00 00 0A 1B
  can0  002   [8]  EF FD 00 07 9D A6 9F 0A
  can0  216   [2]  42 64
  can0  0C1   [8]  B0 FD 00 00 08 00 01 77
  can0  290   [8]  40 05 E9 06 E9 06 02 B7
  can0  285   [8]  00 00 00 00 00 00 25 AC
  can0  284   [8]  00 00 00 00 00 00 25 AB
  can0  1B4   [7]  00 00 E9 06 40 0F F3
  can0  2B0   [8]  00 0F FF 81 00 8C F0 BD
  can0  160   [7]  33 C3 1B 00 08 FF E0
  can0  180   [8]  14 82 31 B3 3C 00 2D 10
  can0  182   [8]  00 00 00 00 00 0D 00 CF
  can0  1F9   [8]  20 00 14 82 00 00 00 80
  can0  239   [5]  00 FF B1 80 56
  can0  280   [8]  03 01 80 00 00 00 3A 40
  can0  2DE   [8]  00 00 81 00 00 00 0A 1B
  can0  355   [7]  00 00 00 00 00 00 60
  can0  002   [8]  EF FD 00 07 AE A6 9F 0A
  can0  385   [7]  04 00 00 00 00 00 00
  can0  215   [6]  FF F0 FF 00 FF FF
  can0  0C1   [8]  B0 FD 00 00 08 00 02 78
  can0  354   [8]  00 00 00 00 00 08 04 00
  can0  2A0   [6]  FF 7F FD 7F FE FE
  can0  245   [8]  FF E0 00 18 00 00 FF E3
  can0  1B4   [7]  00 00 E9 06 40 00 E4
  can0  2B0   [8]  00 0F FF 81 00 8C 00 CD
  can0  2B3   [6]  00 00 00 00 80 52
  can0  160   [7]  33 C3 1D 00 08 FF E0
  can0  180   [8]  14 82 31 D3 3C 00 2E 10
  can0  182   [8]  00 00 00 00 00 0E 00 CF
  can0  1F9   [8]  20 00 14 82 00 00 00 80
  can0  2DE   [8]  00 00 82 00 00 00 0A 1B
  can0  002   [8]  EF FD 00 07 BF A6 9F 0A
  can0  216   [2]  42 64
  can0  0C1   [8]  B0 FD 00 00 08 00 03 79
  can0  290   [8]  40 05 E9 06 E9 06 12 C7
  can0  285   [8]  00 00 00 00 00 00 26 AD
  can0  284   [8]  00 00 00 00 00 00 26 AC
  can0  1B4   [7]  00 00 E9 06 40 01 E5
  can0  2B0   [8]  00 0F FF 81 00 8C 10 DD
  can0  540   [8]  28 20 00 00 00 00 00 03
  can0  541   [8]  00 00 00 00 00 00 00 83
  can0  542   [8]  00 00 00 00 00 00 00 03
  can0  160   [7]  33 C3 1C 00 08 FF E0
  can0  180   [8]  14 82 31 C3 3C 00 2F 10
  can0  182   [8]  00 00 00 00 00 0F 00 CF
  can0  1F9   [8]  20 00 14 82 00 00 00 80
  can0  239   [5]  00 FF B1 80 57
  can0  002   [8]  EF FD 00 07 40 A6 9F 0A
  can0  280   [8]  03 01 80 00 00 00 3A 40
  can0  2DE   [8]  00 00 83 00 00 00 0A 1B
  can0  5C5   [8]  44 02 75 EE 00 0C 00 00
  can0  60D   [8]  00 06 00 00 00 00 00 00
  can0  215   [6]  FF F0 FF 00 FF FF
  can0  0C1   [8]  B0 FD 00 00 08 00 00 76
  can0  2A0   [6]  FF 7F FE 7F FE FE
  can0  245   [8]  FF E0 00 18 00 00 FF E0
  can0  625   [6]  02 00 FF 1D 20 00
  can0  1B4   [7]  00 00 E9 06 40 02 E6
  can0  2B0   [8]  00 0F FF 81 00 8C 20 ED
  can0  2B3   [6]  00 00 00 00 80 52
  can0  160   [7]  33 C3 1C 00 08 FF E0
  can0  180   [8]  14 82 31 C3 3C 00 20 10
  can0  182   [8]  00 00 00 00 00 00 00 CF
  can0  1F9   [8]  20 00 14 82 00 00 00 80
  can0  2DE   [8]  00 00 80 00 00 00 0A 1B
  can0  002   [8]  EF FD 00 07 51 A6 9F 0A
  can0  216   [2]  42 64
  can0  0C1   [8]  B0 FD 00 00 08 00 01 77
  can0  290   [8]  40 05 E9 06 E9 06 22 D7
  can0  285   [8]  00 00 00 00 00 00 27 AE
  can0  284   [8]  00 00 00 00 00 00 27 AD
  can0  1B4   [7]  00 00 E9 06 40 03 E7
  can0  2B0   [8]  00 0F FF 81 00 8C 30 FD
  can0  525   [1]  C0
  can0  2DE   [8]  00 00 81 00 00 00 0A 1B
  can0  280   [8]  03 01 80 00 00 00 3A 40
  can0  355   [7]  00 00 00 00 00 00 60
  can0  160   [7]  33 C3 1D 00 08 FF E0
  can0  180   [8]  14 82 31 D3 3C 00 21 10
  can0  182   [8]  00 00 00 00 00 01 00 CF
  can0  002   [8]  EF FD 00 07 62 A6 9F 0A
  can0  1F9   [8]  20 00 14 82 00 00 00 80
  can0  239   [5]  00 FF B1 80 54
  can0  35D   [8]  80 03 00 00 00 00 00 00
  can0  215   [6]  FF F0 FF 00 FF FF
  can0  0C1   [8]  B0 FD 00 00 08 00 02 78
  can0  354   [8]  00 00 00 00 00 10 04 00
  can0  2A0   [6]  FF 7F FE 7F FE FE
  can0  245   [8]  FF E0 00 18 00 00 FF E1
  can0  1B4   [7]  00 00 E9 06 40 04 E8
  can0  2B0   [8]  00 0F FF 81 00 8C 40 0D
  can0  2B3   [6]  00 00 00 00 80 52
  can0  2DE   [8]  00 00 82 00 00 00 0A 1B
  can0  160   [7]  33 C3 1D 00 08 FF E0
  can0  180   [8]  14 82 31 D3 3C 00 22 10
  can0  182   [8]  00 00 00 00 00 02 00 CF
  can0  002   [8]  EF FD 00 07 73 A6 9F 0A
  can0  1F9   [8]  20 00 14 82 00 00 00 80
  can0  216   [2]  42 64
  can0  551   [8]  83 7B 00 80 00 02 80 FF
  can0  580   [3]  00 82 40
  can0  6E2   [3]  64 15 78
  can0  0C1   [8]  B0 FD 00 00 08 00 03 79
  can0  290   [8]  40 05 E9 06 E9 06 32 E7
  can0  285   [8]  00 00 00 00 00 00 28 AF
  can0  284   [8]  00 00 00 00 00 00 28 AE
  can0  1B4   [7]  00 00 E9 06 40 05 E9
  can0  2B0   [8]  00 0F FF 81 00 8C 50 1D
  can0  2DE   [8]  00 00 83 00 00 00 0A 1B
  can0  280   [8]  03 00 80 00 00 00 38 40
  can0  358   [8]  00 00 00 00 80 00 00 00
  can0  160   [7]  33 C3 1D 00 08 FF E0
  can0  002   [8]  EF FD 00 07 04 A6 9F 0A
  can0  180   [8]  14 9B 31 D3 3C 00 23 10
  can0  182   [8]  00 00 00 00 00 03 00 CF
  can0  1F9   [8]  20 00 14 9B 00 00 00 80
  can0  239   [5]  00 FF B1 80 55
  can0  215   [6]  FF F0 FF 00 FF FF
  can0  0C1   [8]  B0 FD 00 00 08 00 00 76
  can0  2A0   [6]  FF 7F FE 7F FE FE
  can0  245   [8]  FF E0 00 18 00 00 FF E2
  can0  1B4   [7]  00 00 E9 06 40 06 EA
  can0  2B0   [8]  00 0F FF 81 00 8C 60 2D
  can0  2B3   [6]  00 00 00 00 80 52
  can0  2DE   [8]  00 00 80 00 00 00 0A 1B
  can0  54A   [8]  3C 20 70 0A 55 55 00 78
  can0  54B   [8]  02 48 90 02 14 00 00 00
  can0  54C   [8]  F9 63 40 00 00 80 04 08
  can0  002   [8]  EF FD 00 07 15 A6 9F 0A
  can0  160   [7]  33 C3 1D 00 08 FF E0
  can0  180   [8]  14 9B 31 D3 3C 00 24 10
  can0  182   [8]  00 00 00 00 00 04 00 CF
  can0  1F9   [8]  20 00 14 9B 00 00 00 80
  can0  216   [2]  42 64
  can0  0C1   [8]  B0 FD 00 00 08 00 01 77
  can0  290   [8]  40 05 E9 06 E9 06 42 F7
  can0  285   [8]  00 00 00 00 00 00 29 B0
  can0  284   [8]  00 00 00 00 00 00 29 AF
  can0  1B4   [7]  00 00 E9 06 40 07 EB
  can0  2B0   [8]  00 0F FF 81 00 8C 70 3D
  can0  351   [8]  00 00 00 00 00 08 00 22
  can0  280   [8]  03 00 80 00 00 00 38 40
  can0  2DE   [8]  00 00 81 00 00 00 0A 1B
  can0  355   [7]  00 00 00 00 00 00 60
  can0  002   [8]  EF FD 00 07 26 A6 9F 0A
  can0  160   [7]  33 C3 1D 00 08 FF E0
  can0  180   [8]  14 9B 31 D3 3C 00 25 10
  can0  182   [8]  00 00 00 00 00 05 00 CF
  can0  1F9   [8]  20 00 14 9B 00 00 00 80
  can0  215   [6]  FF F0 FF 00 FF FF
  can0  239   [5]  00 FF B1 80 56
  can0  0C1   [8]  B0 FD 00 00 08 00 02 78
  can0  354   [8]  00 00 00 00 00 18 04 00
  can0  2A0   [6]  FF 7F FE 7F FE FE
  can0  245   [8]  FF E0 00 18 00 00 FF E3
  can0  1B4   [7]  00 00 E9 06 40 08 EC
  can0  2B0   [8]  00 0F FF 81 00 8C 80 4D
  can0  2B3   [6]  00 00 00 00 80 52
  can0  2DE   [8]  00 00 82 00 00 00 0A 1B
  can0  002   [8]  EF FD 00 07 37 A6 9F 0A
  can0  160   [7]  33 C3 1D 00 08 FF E0
  can0  180   [8]  14 82 31 D3 3C 00 26 10
  can0  182   [8]  00 00 00 00 00 06 00 CF
  can0  1F9   [8]  20 00 14 82 00 00 00 80
  can0  216   [2]  42 64
  can0  0C1   [8]  B0 FD 00 00 08 00 03 79
  can0  290   [8]  40 05 E9 06 E9 06 52 07
  can0  285   [8]  00 00 00 00 00 00 2A B1
  can0  284   [8]  00 00 00 00 00 00 2A B0
  can0  1B4   [7]  00 00 E9 06 40 09 ED
  can0  2B0   [8]  00 0F FF 81 00 8C 90 5D
  can0  385   [7]  04 00 00 00 00 00 00
  can0  280   [8]  03 00 80 00 00 00 3B 40
  can0  2DE   [8]  00 00 83 00 00 00 0A 1B
  can0  002   [8]  EF FD 00 07 C8 A6 9F 0A
  can0  160   [7]  33 C3 1E 00 08 FF E0
  can0  180   [8]  14 82 31 E3 3C 00 27 10
  can0  182   [8]  00 00 00 00 00 07 00 CF
  can0  1F9   [8]  20 00 14 82 00 00 00 80
  can0  0C1   [8]  B0 FD 00 00 08 00 00 76
  can0  215   [6]  FF F0 FF 00 FF FF
  can0  239   [5]  00 FF B1 80 57
  can0  2A0   [6]  FF 7F FE 7F FE FE
  can0  245   [8]  FF E0 00 18 00 00 FF E0
  can0  1B4   [7]  00 00 E9 06 40 0A EE
  can0  2B0   [8]  00 0F FF 81 00 8C A0 6D
  can0  2B3   [6]  00 00 00 00 80 52
  can0  2DE   [8]  00 00 80 00 00 00 0A 1B
  can0  002   [8]  EF FD 00 07 D9 A6 9F 0A
  can0  216   [2]  42 64
  can0  160   [7]  33 C3 1D 00 08 FF E0
  can0  180   [8]  14 82 31 D3 3C 00 28 10
  can0  182   [8]  00 00 00 00 00 08 00 CF
  can0  1F9   [8]  20 00 14 82 00 00 00 80
  can0  0C1   [8]  B0 FD 00 00 08 00 01 77
  can0  290   [8]  40 05 E9 06 E9 06 62 17
  can0  285   [8]  00 00 00 00 00 00 2B B2
  can0  284   [8]  00 00 00 00 00 00 2B B1
  can0  1B4   [7]  00 00 E9 06 40 0B EF
  can0  2B0   [8]  00 0F FF 81 00 8C B0 7D
  can0  540   [8]  28 20 00 00 00 00 00 00
  can0  541   [8]  00 00 00 00 00 00 00 80
  can0  542   [8]  00 00 00 00 00 00 00 00
  can0  2DE   [8]  00 00 81 00 00 00 0A 1B
  can0  280   [8]  03 00 80 00 00 00 3B 40
  can0  355   [7]  00 00 00 00 00 00 60
  can0  5C5   [8]  44 02 75 EE 00 0C 00 00
  can0  002   [8]  EF FD 00 07 EA A6 9F 0A
  can0  60D   [8]  00 06 00 00 00 00 00 00
  can0  215   [6]  FF F0 FF 00 FF FF
  can0  160   [7]  33 C3 1D 00 08 FF E0
  can0  180   [8]  14 69 31 D3 3C 00 29 10
  can0  182   [8]  00 00 00 00 00 09 00 CF
  can0  0C1   [8]  B0 FD 00 00 08 00 02 78
  can0  1F9   [8]  20 00 14 69 00 00 00 80
  can0  239   [5]  00 FF B1 80 54
  can0  354   [8]  00 00 00 00 00 00 04 00
  can0  2A0   [6]  FF 7F FD 7F FE FE
  can0  245   [8]  FF E0 00 18 00 00 FF E1
  can0  625   [6]  02 00 FF 1D 20 00
  can0  1B4   [7]  00 00 E9 06 40 0C F0
  can0  2B0   [8]  00 0F FF 81 00 8C C0 8D
  can0  2B3   [6]  00 00 00 00 80 52
  can0  2DE   [8]  00 00 82 00 00 00 0A 1B
  can0  002   [8]  EF FD 00 07 FB A6 9F 0A
  can0  216   [2]  42 64
  can0  160   [7]  33 D3 1E 00 08 FF E0
  can0  180   [8]  14 69 31 E3 3D 00 2A 10
  can0  0C1   [8]  B0 FD 00 00 08 00 03 79
  can0  182   [8]  00 00 00 00 00 0A 00 CF
  can0  1F9   [8]  20 00 14 69 00 00 00 80
  can0  290   [8]  40 05 E9 06 E9 06 72 27
  can0  285   [8]  00 00 00 00 00 00 2C B3
  can0  284   [8]  00 00 00 00 00 00 2C B2
  can0  1B4   [7]  00 00 E9 06 40 0D F1
  can0  2B0   [8]  00 0F FF 81 00 8C D0 9D
  can0  525   [1]  C0
  can0  2DE   [8]  00 00 83 00 00 00 0A 1B
  can0  280   [8]  03 00 80 00 00 00 3B 40
  can0  35D   [8]  80 03 00 00 00 00 00 00
  can0  002   [8]  EF FD 00 07 8C A6 9F 0A
  can0  215   [6]  FF F0 FF 00 FF FF
  can0  160   [7]  33 D3 1D 00 08 FF E0
  can0  0C1   [8]  B0 FD 00 00 08 00 00 76
  can0  180   [8]  14 82 31 D3 3D 00 2B 10
  can0  182   [8]  00 00 00 00 00 0B 00 CF
  can0  1F9   [8]  20 00 14 82 00 00 00 80
  can0  239   [5]  00 FF B1 80 55
  can0  2A0   [6]  FF 7F FE 7F FE FE
  can0  245   [8]  FF E0 00 18 00 00 FF E2
  can0  1B4   [7]  00 00 E9 06 40 0E F2
  can0  2B0   [8]  00 0F FF 81 00 8C E0 AD
  can0  2B3   [6]  00 00 00 00 80 52
  can0  2DE   [8]  00 00 80 00 00 00 0A 1B
  can0  002   [8]  EF FD 00 07 9D A6 9F 0A
  can0  216   [2]  42 64
  can0  0C1   [8]  B0 FD 00 00 08 00 01 77
  can0  160   [7]  33 D3 1D 00 08 FF E0
  can0  180   [8]  14 82 31 D3 3D 00 2C 10
  can0  182   [8]  00 00 00 00 00 0C 00 CF
  can0  1F9   [8]  20 00 14 82 00 00 00 80
  can0  290   [8]  40 05 E9 06 E9 06 82 37
  can0  285   [8]  00 00 00 00 00 00 2D B4
  can0  284   [8]  00 00 00 00 00 00 2D B3
  can0  551   [8]  83 7B 00 80 00 02 80 FF
  can0  580   [3]  00 82 40
  can0  6E2   [3]  64 15 79
  can0  1B4   [7]  00 00 E9 06 40 0F F3
  can0  2B0   [8]  00 0F FF 81 00 8C F0 BD
  can0  2DE   [8]  00 00 81 00 00 00 0A 1B
  can0  280   [8]  03 01 80 00 00 00 3A 40
  can0  355   [7]  00 00 00 00 00 00 60
  can0  358   [8]  00 00 00 00 80 00 00 00
  can0  002   [8]  EF FD 00 07 AE A6 9F 0A
  can0  215   [6]  FF F0 FF 00 FF FF
  can0  0C1   [8]  B0 FD 00 00 08 00 02 78
  can0  354   [8]  00 00 00 00 00 08 04 00
  can0  2A0   [6]  FF 7F FE 7F FE FE
  can0  160   [7]  33 C3 1D 00 08 FF E0
  can0  180   [8]  14 82 31 D3 3C 00 2D 10
  can0  182   [8]  00 00 00 00 00 0D 00 CF
  can0  1F9   [8]  20 00 14 82 00 00 00 80
  can0  239   [5]  00 FF B1 80 56
  can0  245   [8]  FF E0 00 18 00 00 FF E3
  can0  1B4   [7]  00 00 E9 06 40 00 E4
  can0  2B0   [8]  00 0F FF 81 00 8C 00 CD
  can0  2B3   [6]  00 00 00 00 80 52
  can0  2DE   [8]  00 00 82 00 00 00 0A 1B
  can0  54A   [8]  DA 20 70 0A 55 55 00 78
  can0  54B   [8]  02 48 90 02 14 00 00 00
  can0  54C   [8]  F9 63 40 00 00 80 04 08
  can0  002   [8]  EF FD 00 07 BF A6 9F 0A
  can0  216   [2]  42 64
  can0  0C1   [8]  B0 FD 00 00 08 00 03 79
  can0  290   [8]  40 05 E9 06 E9 06 92 47
  can0  160   [7]  33 C3 1D 00 08 FF E0
  can0  180   [8]  14 9B 31 D3 3C 00 2E 10
  can0  182   [8]  00 00 00 00 00 0E 00 CF
  can0  1F9   [8]  20 00 14 9B 00 00 00 80
  can0  285   [8]  00 00 00 00 00 00 2E B5
  can0  284   [8]  00 00 00 00 00 00 2E B4
  can0  1B4   [7]  00 00 E9 06 40 01 E5
  can0  2B0   [8]  00 0F FF 81 00 8C 10 DD
  can0  351   [8]  00 00 00 00 00 08 00 22
  can0  280   [8]  03 01 80 00 00 00 3A 40
  can0  2DE   [8]  00 00 83 00 00 00 0A 1B
  can0  002   [8]  EF FD 00 07 40 A6 9F 0A
  can0  215   [6]  FF F0 FF 00 FF FF
  can0  0C1   [8]  B0 FD 00 00 08 00 00 76
  can0  2A0   [6]  FF 7F FC 7F FE FE
  can0  245   [8]  FF E0 00 18 00 00 FF E0
  can0  160   [7]  33 C3 1D 00 08 FF E0
  can0  180   [8]  14 9B 31 D3 3C 00 2F 10
  can0  182   [8]  00 00 00 00 00 0F 00 CF
  can0  1F9   [8]  20 00 14 9B 00 00 00 80
  can0  239   [5]  00 FF B1 80 57
  can0  1B4   [7]  00 00 E9 06 40 02 E6
  can0  2B0   [8]  00 0F FF 81 00 8C 20 ED
  can0  2B3   [6]  00 00 00 00 80 52
  can0  2DE   [8]  00 00 80 00 00 00 0A 1B
  can0  002   [8]  EF FD 00 07 51 A6 9F 0A
  can0  216   [2]  42 64
  can0  0C1   [8]  B0 FD 00 00 08 00 01 77
  can0  290   [8]  40 05 E9 06 E9 06 A2 57
  can0  285   [8]  00 00 00 00 00 00 2F B6
  can0  284   [8]  00 00 00 00 00 00 2F B5
  can0  160   [7]  33 C3 1E 00 08 FF E0
  can0  180   [8]  14 9B 31 E3 3C 00 20 10
  can0  182   [8]  00 00 00 00 00 00 00 CF
  can0  1F9   [8]  20 00 14 9B 00 00 00 80
  can0  1B4   [7]  00 00 E9 06 40 03 E7
  can0  2B0   [8]  00 0F FF 81 00 8C 30 FD
  can0  385   [7]  04 00 00 00 00 00 00
  can0  280   [8]  03 00 80 00 00 00 39 40
  can0  2DE   [8]  00 00 81 00 00 00 0A 1B
  can0  355   [7]  00 00 00 00 00 00 60
  can0  002   [8]  EF FD 00 07 62 A6 9F 0A
  can0  215   [6]  FF F0 FF 00 FF FF
  can0  0C1   [8]  B0 FD 00 00 08 00 02 78
  can0  354   [8]  00 00 00 00 00 10 04 00
  can0  2A0   [6]  FF 7F FD 7F FE FE
  can0  245   [8]  FF E0 00 18 00 00 FF E1
  can0  160   [7]  33 C3 1E 00 08 FF E0
  can0  180   [8]  14 B4 31 E3 3C 00 21 10
  can0  182   [8]  00 00 00 00 00 01 00 CF
  can0  1F9   [8]  20 00 14 B4 00 00 00 80
  can0  239   [5]  00 FF B1 80 54
  can0  1B4   [7]  00 00 E9 06 40 04 E8
  can0  2B0   [8]  00 0F FF 81 00 8C 40 0D
  can0  2B3   [6]  00 00 00 00 80 52
  can0  2DE   [8]  00 00 82 00 00 00 0A 1B
  can0  002   [8]  EF FD 00 07 73 A6 9F 0A
  can0  216   [2]  42 64
  can0  0C1   [8]  B0 FD 00 00 08 00 03 79
  can0  290   [8]  40 05 E9 06 E9 06 B2 67
  can0  285   [8]  00 00 00 00 00 00 30 B7
  can0  284   [8]  00 00 00 00 00 00 30 B6
  can0  160   [7]  33 C3 1E 00 08 FF E0
  can0  180   [8]  14 B4 31 E3 3C 00 22 10
  can0  182   [8]  00 00 00 00 00 02 00 CF
  can0  1F9   [8]  20 00 14 B4 00 00 00 80
  can0  1B4   [7]  00 00 E9 06 40 05 E9
  can0  2B0   [8]  00 0F FF 81 00 8C 50 1D
  can0  540   [8]  28 20 00 00 00 00 00 01
  can0  541   [8]  00 00 00 00 00 00 00 81
  can0  542   [8]  00 00 00 00 00 00 00 01
  can0  2DE   [8]  00 00 83 00 00 00 0A 1B
  can0  280   [8]  03 00 80 00 00 00 39 40
  can0  5C5   [8]  44 02 75 EE 00 0C 00 00
  can0  60D   [8]  00 06 00 00 00 00 00 00
  can0  002   [8]  EF FD 00 07 04 A6 9F 0A
  can0  215   [6]  FF F0 FF 00 FF FF
  can0  0C1   [8]  B0 FD 00 00 08 00 00 76
  can0  2A0   [6]  FF 7F FF 7F FE FE
  can0  245   [8]  FF E0 00 18 00 00 FF E2
  can0  160   [7]  33 C3 1B 00 08 FF E0
  can0  180   [8]  14 B4 31 B3 3C 00 23 10
  can0  182   [8]  00 00 00 00 00 03 00 CF
  can0  1F9   [8]  20 00 14 B4 00 00 00 80
  can0  239   [5]  00 FF B1 80 55
  can0  625   [6]  02 00 FF 1D 20 00
  can0  1B4   [7]  00 00 E9 06 40 06 EA
  can0  2B0   [8]  00 0F FF 81 00 8C 60 2D
  can0  2B3   [6]  00 00 00 00 80 52
  can0  2DE   [8]  00 00 80 00 00 00 0A 1B
  can0  002   [8]  EF FD 00 07 15 A6 9F 0A
  can0  216   [2]  42 64
  can0  0C1   [8]  B0 FD 00 00 08 00 01 77
  can0  290   [8]  40 05 E9 06 E9 06 C2 77
  can0  285   [8]  00 00 00 00 00 00 31 B8
  can0  284   [8]  00 00 00 00 00 00 31 B7
  can0  160   [7]  33 C3 1B 00 08 FF E0
  can0  180   [8]  14 B4 31 B3 3C 00 24 10
  can0  182   [8]  00 00 00 00 00 04 00 CF
  can0  1F9   [8]  20 00 14 B4 00 00 00 80
  can0  1B4   [7]  00 00 E9 06 40 07 EB
  can0  2B0   [8]  00 0F FF 81 00 8C 70 3D
  can0  525   [1]  C0
  can0  2DE   [8]  00 00 81 00 00 00 0A 1B
  can0  280   [8]  03 00 80 00 00 00 39 40
  can0  355   [7]  00 00 00 00 00 00 60
  can0  35D   [8]  80 03 00 00 00 00 00 00
  can0  002   [8]  EF FD 00 07 26 A6 9F 0A
  can0  215   [6]  FF F0 FF 00 FF FF
  can0  0C1   [8]  B0 FD 00 00 08 00 02 78
  can0  354   [8]  00 00 00 00 00 18 04 00
  can0  2A0   [6]  FF 7F FE 7F FE FE
  can0  245   [8]  FF E0 00 18 00 00 FF E3
  can0  160   [7]  33 C3 1B 00 08 FF E0
  can0  180   [8]  14 B4 31 B3 3C 00 25 10
  can0  182   [8]  00 00 00 00 00 05 00 CF
  can0  1F9   [8]  20 00 14 B4 00 00 00 80
  can0  239   [5]  00 FF B1 80 56
  can0  1B4   [7]  00 00 E9 06 40 08 EC
  can0  2B0   [8]  00 0F FF 81 00 8C 80 4D
  can0  2B3   [6]  00 00 00 00 80 52
  can0  2DE   [8]  00 00 82 00 00 00 0A 1B
  can0  002   [8]  EF FD 00 07 37 A6 9F 0A
  can0  216   [2]  42 64
  can0  0C1   [8]  B0 FD 00 00 08 00 03 79
  can0  290   [8]  40 05 E9 06 E9 06 D2 87
  can0  285   [8]  00 00 00 00 00 00 32 B9
  can0  284   [8]  00 00 00 00 00 00 32 B8
  can0  160   [7]  33 C3 1B 00 08 FF E0
  can0  180   [8]  14 B4 31 B3 3C 00 26 10
  can0  182   [8]  00 00 00 00 00 06 00 CF
  can0  1F9   [8]  20 00 14 B4 00 00 00 80
  can0  551   [8]  83 7C 00 80 00 02 80 FF
  can0  580   [3]  00 82 40
  can0  6E2   [3]  64 15 7A
  can0  1B4   [7]  00 00 E9 06 40 09 ED
  can0  2B0   [8]  00 0F FF 81 00 8C 90 5D
  can0  2DE   [8]  00 00 83 00 00 00 0A 1B
  can0  280   [8]  03 01 80 00 00 00 3C 40
  can0  358   [8]  00 00 00 00 80 00 00 00
  can0  002   [8]  EF FD 00 07 C8 A6 9F 0A
  can0  215   [6]  FF F0 FF 00 FF FF
  can0  0C1   [8]  B0 FD 00 00 08 00 00 76
  can0  2A0   [6]  FF 7F FE 7F FE FE
  can0  245   [8]  FF E0 00 18 00 00 FF E0
  can0  160   [7]  33 C3 1B 00 08 FF E0
  can0  180   [8]  14 CD 31 B3 3C 00 27 10
  can0  182   [8]  00 00 00 00 00 07 00 CF
  can0  1F9   [8]  20 00 14 CD 00 00 00 80
  can0  239   [5]  00 FF B1 80 57
  can0  1B4   [7]  00 00 E9 06 40 0A EE
  can0  2B0   [8]  00 0F FF 81 00 8C A0 6D
  can0  2B3   [6]  00 00 00 00 80 52
  can0  2DE   [8]  00 00 80 00 00 00 0A 1B
  can0  54A   [8]  3C 20 70 0A 55 55 00 78
  can0  54B   [8]  02 48 90 02 14 00 00 00
  can0  54C   [8]  F9 63 40 00 00 80 04 08
  can0  002   [8]  EF FD 00 07 D9 A6 9F 0A
  can0  216   [2]  42 64
  can0  0C1   [8]  B0 FD 00 00 08 00 01 77
  can0  290   [8]  40 05 E9 06 E9 06 E2 97
  can0  285   [8]  00 00 00 00 00 00 33 BA
  can0  284   [8]  00 00 00 00 00 00 33 B9
  can0  160   [7]  33 C3 1B 00 08 FF E0
  can0  180   [8]  14 CD 31 B3 3C 00 28 10
  can0  182   [8]  00 00 00 00 00 08 00 CF
  can0  1F9   [8]  20 00 14 CD 00 00 00 80
  can0  1B4   [7]  00 00 E9 06 40 0B EF
  can0  2B0   [8]  00 0F FF 81 00 8C B0 7D
  can0  351   [8]  00 00 00 00 00 08 00 22
  can0  280   [8]  03 01 80 00 00 00 3C 40
  can0  2DE   [8]  00 00 81 00 00 00 0A 1B
  can0  355   [7]  00 00 00 00 00 00 60
  can0  002   [8]  EF FD 00 07 EA A6 9F 0A
  can0  215   [6]  FF F0 FF 00 FF FF
  can0  0C1   [8]  B0 FD 00 00 08 00 02 78
  can0  354   [8]  00 00 00 00 00 00 04 00
  can0  2A0   [6]  FF 7F FE 7F FE FE
  can0  245   [8]  FF E0 00 18 00 00 FF E1
  can0  160   [7]  33 C3 1D 00 08 FF E0
  can0  180   [8]  14 CD 31 D3 3C 00 29 10
  can0  182   [8]  00 00 00 00 00 09 00 CF
  can0  1F9   [8]  20 00 14 CD 00 00 00 80
  can0  239   [5]  00 FF B1 80 54
  can0  1B4   [7]  00 00 E9 06 40 0C F0
  can0  2B0   [8]  00 0F FF 81 00 8C C0 8D
  can0  2B3   [6]  00 00 00 00 80 52
  can0  2DE   [8]  00 00 82 00 00 00 0A 1B
  can0  002   [8]  EF FD 00 07 FB A6 9F 0A
  can0  216   [2]  42 64
  can0  0C1   [8]  B0 FD 00 00 08 00 03 79
  can0  290   [8]  40 05 E9 06 E9 06 F2 A7
  can0  285   [8]  00 00 00 00 00 00 34 BB
  can0  284   [8]  00 00 00 00 00 00 34 BA
  can0  160   [7]  33 C3 1A 00 08 FF E0
  can0  180   [8]  14 CD 31 A3 3C 00 2A 10
  can0  182   [8]  00 00 00 00 00 0A 00 CF
  can0  1F9   [8]  20 00 14 CD 00 00 00 80
  can0  1B4   [7]  00 00 E9 06 40 0D F1
  can0  2B0   [8]  00 0F FF 81 00 8C D0 9D
  can0  385   [7]  04 00 00 00 00 00 00
  can0  280   [8]  03 00 80 00 00 00 39 40
  can0  2DE   [8]  00 00 83 00 00 00 0A 1B
  can0  002   [8]  EF FD 00 07 8C A6 9F 0A
  can0  215   [6]  FF F0 FF 00 FF FF
  can0  0C1   [8]  B0 FD 00 00 08 00 00 76
  can0  2A0   [6]  FF 7F FD 7F FE FE
  can0  245   [8]  FF E0 00 18 00 00 FF E2
  can0  160   [7]  33 C3 1C 00 08 FF E0
  can0  180   [8]  14 CD 31 C3 3C 00 2B 10
  can0  182   [8]  00 00 00 00 00 0B 00 CF
  can0  1F9   [8]  20 00 14 CD 00 00 00 80
  can0  239   [5]  00 FF B1 80 55
  can0  1B4   [7]  00 00 E9 06 40 0E F2
  can0  2B0   [8]  00 0F FF 81 00 8C E0 AD
  can0  2B3   [6]  00 00 00 00 80 52
  can0  2DE   [8]  00 00 80 00 00 00 0A 1B
  can0  002   [8]  EF FD 00 07 9D A6 9F 0A
  can0  216   [2]  42 64
  can0  0C1   [8]  B0 FD 00 00 08 00 01 77
  can0  290   [8]  40 05 E9 06 E9 06 02 B7
  can0  285   [8]  00 00 00 00 00 00 35 BC
  can0  284   [8]  00 00 00 00 00 00 35 BB
  can0  160   [7]  33 C3 1A 00 08 FF E0
  can0  180   [8]  14 CD 31 A3 3C 00 2C 10
  can0  182   [8]  00 00 00 00 00 0C 00 CF
  can0  1F9   [8]  20 00 14 CD 00 00 00 80
  can0  1B4   [7]  00 00 E9 06 40 0F F3
  can0  2B0   [8]  00 0F FF 81 00 8C F0 BD
  can0  540   [8]  28 20 00 00 00 00 00 02
  can0  541   [8]  00 00 00 00 00 00 00 82
  can0  542   [8]  00 00 00 00 00 00 00 02
  can0  2DE   [8]  00 00 81 00 00 00 0A 1B
  can0  280   [8]  03 00 80 00 00 00 39 40
  can0  355   [7]  00 00 00 00 00 00 60
  can0  5C5   [8]  44 02 75 EE 00 0C 00 00
  can0  002   [8]  EF FD 00 07 AE A6 9F 0A
  can0  60D   [8]  00 06 00 00 00 00 00 00
  can0  215   [6]  FF F0 FF 00 FF FF
  can0  0C1   [8]  B0 FD 00 00 08 00 02 78
  can0  354   [8]  00 00 00 00 00 08 04 00
  can0  2A0   [6]  FF 7F FE 7F FE FE
  can0  245   [8]  FF E0 00 18 00 00 FF E3
  can0  625   [6]  02 00 FF 1D 20 00
  can0  160   [7]  33 C3 19 00 08 FF E0
  can0  180   [8]  14 E6 31 93 3C 00 2D 10
  can0  182   [8]  00 00 00 00 00 0D 00 CF
  can0  1B4   [7]  00 00 E9 06 40 00 E4
  can0  1F9   [8]  20 00 14 E6 00 00 00 80
  can0  239   [5]  00 FF B1 80 56
  can0  2B0   [8]  00 0F FF 81 00 8C 00 CD
  can0  2B3   [6]  00 00 00 00 80 52
  can0  2DE   [8]  00 00 82 00 00 00 0A 1B
  can0  002   [8]  EF FD 00 07 BF A6 9F 0A
  can0  216   [2]  42 64
  can0  0C1   [8]  B0 FD 00 00 08 00 03 79
  can0  290   [8]  40 05 E9 06 E9 06 12 C7
  can0  285   [8]  00 00 00 00 00 00 36 BD
  can0  284   [8]  00 00 00 00 00 00 36 BC
  can0  160   [7]  33 C3 1A 00 08 FF E0
  can0  180   [8]  14 E6 31 A3 3C 00 2E 10
  can0  182   [8]  00 00 00 00 00 0E 00 CF
  can0  1B4   [7]  00 00 E9 06 40 01 E5
  can0  1F9   [8]  20 00 14 E6 00 00 00 80
  can0  2B0   [8]  00 0F FF 81 00 8C 10 DD
  can0  525   [1]  C0
  can0  2DE   [8]  00 00 83 00 00 00 0A 1B
  can0  280   [8]  03 00 80 00 00 00 39 40
  can0  35D   [8]  80 03 00 00 00 00 00 00
  can0  002   [8]  EF FD 00 07 40 A6 9F 0A
  can0  215   [6]  FF F0 FF 00 FF FF
  can0  0C1   [8]  B0 FD 00 00 08 00 00 76
  can0  2A0   [6]  FF 7F FF 7F FE FE
  can0  245   [8]  FF E0 00 18 00 00 FF E0
  can0  160   [7]  33 C3 19 00 08 FF E0
  can0  180   [8]  14 E6 31 93 3C 00 2F 10
  can0  182   [8]  00 00 00 00 00 0F 00 CF
  can0  1B4   [7]  00 00 E9 06 40 02 E6
  can0  1F9   [8]  20 00 14 E6 00 00 00 80
  can0  239   [5]  00 FF B1 80 57
  can0  2B0   [8]  00 0F FF 81 00 8C 20 ED
  can0  2B3   [6]  00 00 00 00 80 52
  can0  2DE   [8]  00 00 80 00 00 00 0A 1B
  can0  002   [8]  EF FD 00 07 51 A6 9F 0A
  can0  216   [2]  42 64
  can0  0C1   [8]  B0 FD 00 00 08 00 01 77
  can0  290   [8]  40 05 E9 06 E9 06 22 D7
  can0  285   [8]  00 00 00 00 00 00 37 BE
  can0  284   [8]  00 00 00 00 00 00 37 BD
  can0  160   [7]  33 C3 19 00 08 FF E0
  can0  180   [8]  14 E6 31 93 3C 00 20 10
  can0  182   [8]  00 00 00 00 00 00 00 CF
  can0  1B4   [7]  00 00 E9 06 40 03 E7
  can0  1F9   [8]  20 00 14 E6 00 00 00 80
  can0  2B0   [8]  00 0F FF 81 00 8C 30 FD
  can0  551   [8]  83 7C 00 80 00 02 80 FF
  can0  580   [3]  00 83 40
  can0  6E2   [3]  64 15 7B
  can0  2DE   [8]  00 00 81 00 00 00 0A 1B
  can0  280   [8]  03 01 80 00 00 00 39 40
  can0  355   [7]  00 00 00 00 00 00 60
  can0  358   [8]  00 00 00 00 80 00 00 00
  can0  002   [8]  EF FD 00 07 62 A6 9F 0A
  can0  215   [6]  FF F0 FF 00 FF FF
  can0  0C1   [8]  B0 FD 00 00 08 00 02 78
  can0  354   [8]  00 00 00 00 00 10 04 00
  can0  2A0   [6]  FF 7F FE 7F FE FE
  can0  245   [8]  FF E0 00 18 00 00 FF E1
  can0  1B4   [7]  00 00 E9 06 40 04 E8
  can0  160   [7]  33 C3 1B 00 08 FF E0
  can0  180   [8]  14 E6 31 B3 3C 00 21 10
  can0  182   [8]  00 00 00 00 00 01 00 CF
  can0  1F9   [8]  20 00 14 E6 00 00 00 80
  can0  239   [5]  00 FF B1 80 54
  can0  2B0   [8]  00 0F FF 81 00 8C 40 0D
  can0  2B3   [6]  00 00 00 00 80 52
  can0  2DE   [8]  00 00 82 00 00 00 0A 1B
  can0  54A   [8]  DA 20 70 0A 55 55 00 78
  can0  54B   [8]  02 48 90 02 14 00 00 00
  can0  54C   [8]  F9 63 40 00 00 80 04 08
  can0  002   [8]  EF FD 00 07 73 A6 9F 0A
  can0  216   [2]  42 64
  can0  0C1   [8]  B0 FD 00 00 08 00 03 79
  can0  290   [8]  40 05 E9 06 E9 06 32 E7
  can0  285   [8]  00 00 00 00 00 00 38 BF
  can0  284   [8]  00 00 00 00 00 00 38 BE
  can0  1B4   [7]  00 00 E9 06 40 05 E9
  can0  2B0   [8]  00 0F FF 81 00 8C 50 1D
  can0  160   [7]  33 C3 1C 00 08 FF E0
  can0  180   [8]  14 E6 31 C3 3C 00 22 10
  can0  182   [8]  00 00 00 00 00 02 00 CF
  can0  1F9   [8]  20 00 14 E6 00 00 00 80
  can0  2DE   [8]  00 00 83 00 00 00 0A 1B
  can0  280   [8]  03 01 80 00 00 00 39 40
  can0  351   [8]  00 00 00 00 00 08 00 22
  can0  002   [8]  EF FD 00 07 04 A6 9F 0A
  can0  215   [6]  FF F0 FF 00 FF FF
  can0  0C1   [8]  B0 FD 00 00 08 00 00 76
  can0  2A0   [6]  FF 7F FE 7F FE FE
  can0  245   [8]  FF E0 00 18 00 00 FF E2
  can0  1B4   [7]  00 00 E9 06 40 06 EA
  can0  2B0   [8]  00 0F FF 81 00 8C 60 2D
  can0  2B3   [6]  00 00 00 00 80 52
  can0  160   [7]  33 C3 1B 00 08 FF E0
  can0  180   [8]  14 CD 31 B3 3C 00 23 10
  can0  182   [8]  00 00 00 00 00 03 00 CF
  can0  1F9   [8]  20 00 14 CD 00 00 00 80
  can0  239   [5]  00 FF B1 80 55
  can0  2DE   [8]  00 00 80 00 00 00 0A 1B
  can0  002   [8]  EF FD 00 07 15 A6 9F 0A
  can0  216   [2]  42 64
  can0  0C1   [8]  B0 FD 00 00 08 00 01 77
  can0  290   [8]  40 05 E9 06 E9 06 42 F7
  can0  285   [8]  00 00 00 00 00 00 39 C0
  can0  284   [8]  00 00 00 00 00 00 39 BF
  can0  1B4   [7]  00 00 E9 06 40 07 EB
  can0  2B0   [8]  00 0F FF 81 00 8C 70 3D
  can0  160   [7]  33 C3 1C 00 08 FF E0
  can0  180   [8]  14 CD 31 C3 3C 00 24 10
  can0  182   [8]  00 00 00 00 00 04 00 CF
  can0  1F9   [8]  20 00 14 CD 00 00 00 80
  can0  2DE   [8]  00 00 81 00 00 00 0A 1B
  can0  280   [8]  03 02 80 00 00 00 3C 40
  can0  355   [7]  00 00 00 00 00 00 60
  can0  385   [7]  04 00 00 00 00 00 00
  can0  002   [8]  EF FD 00 07 26 A6 9F 0A
  can0  215   [6]  FF F0 FF 00 FF FF
  can0  0C1   [8]  B0 FD 00 00 08 00 02 78
  can0  354   [8]  00 00 00 00 00 18 04 00
  can0  2A0   [6]  FF 7F FE 7F FE FE
  can0  245   [8]  FF E0 00 18 00 00 FF E3
  can0  1B4   [7]  00 00 E9 06 40 08 EC
  can0  2B0   [8]  00 0F FF 81 00 8C 80 4D
  can0  2B3   [6]  00 00 00 00 80 52
  can0  160   [7]  33 C3 1C 00 08 FF E0
  can0  180   [8]  14 CD 31 C3 3C 00 25 10
  can0  182   [8]  00 00 00 00 00 05 00 CF
  can0  1F9   [8]  20 00 14 CD 00 00 00 80
  can0  239   [5]  00 FF B1 80 56
  can0  2DE   [8]  00 00 82 00 00 00 0A 1B
  can0  002   [8]  EF FD 00 07 37 A6 9F 0A
  can0  216   [2]  42 64
  can0  0C1   [8]  B0 FD 00 00 08 00 03 79
  can0  290   [8]  40 05 E9 06 E9 06 52 07
  can0  285   [8]  00 00 00 00 00 00 3A C1
  can0  284   [8]  00 00 00 00 00 00 3A C0
  can0  1B4   [7]  00 00 E9 06 40 09 ED
  can0  2B0   [8]  00 0F FF 81 00 8C 90 5D
  can0  540   [8]  28 20 00 00 00 00 00 03
  can0  541   [8]  00 00 00 00 00 00 00 83
  can0  160   [7]  33 C3 1C 00 08 FF E0
  can0  180   [8]  14 CD 31 C3 3C 00 26 10
  can0  182   [8]  00 00 00 00 00 06 00 CF
  can0  1F9   [8]  20 00 14 CD 00 00 00 80
  can0  542   [8]  00 00 00 00 00 00 00 03
  can0  280   [8]  03 02 80 00 00 00 3C 40
  can0  2DE   [8]  00 00 83 00 00 00 0A 1B
  can0  5C5   [8]  44 02 75 EE 00 0C 00 00
  can0  002   [8]  EF FD 00 07 C8 A6 9F 0A
  can0  60D   [8]  00 06 00 00 00 00 00 00
  can0  215   [6]  FF F0 FF 00 FF FF
  can0  2A0   [6]  FF 7F FD 7F FE FE
  can0  0C1   [8]  B0 FD 00 00 08 00 00 76
  can0  245   [8]  FF E0 00 18 00 00 FF E0
  can0  625   [6]  02 00 FF 1D 20 00
  can0  1B4   [7]  00 00 E9 06 40 0A EE
  can0  2B0   [8]  00 0F FF 81 00 8C A0 6D
  can0  2B3   [6]  00 00 00 00 80 52
  can0  160   [7]  33 C3 1C 00 08 FF E0
  can0  180   [8]  14 CD 31 C3 3C 00 27 10
  can0  182   [8]  00 00 00 00 00 07 00 CF
  can0  1F9   [8]  20 00 14 CD 00 00 00 80
  can0  239   [5]  00 FF B1 80 57
  can0  2DE   [8]  00 00 80 00 00 00 0A 1B
  can0  002   [8]  EF FD 00 07 D9 A6 9F 0A
  can0  216   [2]  42 64
  can0  0C1   [8]  B0 FD 00 00 08 00 01 77
  can0  290   [8]  40 05 E9 06 E9 06 62 17
  can0  285   [8]  00 00 00 00 00 00 3B C2
  can0  284   [8]  00 00 00 00 00 00 3B C1
  can0  1B4   [7]  00 00 E9 06 40 0B EF
  can0  2B0   [8]  00 0F FF 81 00 8C B0 7D
  can0  525   [1]  C0
  can0  160   [7]  33 C3 19 00 08 FF E0
  can0  180   [8]  14 CD 31 93 3C 00 28 10
  can0  182   [8]  00 00 00 00 00 08 00 CF
  can0  1F9   [8]  20 00 14 CD 00 00 00 80
  can0  280   [8]  03 02 80 00 00 00 3C 40
  can0  2DE   [8]  00 00 81 00 00 00 0A 1B
  can0  002   [8]  EF FD 00 07 EA A6 9F 0A
  can0  355   [7]  00 00 00 00 00 00 60
  can0  35D   [8]  80 03 00 00 00 00 00 00
  can0  215   [6]  FF F0 FF 00 FF FF
  can0  0C1   [8]  B0 FD 00 00 08 00 02 78
  can0  354   [8]  00 00 00 00 00 00 04 00
  can0  2A0   [6]  FF 7F FE 7F FE FE
  can0  245   [8]  FF E0 00 18 00 00 FF E1
  can0  1B4   [7]  00 00 E9 06 40 0C F0
  can0  2B0   [8]  00 0F FF 81 00 8C C0 8D
  can0  2B3   [6]  00 00 00 00 80 52
  can0  160   [7]  33 C3 19 00 08 FF E0
  can0  180   [8]  14 CD 31 93 3C 00 29 10
  can0  182   [8]  00 00 00 00 00 09 00 CF
  can0  1F9   [8]  20 00 14 CD 00 00 00 80
  can0  239   [5]  00 FF B1 80 54
  can0  002   [8]  EF FD 00 07 FB A6 9F 0A
  can0  2DE   [8]  00 00 82 00 00 00 0A 1B
  can0  216   [2]  42 64
  can0  0C1   [8]  B0 FD 00 00 08 00 03 79
  can0  290   [8]  40 05 E9 06 E9 06 72 27
  can0  285   [8]  00 00 00 00 00 00 3C C3
  can0  284   [8]  00 00 00 00 00 00 3C C2
  can0  1B4   [7]  00 00 E9 06 40 0D F1
  can0  2B0   [8]  00 0F FF 81 00 8C D0 9D
  can0  2DE   [8]  00 00 83 00 00 00 0A 1B
  can0  280   [8]  03 00 80 00 00 00 39 40
  can0  160   [7]  33 C3 1C 00 08 FF E0
  can0  180   [8]  14 CD 31 C3 3C 00 2A 10
  can0  182   [8]  00 00 00 00 00 0A 00 CF
  can0  002   [8]  EF FD 00 07 8C A6 9F 0A
  can0  1F9   [8]  20 00 14 CD 00 00 00 80
  can0  358   [8]  00 00 00 00 80 00 00 00
  can0  551   [8]  83 7D 00 80 00 02 80 FF
  can0  580   [3]  00 83 40
  can0  215   [6]  FF F0 FF 00 FF FF
  can0  6E2   [3]  64 15 78
  can0  0C1   [8]  B0 FD 00 00 08 00 00 76
  can0  2A0   [6]  FF 7F FD 7F FE FE
  can0  245   [8]  FF E0 00 18 00 00 FF E2
  can0  1B4   [7]  00 00 E9 06 40 0E F2
  can0  2B0   [8]  00 0F FF 81 00 8C E0 AD
  can0  2B3   [6]  00 00 00 00 80 52
  can0  2DE   [8]  00 00 80 00 00 00 0A 1B
  can0  54A   [8]  3C 20 70 0A 55 55 00 78
  can0  54B   [8]  02 48 90 02 14 00 00 00
  can0  160   [7]  33 C3 1B 00 08 FF E0
  can0  180   [8]  14 CD 31 B3 3C 00 2B 10
  can0  002   [8]  EF FD 00 07 9D A6 9F 0A
  can0  182   [8]  00 00 00 00 00 0B 00 CF
  can0  1F9   [8]  20 00 14 CD 00 00 00 80
  can0  216   [2]  42 64
  can0  239   [5]  00 FF B1 80 55
  can0  54C   [8]  F9 63 40 00 00 80 04 08
  can0  0C1   [8]  B0 FD 00 00 08 00 01 77
  can0  290   [8]  40 05 E9 06 E9 06 82 37
  can0  285   [8]  00 00 00 00 00 00 3D C4
  can0  284   [8]  00 00 00 00 00 00 3D C3
  can0  1B4   [7]  00 00 E9 06 40 0F F3
  can0  2B0   [8]  00 0F FF 81 00 8C F0 BD
  can0  351   [8]  00 00 00 00 00 08 00 22
  can0  280   [8]  03 00 80 00 00 00 39 40
  can0  2DE   [8]  00 00 81 00 00 00 0A 1B
  can0  160   [7]  33 C3 1B 00 08 FF E0
  can0  002   [8]  EF FD 00 07 AE A6 9F 0A
  can0  180   [8]  14 CD 31 B3 3C 00 2C 10
  can0  182   [8]  00 00 00 00 00 0C 00 CF
  can0  1F9   [8]  20 00 14 CD 00 00 00 80
  can0  355   [7]  00 00 00 00 00 00 60
  can0  215   [6]  FF F0 FF 00 FF FF
  can0  354   [8]  00 00 00 00 00 08 04 00
  can0  0C1   [8]  B0 FD 00 00 08 00 02 78
  can0  2A0   [6]  FF 7F FD 7F FE FE
  can0  245   [8]  FF E0 00 18 00 00 FF E3
  can0  1B4   [7]  00 00 E9 06 40 00 E4
  can0  2B0   [8]  00 0F FF 81 00 8C 00 CD
  can0  2B3   [6]  00 00 00 00 80 52
  can0  2DE   [8]  00 00 82 00 00 00 0A 1B
  can0  002   [8]  EF FD 00 07 BF A6 9F 0A
  can0  160   [7]  33 C3 1B 00 08 FF E0
  can0  180   [8]  14 CD 31 B3 3C 00 2D 10
  can0  182   [8]  00 00 00 00 00 0D 00 CF
  can0  1F9   [8]  20 00 14 CD 00 00 00 80
  can0  216   [2]  42 64
  can0  239   [5]  00 FF B1 80 56
  can0  0C1   [8]  B0 FD 00 00 08 00 03 79
  can0  290   [8]  40 05 E9 06 E9 06 92 47
  can0  285   [8]  00 00 00 00 00 00 3E C5
  can0  284   [8]  00 00 00 00 00 00 3E C4
  can0  1B4   [7]  00 00 E9 06 40 01 E5
  can0  2B0   [8]  00 0F FF 81 00 8C 10 DD
  can0  385   [7]  04 00 00 00 00 00 00
  can0  280   [8]  03 01 80 00 00 00 39 40
  can0  2DE   [8]  00 00 83 00 00 00 0A 1B
  can0  002   [8]  EF FD 00 07 40 A6 9F 0A
  can0  160   [7]  33 C3 1C 00 08 FF E0
  can0  180   [8]  14 CD 31 C3 3C 00 2E 10
  can0  182   [8]  00 00 00 00 00 0E 00 CF
  can0  1F9   [8]  20 00 14 CD 00 00 00 80
  can0  215   [6]  FF F0 FF 00 FF FF
  can0  2A0   [6]  FF 7F FF 7F FE FE
  can0  0C1   [8]  B0 FD 00 00 08 00 00 76
  can0  245   [8]  FF E0 00 18 00 00 FF E0
  can0  1B4   [7]  00 00 E9 06 40 02 E6
  can0  2B0   [8]  00 0F FF 81 00 8C 20 ED
  can0  2B3   [6]  00 00 00 00 80 52
  can0  2DE   [8]  00 00 80 00 00 00 0A 1B
  can0  002   [8]  EF FD 00 07 51 A6 9F 0A
  can0  160   [7]  33 C3 1C 00 08 FF E0
  can0  180   [8]  14 CD 31 C3 3C 00 2F 10
  can0  182   [8]  00 00 00 00 00 0F 00 CF
  can0  1F9   [8]  20 00 14 CD 00 00 00 80
  can0  216   [2]  42 64
  can0  239   [5]  00 FF B1 80 57
  can0  0C1   [8]  B0 FD 00 00 08 00 01 77
  can0  290   [8]  40 05 E9 06 E9 06 A2 57
  can0  285   [8]  00 00 00 00 00 00 3F C6
  can0  284   [8]  00 00 00 00 00 00 3F C5
  can0  1B4   [7]  00 00 E9 06 40 03 E7
  can0  540   [8]  28 20 00 00 00 00 00 00
  can0  2B0   [8]  00 0F FF 81 00 8C 30 FD
  can0  541   [8]  00 00 00 00 00 00 00 80
  can0  542   [8]  00 00 00 00 00 00 00 00
  can0  2DE   [8]  00 00 81 00 00 00 0A 1B
  can0  280   [8]  03 01 80 00 00 00 39 40
  can0  355   [7]  00 00 00 00 00 00 60
  can0  5C5   [8]  44 02 75 EE 00 0C 00 00
  can0  002   [8]  EF FD 00 07 62 A6 9F 0A
  can0  60D   [8]  00 06 00 00 00 00 00 00
  can0  160   [7]  33 C3 1B 00 08 FF E0
  can0  180   [8]  14 CD 31 B3 3C 00 20 10
  can0  182   [8]  00 00 00 00 00 00 00 CF
  can0  1F9   [8]  20 00 14 CD 00 00 00 80
  can0  215   [6]  FF F0 FF 00 FF FF
  can0  354   [8]  00 00 00 00 00 10 04 00
  can0  0C1   [8]  B0 FD 00 00 08 00 02 78
  can0  2A0   [6]  FF 7F FF 7F FE FE
  can0  245   [8]  FF E0 00 18 00 00 FF E1
  can0  625   [6]  02 00 FF 1D 20 00
  can0  1B4   [7]  00 00 E9 06 40 04 E8
  can0  2B0   [8]  00 0F FF 81 00 8C 40 0D
  can0  2B3   [6]  00 00 00 00 80 52
  can0  2DE   [8]  00 00 82 00 00 00 0A 1B
  can0  002   [8]  EF FD 00 07 73 A6 9F 0A
  can0  216   [2]  42 64
  can0  160   [7]  33 C3 1B 00 08 FF E0
  can0  180   [8]  14 CD 31 B3 3C 00 21 10
  can0  182   [8]  00 00 00 00 00 01 00 CF
  can0  1F9   [8]  20 00 14 CD 00 00 00 80
  can0  239   [5]  00 FF B1 80 54
  can0  0C1   [8]  B0 FD 00 00 08 00 03 79
  can0  290   [8]  40 05 E9 06 E9 06 B2 67
  can0  285   [8]  00 00 00 00 00 00 40 C7
  can0  284   [8]  00 00 00 00 00 00 40 C6
  can0  1B4   [7]  00 00 E9 06 40 05 E9
  can0  2B0   [8]  00 0F FF 81 00 8C 50 1D
  can0  525   [1]  C0
  can0  2DE   [8]  00 00 83 00 00 00 0A 1B
  can0  280   [8]  03 01 80 00 00 00 39 40
  can0  35D   [8]  80 03 00 00 00 00 00 00
  can0  002   [8]  EF FD 00 07 04 A6 9F 0A
  can0  215   [6]  FF F0 FF 00 FF FF
  can0  160   [7]  33 C3 1B 00 08 FF E0
  can0  180   [8]  14 CD 31 B3 3C 00 22 10
  can0  182   [8]  00 00 00 00 00 02 00 CF
  can0  1F9   [8]  20 00 14 CD 00 00 00 80
  can0  0C1   [8]  B0 FD 00 00 08 00 00 76
  can0  2A0   [6]  FF 7F FD 7F FE FE
  can0  245   [8]  FF E0 00 18 00 00 FF E2
  can0  1B4   [7]  00 00 E9 06 40 06 EA
  can0  2B0   [8]  00 0F FF 81 00 8C 60 2D
  can0  2B3   [6]  00 00 00 00 80 52
  can0  2DE   [8]  00 00 80 00 00 00 0A 1B
  can0  002   [8]  EF FD 00 07 15 A6 9F 0A
  can0  216   [2]  42 64
  can0  160   [7]  33 C3 18 00 08 FF E0
  can0  180   [8]  14 CD 31 83 3C 00 23 10
  can0  182   [8]  00 00 00 00 00 03 00 CE
  can0  0C1   [8]  B0 FD 00 00 08 00 01 77
  can0  1F9   [8]  20 00 14 CD 00 00 00 80
  can0  239   [5]  00 FF B1 80 55
  can0  290   [8]  40 05 E9 06 E9 06 C2 77
  can0  285   [8]  00 00 00 00 00 00 41 C8
  can0  284   [8]  00 00 00 00 00 00 41 C7
  can0  1B4   [7]  00 00 E9 06 40 07 EB
  can0  2B0   [8]  00 0F FF 81 00 8C 70 3D
  can0  2DE   [8]  00 00 81 00 00 00 0A 1B
  can0  280   [8]  03 02 80 00 00 00 3C 40
  can0  355   [7]  00 00 00 00 00 00 60
  can0  358   [8]  00 00 00 00 80 00 00 00
  can0  002   [8]  EF FD 00 07 26 A6 9F 0A
  can0  215   [6]  FF F0 FF 00 FF FF
  can0  160   [7]  33 C3 18 00 08 FF E0
  can0  180   [8]  14 CD 31 83 3C 00 24 10
  can0  182   [8]  00 00 00 00 00 04 00 CE
  can0  0C1   [8]  B0 FD 00 00 08 00 02 78
  can0  1F9   [8]  20 00 14 CD 00 00 00 80
  can0  354   [8]  00 00 00 00 00 18 04 00
  can0  2A0   [6]  FF 7F FD 7F FE FE
  can0  245   [8]  FF E0 00 18 00 00 FF E3
  can0  551   [8]  83 7D 00 80 00 02 80 FF
  can0  580   [3]  00 82 40
  can0  6E2   [3]  64 15 79
  can0  1B4   [7]  00 00 E9 06 40 08 EC
  can0  2B0   [8]  00 0F FF 81 00 8C 80 4D
  can0  2B3   [6]  00 00 00 00 80 52
  can0  2DE   [8]  00 00 82 00 00 00 0A 1B
  can0  54A   [8]  DA 20 70 0A 55 55 00 78
  can0  54B   [8]  02 48 90 02 14 00 00 00
  can0  54C   [8]  F9 63 40 00 00 80 04 08
  can0  002   [8]  EF FD 00 07 37 A6 9F 0A
  can0  216   [2]  42 64
  can0  160   [7]  33 C3 18 00 08 FF E0
  can0  180   [8]  14 CD 31 83 3C 00 25 10
  can0  0C1   [8]  B0 FD 00 00 08 00 03 79
  can0  182   [8]  00 00 00 00 00 05 00 CE
  can0  1F9   [8]  20 00 14 CD 00 00 00 80
  can0  239   [5]  00 FF B1 80 56
  can0  290   [8]  40 05 E9 06 E9 06 D2 87
  can0  285   [8]  00 00 00 00 00 00 42 C9
  can0  284   [8]  00 00 00 00 00 00 42 C8
  can0  1B4   [7]  00 00 E9 06 40 09 ED
  can0  2B0   [8]  00 0F FF 81 00 8C 90 5D
  can0  351   [8]  00 00 00 00 00 08 00 22
  can0  280   [8]  03 02 80 00 00 00 3C 40
  can0  2DE   [8]  00 00 83 00 00 00 0A 1B
  can0  002   [8]  EF FD 00 07 C8 A6 9F 0A
  can0  215   [6]  FF F0 FF 00 FF FF
  can0  2A0   [6]  FF 7F FD 7F FE FE
  can0  0C1   [8]  B0 FD 00 00 08 00 00 76
  can0  160   [7]  33 C3 1B 00 08 FF E0
  can0  180   [8]  14 CD 31 B3 3C 00 26 10
  can0  182   [8]  00 00 00 00 00 06 00 CF
  can0  1F9   [8]  20 00 14 CD 00 00 00 80
  can0  245   [8]  FF E0 00 18 00 00 FF E0
  can0  1B4   [7]  00 00 E9 06 40 0A EE
  can0  2B0   [8]  00 0F FF 81 00 8C A0 6D
  can0  2B3   [6]  00 00 00 00 80 52
  can0  2DE   [8]  00 00 80 00 00 00 0A 1B
  can0  002   [8]  EF FD 00 07 D9 A6 9F 0A
  can0  216   [2]  42 64
  can0  290   [8]  40 05 E9 06 E9 06 E2 97
  can0  0C1   [8]  B0 FD 00 00 08 00 01 77
  can0  160   [7]  33 C3 1B 00 08 FF E0
  can0  180   [8]  14 CD 31 B3 3C 00 27 10
  can0  182   [8]  00 00 00 00 00 07 00 CF
  can0  1F9   [8]  20 00 14 CD 00 00 00 80
  can0  239   [5]  00 FF B1 80 57
  can0  285   [8]  00 00 00 00 00 00 43 CA
  can0  284   [8]  00 00 00 00 00 00 43 C9
  can0  1B4   [7]  00 00 E9 06 40 0B EF
  can0  2B0   [8]  00 0F FF 81 00 8C B0 7D
  can0  385   [7]  04 00 00 00 00 00 00
  can0  2DE   [8]  00 00 81 00 00 00 0A 1B
  can0  280   [8]  03 00 80 00 00 00 3A 40
  can0  355   [7]  00 00 00 00 00 00 60
  can0  002   [8]  EF FD 00 07 EA A6 9F 0A
  can0  215   [6]  FF F0 FF 00 FF FF
  can0  354   [8]  00 00 00 00 00 00 04 00
  can0  0C1   [8]  B0 FD 00 00 08 00 02 78
  can0  2A0   [6]  FF 7F FE 7F FE FE
  can0  160   [7]  33 C3 1A 00 08 FF E0
  can0  180   [8]  14 CD 31 A3 3C 00 28 10
  can0  182   [8]  00 00 00 00 00 08 00 CF
  can0  1F9   [8]  20 00 14 CD 00 00 00 80
  can0  245   [8]  FF E0 00 18 00 00 FF E1
  can0  1B4   [7]  00 00 E9 06 40 0C F0
  can0  2B0   [8]  00 0F FF 81 00 8C C0 8D
  can0  2B3   [6]  00 00 00 00 80 52
  can0  2DE   [8]  00 00 82 00 00 00 0A 1B
  can0  002   [8]  EF FD 00 07 FB A6 9F 0A
  can0  216   [2]  42 64
  can0  290   [8]  40 05 E9 06 E9 06 F2 A7
  can0  0C1   [8]  B0 FD 00 00 08 00 03 79
  can0  285   [8]  00 00 00 00 00 00 44 CB
  can0  284   [8]  00 00 00 00 00 00 44 CA
  can0  160   [7]  33 C3 1A 00 08 FF E0
  can0  180   [8]  14 CD 31 A3 3C 00 29 10
  can0  182   [8]  00 00 00 00 00 09 00 CF
  can0  1F9   [8]  20 00 14 CD 00 00 00 80
  can0  239   [5]  00 FF B1 80 54
  can0  540   [8]  28 20 00 00 00 00 00 01
  can0  1B4   [7]  00 00 E9 06 40 0D F1
  can0  541   [8]  00 00 00 00 00 00 00 81
  can0  2B0   [8]  00 0F FF 81 00 8C D0 9D
  can0  542   [8]  00 00 00 00 00 00 00 01
  can0  60D   [8]  00 06 00 00 00 00 00 00
  can0  280   [8]  03 00 80 00 00 00 3A 40
  can0  2DE   [8]  00 00 83 00 00 00 0A 1B
  can0  5C5   [8]  44 02 75 EE 00 0C 00 00
  can0  002   [8]  EF FD 00 07 8C A6 9F 0A
  can0  215   [6]  FF F0 FF 00 FF FF
  can0  2A0   [6]  FF 7F FE 7F FE FE
  can0  0C1   [8]  B0 FD 00 00 08 00 00 76
  can0  245   [8]  FF E0 00 18 00 00 FF E2
  can0  160   [7]  33 C3 1A 00 08 FF E0
  can0  180   [8]  14 CD 31 A3 3C 00 2A 10
  can0  182   [8]  00 00 00 00 00 0A 00 CF
  can0  1F9   [8]  20 00 14 CD 00 00 00 80
  can0  625   [6]  02 00 FF 1D 20 00
  can0  1B4   [7]  00 00 E9 06 40 0E F2
  can0  2B0   [8]  00 0F FF 81 00 8C E0 AD
  can0  2B3   [6]  00 00 00 00 80 52
  can0  2DE   [8]  00 00 80 00 00 00 0A 1B
  can0  002   [8]  EF FD 00 07 9D A6 9F 0A
  can0  216   [2]  42 64
  can0  290   [8]  40 05 E9 06 E9 06 02 B7
  can0  0C1   [8]  B0 FD 00 00 08 00 01 77
  can0  285   [8]  00 00 00 00 00 00 45 CC
  can0  284   [8]  00 00 00 00 00 00 45 CB
  can0  160   [7]  33 C3 1A 00 08 FF E0
  can0  180   [8]  14 CD 31 A3 3C 00 2B 10
  can0  182   [8]  00 00 00 00 00 0B 00 CF
  can0  1F9   [8]  20 00 14 CD 00 00 00 80
  can0  239   [5]  00 FF B1 80 55
  can0  1B4   [7]  00 00 E9 06 40 0F F3
  can0  2B0   [8]  00 0F FF 81 00 8C F0 BD
  can0  525   [1]  C0
  can0  35D   [8]  80 03 00 00 00 00 00 00
  can0  280   [8]  03 00 80 00 00 00 3A 40
  can0  2DE   [8]  00 00 81 00 00 00 0A 1B
  can0  355   [7]  00 00 00 00 00 00 60
  can0  002   [8]  EF FD 00 07 AE A6 9F 0A
  can0  215   [6]  FF F0 FF 00 FF FF
  can0  354   [8]  00 00 00 00 00 08 04 00
  can0  0C1   [8]  B0 FD 00 00 08 00 02 78
  can0  2A0   [6]  FF 7F FD 7F FE FE
  can0  245   [8]  FF E0 00 18 00 00 FF E3
  can0  160   [7]  33 C3 1B 00 08 FF E0
  can0  180   [8]  14 CD 31 B3 3C 00 2C 10
  can0  182   [8]  00 00 00 00 00 0C 00 CF
  can0  1F9   [8]  20 00 14 CD 00 00 00 80
  can0  1B4   [7]  00 00 E9 06 40 00 E4
  can0  2B0   [8]  00 0F FF 81 00 8C 00 CD
  can0  2B3   [6]  00 00 00 00 80 52
  can0  2DE   [8]  00 00 82 00 00 00 0A 1B
  can0  002   [8]  EF FD 00 07 BF A6 9F 0A
  can0  216   [2]  42 64
  can0  290   [8]  40 05 E9 06 E9 06 12 C7
  can0  0C1   [8]  B0 FD 00 00 08 00 03 79
  can0  285   [8]  00 00 00 00 00 00 46 CD
  can0  284   [8]  00 00 00 00 00 00 46 CC
  can0  160   [7]  33 C3 1B 00 08 FF E0
  can0  180   [8]  14 B4 31 B3 3C 00 2D 10
  can0  182   [8]  00 00 00 00 00 0D 00 CF
  can0  1F9   [8]  20 00 14 B4 00 00 00 80
  can0  239   [5]  00 FF B1 80 56
  can0  1B4   [7]  00 00 E9 06 40 01 E5
  can0  2B0   [8]  00 0F FF 81 00 8C 10 DD
  can0  2DE   [8]  00 00 83 00 00 00 0A 1B
  can0  280   [8]  03 00 80 00 00 00 39 40
  can0  358   [8]  00 00 00 00 80 00 00 00
  can0  002   [8]  EF FD 00 07 40 A6 9F 0A
  can0  215   [6]  FF F0 FF 00 FF FF
  can0  2A0   [6]  FF 7F FC 7F FE FE
  can0  0C1   [8]  B0 FD 00 00 08 00 00 76
  can0  245   [8]  FF E0 00 18 00 00 FF E0
  can0  160   [7]  33 C3 1B 00 08 FF E0
  can0  180   [8]  14 B4 31 B3 3C 00 2E 10
  can0  182   [8]  00 00 00 00 00 0E 00 CF
  can0  1F9   [8]  20 00 14 B4 00 00 00 80
  can0  551   [8]  83 7E 00 80 00 02 80 FF
  can0  580   [3]  00 82 40
  can0  6E2   [3]  64 15 7A
  can0  1B4   [7]  00 00 E9 06 40 02 E6
  can0  2B0   [8]  00 0F FF 81 00 8C 20 ED
  can0  2B3   [6]  00 00 00 00 80 52
  can0  2DE   [8]  00 00 80 00 00 00 0A 1B
  can0  54A   [8]  3C 20 70 0A 55 55 00 78
  can0  54B   [8]  02 48 90 02 14 00 00 00
  can0  54C   [8]  F9 63 40 00 00 80 04 08
  can0  002   [8]  EF FD 00 07 51 A6 9F 0A
  can0  216   [2]  42 64
  can0  290   [8]  40 05 E9 06 E9 06 22 D7
  can0  0C1   [8]  B0 FD 00 00 08 00 01 77
  can0  285   [8]  00 00 00 00 00 00 47 CE
  can0  284   [8]  00 00 00 00 00 00 47 CD
  can0  160   [7]  33 C3 1B 00 08 FF E0
  can0  180   [8]  14 B4 31 B3 3C 00 2F 10
  can0  182   [8]  00 00 00 00 00 0F 00 CF
  can0  1F9   [8]  20 00 14 B4 00 00 00 80
  can0  239   [5]  00 FF B1 80 57
  can0  1B4   [7]  00 00 E9 06 40 03 E7
  can0  2B0   [8]  00 0F FF 81 00 8C 30 FD
  can0  351   [8]  00 00 00 00 00 08 00 22
  can0  280   [8]  03 00 80 00 00 00 39 40
  can0  2DE   [8]  00 00 81 00 00 00 0A 1B
  can0  355   [7]  00 00 00 00 00 00 60
  can0  002   [8]  EF FD 00 07 62 A6 9F 0A
  can0  215   [6]  FF F0 FF 00 FF FF
  can0  354   [8]  00 00 00 00 00 10 04 00
  can0  0C1   [8]  B0 FD 00 00 08 00 02 78
  can0  2A0   [6]  FF 7F FE 7F FE FE
  can0  245   [8]  FF E0 00 18 00 00 FF E1
  can0  160   [7]  33 C3 1B 00 08 FF E0
  can0  180   [8]  14 E6 31 B3 3C 00 20 10
  can0  182   [8]  00 00 00 00 00 00 00 CF
  can0  1F9   [8]  20 00 14 E6 00 00 00 80
  can0  1B4   [7]  00 00 E9 06 40 04 E8
  can0  2B0   [8]  00 0F FF 81 00 8C 40 0D
  can0  2B3   [6]  00 00 00 00 80 52
  can0  2DE   [8]  00 00 82 00 00 00 0A 1B
  can0  002   [8]  EF FD 00 07 73 A6 9F 0A
  can0  216   [2]  42 64
  can0  290   [8]  40 05 E9 06 E9 06 32 E7
  can0  0C1   [8]  B0 FD 00 00 08 00 03 79
  can0  285   [8]  00 00 00 00 00 00 48 CF
  can0  284   [8]  00 00 00 00 00 00 48 CE
  can0  160   [7]  33 C3 1B 00 08 FF E0
  can0  180   [8]  14 E6 31 B3 3C 00 21 10
  can0  182   [8]  00 00 00 00 00 01 00 CF
  can0  1F9   [8]  20 00 14 E6 00 00 00 80
  can0  239   [5]  00 FF B1 80 54
  can0  1B4   [7]  00 00 E9 06 40 05 E9
  can0  2B0   [8]  00 0F FF 81 00 8C 50 1D
  can0  385   [7]  04 00 00 00 00 00 00
  can0  280   [8]  03 02 80 00 00 00 3C 40
  can0  2DE   [8]  00 00 83 00 00 00 0A 1B
  can0  002   [8]  EF FD 00 07 04 A6 9F 0A
  can0  215   [6]  FF F0 FF 00 FF FF
  can0  2A0   [6]  FF 7F FF 7F FE FE
  can0  245   [8]  FF E0 00 18 00 00 FF E2
  can0  0C1   [8]  B0 FD 00 00 08 00 00 76
  can0  160   [7]  33 C3 1B 00 08 FF E0
  can0  180   [8]  14 E6 31 B3 3C 00 22 10
  can0  182   [8]  00 00 00 00 00 02 00 CF
  can0  1F9   [8]  20 00 14 E6 00 00 00 80
  can0  1B4   [7]  00 00 E9 06 40 06 EA
  can0  2B0   [8]  00 0F FF 81 00 8C 60 2D
  can0  2B3   [6]  00 00 00 00 80 52
  can0  2DE   [8]  00 00 80 00 00 00 0A 1B
  can0  002   [8]  EF FD 00 07 15 A6 9F 0A
  can0  216   [2]  42 64
  can0  290   [8]  40 05 E9 06 E9 06 42 F7
  can0  0C1   [8]  B0 FD 00 00 08 00 01 77
  can0  285   [8]  00 00 00 00 00 00 49 D0
  can0  284   [8]  00 00 00 00 00 00 49 CF
  can0  160   [7]  33 C3 1B 00 08 FF E0
  can0  180   [8]  14 CD 31 B3 3C 00 23 10
  can0  182   [8]  00 00 00 00 00 03 00 CF
  can0  1F9   [8]  20 00 14 CD 00 00 00 80
  can0  239   [5]  00 FF B1 80 55
  can0  540   [8]  28 20 00 00 00 00 00 02
  can0  541   [8]  00 00 00 00 00 00 00 82
  can0  1B4   [7]  00 00 E9 06 40 07 EB
  can0  542   [8]  00 00 00 00 00 00 00 02
  can0  2B0   [8]  00 0F FF 81 00 8C 70 3D
  can0  60D   [8]  00 06 00 00 00 00 00 00
  can0  280   [8]  03 02 80 00 00 00 3C 40
  can0  2DE   [8]  00 00 81 00 00 00 0A 1B
  can0  002   [8]  EF FD 00 07 26 A6 9F 0A
  can0  355   [7]  00 00 00 00 00 00 60
  can0  5C5   [8]  44 02 75 EE 00 0C 00 00
  can0  215   [6]  FF F0 FF 00 FF FF
  can0  354   [8]  00 00 00 00 00 18 04 00
  can0  0C1   [8]  B0 FD 00 00 08 00 02 78
  can0  2A0   [6]  FF 7F FD 7F FE FE
  can0  245   [8]  FF E0 00 18 00 00 FF E3
  can0  160   [7]  33 C3 1B 00 08 FF E0
  can0  180   [8]  14 CD 31 B3 3C 00 24 10
  can0  182   [8]  00 00 00 00 00 04 00 CF
  can0  1F9   [8]  20 00 14 CD 00 00 00 80
  can0  625   [6]  02 00 FF 1D 20 00
  can0  1B4   [7]  00 00 E9 06 40 08 EC
  can0  2B0   [8]  00 0F FF 81 00 8C 80 4D
  can0  2B3   [6]  00 00 00 00 80 52
  can0  2DE   [8]  00 00 82 00 00 00 0A 1B
  can0  002   [8]  EF FD 00 07 37 A6 9F 0A
  can0  216   [2]  42 64
  can0  290   [8]  40 05 E9 06 E9 06 52 07
  can0  0C1   [8]  B0 FD 00 00 08 00 03 79
  can0  285   [8]  00 00 00 00 00 00 4A D1
  can0  284   [8]  00 00 00 00 00 00 4A D0
  can0  160   [7]  33 C3 1B 00 08 FF E0
  can0  180   [8]  14 CD 31 B3 3C 00 25 10
  can0  182   [8]  00 00 00 00 00 05 00 CF
  can0  1F9   [8]  20 00 14 CD 00 00 00 80
  can0  239   [5]  00 FF B1 80 56
  can0  1B4   [7]  00 00 E9 06 40 09 ED
  can0  525   [1]  C0
  can0  2B0   [8]  00 0F FF 81 00 8C 90 5D
  can0  2DE   [8]  00 00 83 00 00 00 0A 1B
  can0  280   [8]  03 02 80 00 00 00 3C 40
  can0  35D   [8]  80 03 00 00 00 00 00 00
  can0  002   [8]  EF FD 00 07 C8 A6 9F 0A
  can0  215   [6]  FF F0 FF 00 FF FF
  can0  2A0   [6]  FF 7F FD 7F FE FE
  can0  245   [8]  FF E0 00 18 00 00 FF E0
  can0  0C1   [8]  B0 FD 00 00 08 00 00 76
  can0  160   [7]  33 C3 18 00 08 FF E0
  can0  180   [8]  14 B4 31 83 3C 00 26 10
  can0  182   [8]  00 00 00 00 00 06 00 CF
  can0  1F9   [8]  20 00 14 B4 00 00 00 80
  can0  1B4   [7]  00 00 E9 06 40 0A EE
  can0  2B0   [8]  00 0F FF 81 00 8C A0 6D
  can0  2B3   [6]  00 00 00 00 80 52
  can0  2DE   [8]  00 00 80 00 00 00 0A 1B
  can0  002   [8]  EF FD 00 07 D9 A6 9F 0A
  can0  216   [2]  42 64
  can0  290   [8]  40 05 E9 06 E9 06 62 17
  can0  0C1   [8]  B0 FD 00 00 08 00 01 77
  can0  285   [8]  00 00 00 00 00 00 4B D2
  can0  284   [8]  00 00 00 00 00 00 4B D1
  can0  160   [7]  33 C3 18 00 08 FF E0
  can0  180   [8]  14 B4 31 83 3C 00 27 10
  can0  182   [8]  00 00 00 00 00 07 00 CF
  can0  1F9   [8]  20 00 14 B4 00 00 00 80
  can0  239   [5]  00 FF B1 80 57
  can0  1B4   [7]  00 00 E9 06 40 0B EF
  can0  2B0   [8]  00 0F FF 81 00 8C B0 7D
  can0  2DE   [8]  00 00 81 00 00 00 0A 1B
  can0  280   [8]  03 00 80 00 00 00 39 40
  can0  355   [7]  00 00 00 00 00 00 60
  can0  358   [8]  00 00 00 00 80 00 00 00
  can0  002   [8]  EF FD 00 07 EA A6 9F 0A
  can0  215   [6]  FF F0 FF 00 FF FF
  can0  354   [8]  00 00 00 00 00 00 04 00
  can0  0C1   [8]  B0 FD 00 00 08 00 02 78
  can0  2A0   [6]  FF 7F FE 7F FE FE
  can0  245   [8]  FF E0 00 18 00 00 FF E1
  can0  160   [7]  33 C3 1B 00 08 FF E0
  can0  180   [8]  14 B4 31 B3 3C 00 28 10
  can0  182   [8]  00 00 00 00 00 08 00 CF
  can0  1F9   [8]  20 00 14 B4 00 00 00 80
  can0  551   [8]  83 7E 00 80 00 02 80 FF
  can0  580   [3]  00 82 40
  can0  6E2   [3]  64 15 7B
  can0  1B4   [7]  00 00 E9 06 40 0C F0
  can0  2B0   [8]  00 0F FF 81 00 8C C0 8D
  can0  2B3   [6]  00 00 00 00 80 52
  can0  2DE   [8]  00 00 82 00 00 00 0A 1B
  can0  54A   [8]  DA 20 70 0A 55 55 00 78
  can0  54B   [8]  02 48 90 02 14 00 00 00
  can0  54C   [8]  F9 63 40 00 00 80 04 08
  can0  002   [8]  EF FD 00 07 FB A6 9F 0A
  can0  216   [2]  42 64
  can0  290   [8]  40 05 E9 06 E9 06 72 27
  can0  0C1   [8]  B0 FD 00 00 08 00 03 79
  can0  285   [8]  00 00 00 00 00 00 4C D3
  can0  284   [8]  00 00 00 00 00 00 4C D2
  can0  160   [7]  33 C3 1A 00 08 FF E0
  can0  180   [8]  14 CD 31 A3 3C 00 29 10
  can0  182   [8]  00 00 00 00 00 09 00 CF
  can0  1F9   [8]  20 00 14 CD 00 00 00 80
  can0  239   [5]  00 FF B1 80 54
  can0  1B4   [7]  00 00 E9 06 40 0D F1
  can0  2B0   [8]  00 0F FF 81 00 8C D0 9D
  can0  351   [8]  00 00 00 00 00 08 00 22
  can0  280   [8]  03 00 80 00 00 00 39 40
  can0  2DE   [8]  00 00 83 00 00 00 0A 1B
  can0  002   [8]  EF FD 00 07 8C A6 9F 0A
  can0  215   [6]  FF F0 FF 00 FF FF
  can0  2A0   [6]  FF 7F FE 7F FE FE
  can0  245   [8]  FF E0 00 18 00 00 FF E2
  can0  0C1   [8]  B0 FD 00 00 08 00 00 76
  can0  160   [7]  33 C3 1B 00 08 FF E0
  can0  180   [8]  14 CD 31 B3 3C 00 2A 10
  can0  182   [8]  00 00 00 00 00 0A 00 CE
  can0  1F9   [8]  20 00 14 CD 00 00 00 80
  can0  1B4   [7]  00 00 E9 06 40 0E F2
  can0  2B0   [8]  00 0F FF 81 00 8C E0 AD
  can0  2B3   [6]  00 00 00 00 80 52
  can0  2DE   [8]  00 00 80 00 00 00 0A 1B
  can0  002   [8]  EF FD 00 07 9D A6 9F 0A
  can0  216   [2]  42 64
  can0  290   [8]  40 05 E9 06 E9 06 82 37
  can0  0C1   [8]  B0 FD 00 00 08 00 01 77
  can0  285   [8]  00 00 00 00 00 00 4D D4
  can0  284   [8]  00 00 00 00 00 00 4D D3
  can0  160   [7]  33 C3 1B 00 08 FF E0
  can0  180   [8]  14 CD 31 B3 3C 00 2B 10
  can0  182   [8]  00 00 00 00 00 0B 00 CF
  can0  1F9   [8]  20 00 14 CD 00 00 00 80
  can0  239   [5]  00 FF B1 80 55
  can0  1B4   [7]  00 00 E9 06 40 0F F3
  can0  2B0   [8]  00 0F FF 81 00 8C F0 BD
  can0  2DE   [8]  00 00 81 00 00 00 0A 1B
  can0  280   [8]  03 01 80 00 00 00 39 40
  can0  355   [7]  00 00 00 00 00 00 60
  can0  002   [8]  EF FD 00 07 AE A6 9F 0A
  can0  385   [7]  04 00 00 00 00 00 00
  can0  215   [6]  FF F0 FF 00 FF FF
  can0  354   [8]  00 00 00 00 00 08 04 00
  can0  0C1   [8]  B0 FD 00 00 08 00 02 78
  can0  2A0   [6]  FF 7F FE 7F FE FE
  can0  245   [8]  FF E0 00 18 00 00 FF E3
  can0  160   [7]  33 C3 1B 00 08 FF E0
  can0  180   [8]  14 CD 31 B3 3C 00 2C 10
  can0  182   [8]  00 00 00 00 00 0C 00 CF
  can0  1F9   [8]  20 00 14 CD 00 00 00 80
  can0  1B4   [7]  00 00 E9 06 40 00 E4
  can0  2B0   [8]  00 0F FF 81 00 8C 00 CD
  can0  2DE   [8]  00 00 82 00 00 00 0A 1B
  can0  2B3   [6]  00 00 00 00 80 52
  can0  002   [8]  EF FD 00 07 BF A6 9F 0A
  can0  216   [2]  42 64
  can0  290   [8]  40 05 E9 06 E9 06 92 47
  can0  0C1   [8]  B0 FD 00 00 08 00 03 79
  can0  285   [8]  00 00 00 00 00 00 4E D5
  can0  284   [8]  00 00 00 00 00 00 4E D4
  can0  540   [8]  28 20 00 00 00 00 00 03
  can0  160   [7]  33 C3 1A 00 08 FF E0
  can0  180   [8]  14 CD 31 A3 3C 00 2D 10
  can0  182   [8]  00 00 00 00 00 0D 00 CF
  can0  1B4   [7]  00 00 E9 06 40 01 E5
  can0  1F9   [8]  20 00 14 CD 00 00 00 80
  can0  239   [5]  00 FF B1 80 56
  can0  2B0   [8]  00 0F FF 81 00 8C 10 DD
  can0  280   [8]  03 01 80 00 00 00 39 40
  can0  2DE   [8]  00 00 83 00 00 00 0A 1B
  can0  002   [8]  EF FD 00 07 40 A6 9F 0A
  can0  541   [8]  00 00 00 00 00 00 00 83
  can0  5C5   [8]  44 02 75 EE 00 0C 00 00
  can0  542   [8]  00 00 00 00 00 00 00 03
  can0  60D   [8]  00 06 00 00 00 00 00 00
  can0  215   [6]  FF F0 FF 00 FF FF
  can0  2A0   [6]  FF 7F FD 7F FE FE
  can0  245   [8]  FF E0 00 18 00 00 FF E0
  can0  0C1   [8]  B0 FD 00 00 08 00 00 76
  can0  625   [6]  02 00 FF 1D 20 00
  can0  160   [7]  33 C3 19 00 08 FF E0
  can0  180   [8]  14 CD 31 93 3C 00 2E 10
  can0  182   [8]  00 00 00 00 00 0E 00 CF
  can0  1B4   [7]  00 00 E9 06 40 02 E6
  can0  1F9   [8]  20 00 14 CD 00 00 00 80
  can0  2B0   [8]  00 0F FF 81 00 8C 20 ED
  can0  2DE   [8]  00 00 80 00 00 00 0A 1B
  can0  2B3   [6]  00 00 00 00 80 52
  can0  002   [8]  EF FD 00 07 51 A6 9F 0A
  can0  216   [2]  42 64
  can0  290   [8]  40 05 E9 06 E9 06 A2 57
  can0  0C1   [8]  B0 FD 00 00 08 00 01 77
  can0  285   [8]  00 00 00 00 00 00 4F D6
  can0  284   [8]  00 00 00 00 00 00 4F D5
  can0  160   [7]  33 C3 19 00 08 FF E0
  can0  180   [8]  14 B4 31 93 3C 00 2F 10
  can0  182   [8]  00 00 00 00 00 0F 00 CF
  can0  1B4   [7]  00 00 E9 06 40 03 E7
  can0  1F9   [8]  20 00 14 B4 00 00 00 80
  can0  239   [5]  00 FF B1 80 57
  can0  280   [8]  03 01 80 00 00 00 39 40
  can0  2B0   [8]  00 0F FF 81 00 8C 30 FD
  can0  002   [8]  EF FD 00 07 62 A6 9F 0A
  can0  2DE   [8]  00 00 81 00 00 00 0A 1B
  can0  355   [7]  00 00 00 00 00 00 60
  can0  35D   [8]  80 03 00 00 00 00 00 00
  can0  525   [1]  C0
  can0  215   [6]  FF F0 FF 00 FF FF
  can0  354   [8]  00 00 00 00 00 10 04 00
  can0  2A0   [6]  FF 7F FC 7F FE FE
  can0  0C1   [8]  B0 FD 00 00 08 00 02 78
  can0  245   [8]  FF E0 00 18 00 00 FF E1
  can0  160   [7]  33 C3 19 00 08 FF E0
  can0  180   [8]  14 B4 31 93 3C 00 20 10
  can0  182   [8]  00 00 00 00 00 00 00 CE
  can0  1B4   [7]  00 00 E9 06 40 04 E8
  can0  1F9   [8]  20 00 14 B4 00 00 00 80
  can0  2B0   [8]  00 0F FF 81 00 8C 40 0D
  can0  2DE   [8]  00 00 82 00 00 00 0A 1B
  can0  002   [8]  EF FD 00 07 73 A6 9F 0A
  can0  2B3   [6]  00 00 00 00 80 52
  can0  216   [2]  42 64
  can0  290   [8]  40 05 E9 06 E9 06 B2 67
  can0  0C1   [8]  B0 FD 00 00 08 00 03 79
  can0  285   [8]  00 00 00 00 00 00 50 D7
  can0  284   [8]  00 00 00 00 00 00 50 D6
  can0  1B4   [7]  00 00 E9 06 40 05 E9
  can0  160   [7]  33 C3 1E 00 08 FF E0
  can0  180   [8]  14 B4 31 E3 3C 00 21 10
  can0  182   [8]  00 00 00 00 00 01 00 CF
  can0  1F9   [8]  20 00 14 B4 00 00 00 80
  can0  239   [5]  00 FF B1 80 54
  can0  280   [8]  03 02 80 00 00 00 3C 40
  can0  002   [8]  EF FD 00 07 04 A6 9F 0A
  can0  2B0   [8]  00 0F FF 81 00 8C 50 1D
  can0  2DE   [8]  00 00 83 00 00 00 0A 1B
  can0  358   [8]  00 00 00 00 80 00 00 00
  can0  215   [6]  FF F0 FF 00 FF FF
  can0  2A0   [6]  FF 7F FF 7F FE FE
  can0  245   [8]  FF E0 00 18 00 00 FF E2
  can0  0C1   [8]  B0 FD 00 00 08 00 00 76
  can0  1B4   [7]  00 00 E9 06 40 06 EA
  can0  2B0   [8]  00 0F FF 81 00 8C 60 2D
  can0  160   [7]  33 C3 1E 00 08 FF E0
  can0  180   [8]  14 B4 31 E3 3C 00 22 10
  can0  182   [8]  00 00 00 00 00 02 00 CF
  can0  1F9   [8]  20 00 14 B4 00 00 00 80
  can0  002   [8]  EF FD 00 07 15 A6 9F 0A
  can0  2B3   [6]  00 00 00 00 80 52
  can0  216   [2]  42 64
  can0  2DE   [8]  00 00 80 00 00 00 0A 1B
  can0  54A   [8]  3C 20 70 0A 55 55 00 78
  can0  54B   [8]  02 48 90 02 14 00 00 00
  can0  54C   [8]  F9 63 40 00 00 80 04 08
  can0  551   [8]  83 7F 00 80 00 02 80 FF
  can0  580   [3]  00 82 40
  can0  6E2   [3]  64 15 78
  can0  290   [8]  40 05 E9 06 E9 06 C2 77
  can0  0C1   [8]  B0 FD 00 00 08 00 01 77
  can0  285   [8]  00 00 00 00 00 00 51 D8
  can0  284   [8]  00 00 00 00 00 00 51 D7
  can0  1B4   [7]  00 00 E9 06 40 07 EB
  can0  2B0   [8]  00 0F FF 81 00 8C 70 3D
  can0  351   [8]  00 00 00 00 00 08 00 22
  can0  160   [7]  33 C3 1B 00 08 FF E0
  can0  180   [8]  14 B4 31 B3 3C 00 23 10
  can0  182   [8]  00 00 00 00 00 03 00 CF
  can0  002   [8]  EF FD 00 07 26 A6 9F 0A
  can0  1F9   [8]  20 00 14 B4 00 00 00 80
  can0  239   [5]  00 FF B1 80 55
  can0  280   [8]  03 02 80 00 00 00 3C 40
  can0  2DE   [8]  00 00 81 00 00 00 0A 1B
  can0  215   [6]  FF F0 FF 00 FF FF
  can0  355   [7]  00 00 00 00 00 00 60
  can0  354   [8]  00 00 00 00 00 18 04 00
  can0  2A0   [6]  FF 7F FF 7F FE FE
  can0  0C1   [8]  B0 FD 00 00 08 00 02 78
  can0  245   [8]  FF E0 00 18 00 00 FF E3
  can0  1B4   [7]  00 00 E9 06 40 08 EC
  can0  2DE   [8]  00 00 82 00 00 00 0A 1B
  can0  2B0   [8]  00 0F FF 81 00 8C 80 4D
  can0  160   [7]  33 C3 1B 00 08 FF E0
  can0  180   [8]  14 B4 31 B3 3C 00 24 10
  can0  182   [8]  00 00 00 00 00 04 00 CE
  can0  002   [8]  EF FD 00 07 37 A6 9F 0A
  can0  1F9   [8]  20 00 14 B4 00 00 00 80
  can0  216   [2]  42 64
  can0  2B3   [6]  00 00 00 00 80 52
  can0  290   [8]  40 05 E9 06 E9 06 D2 87
  can0  285   [8]  00 00 00 00 00 00 52 D9
  can0  0C1   [8]  B0 FD 00 00 08 00 03 79
  can0  284   [8]  00 00 00 00 00 00 52 D8
  can0  1B4   [7]  00 00 E9 06 40 09 ED
  can0  2B0   [8]  00 0F FF 81 00 8C 90 5D
  can0  385   [7]  04 00 00 00 00 00 00
  can0  280   [8]  03 FF 40 00 00 00 37 40
  can0  160   [7]  33 C3 1B 00 08 FF E0
  can0  180   [8]  14 9B 31 B3 3C 00 25 10
  can0  002   [8]  EF FD 00 07 C8 A6 9F 0A
  can0  182   [8]  00 00 00 00 00 05 00 CE
  can0  1F9   [8]  20 00 14 9B 00 00 00 80
  can0  239   [5]  00 FF B1 80 56
  can0  2DE   [8]  00 00 83 00 00 00 0A 1B
  can0  215   [6]  FF F0 FF 00 FF FF
  can0  2A0   [6]  FF 7F FD 7F FE FE
  can0  245   [8]  FF E0 00 18 00 00 FF E0
  can0  0C1   [8]  B0 FD 00 00 08 00 00 76
  can0  1B4   [7]  00 00 E9 06 40 0A EE
  can0  2DE   [8]  00 00 80 00 00 00 0A 1B
  can0  2B0   [8]  00 0F FF 81 00 8C A0 6D
  can0  2B3   [6]  00 00 00 00 80 52
  can0  160   [7]  33 C3 1C 00 08 FF E0
  can0  002   [8]  EF FD 00 07 D9 A6 9F 0A
  can0  180   [8]  14 9B 31 C3 3C 00 26 10
  can0  182   [8]  00 00 00 00 00 06 00 CF
  can0  1F9   [8]  20 00 14 9B 00 00 00 80
  can0  216   [2]  42 64
  can0  290   [8]  40 05 E9 06 E9 06 E2 97
  can0  285   [8]  00 00 00 00 00 00 53 DA
  can0  0C1   [8]  B0 FD 00 00 08 00 01 77
  can0  284   [8]  00 00 00 00 00 00 53 D9
  can0  540   [8]  28 20 00 00 00 00 00 00
  can0  541   [8]  00 00 00 00 00 00 00 80
  can0  542   [8]  00 00 00 00 00 00 00 00
  can0  1B4   [7]  00 00 E9 06 40 0B EF
  can0  2B0   [8]  00 0F FF 81 00 8C B0 7D
  can0  280   [8]  03 FF 40 00 00 00 37 40
  can0  2DE   [8]  00 00 81 00 00 00 0A 1B
  can0  355   [7]  00 00 00 00 00 00 60
  can0  002   [8]  EF FD 00 07 EA A6 9F 0A
  can0  160   [7]  33 C3 1C 00 08 FF E0
  can0  180   [8]  14 9B 31 C3 3C 00 27 10
  can0  182   [8]  00 00 00 00 00 07 00 CF
  can0  1F9   [8]  20 00 14 9B 00 00 00 80
  can0  215   [6]  FF F0 FF 00 FF FF
  can0  239   [5]  00 FF B1 80 57
  can0  5C5   [8]  44 02 75 EE 00 0C 00 00
  can0  60D   [8]  00 06 00 00 00 00 00 00
  can0  354   [8]  00 00 00 00 00 00 04 00
  can0  2A0   [6]  FF 7F FD 7F FE FE
  can0  0C1   [8]  B0 FD 00 00 08 00 02 78
  can0  245   [8]  FF E0 00 18 00 00 FF E1
  can0  625   [6]  02 00 FF 1D 20 00
  can0  1B4   [7]  00 00 E9 06 40 0C F0
  can0  2B0   [8]  00 0F FF 81 00 8C C0 8D
  can0  2DE   [8]  00 00 82 00 00 00 0A 1B
  can0  2B3   [6]  00 00 00 00 80 52
  can0  002   [8]  EF FD 00 07 FB A6 9F 0A
  can0  160   [7]  33 C3 1C 00 08 FF E0
  can0  180   [8]  14 9B 31 C3 3C 00 28 10
  can0  182   [8]  00 00 00 00 00 08 00 CF
  can0  1F9   [8]  20 00 14 9B 00 00 00 80
  can0  216   [2]  42 64
  can0  290   [8]  40 05 E9 06 E9 06 F2 A7
  can0  285   [8]  00 00 00 00 00 00 54 DB
  can0  0C1   [8]  B0 FD 00 00 08 00 03 79
  can0  284   [8]  00 00 00 00 00 00 54 DA
  can0  525   [1]  C0
  can0  1B4   [7]  00 00 E9 06 40 0D F1
  can0  280   [8]  03 FF 40 00 00 00 37 40
  can0  2B0   [8]  00 0F FF 81 00 8C D0 9D
  can0  2DE   [8]  00 00 83 00 00 00 0A 1B
  can0  35D   [8]  80 03 00 00 00 00 00 00
  can0  002   [8]  EF FD 00 07 8C A6 9F 0A
  can0  160   [7]  33 C3 19 00 08 FF E0
  can0  180   [8]  14 9B 31 93 3C 00 29 10
  can0  182   [8]  00 00 00 00 00 09 00 CF
  can0  1F9   [8]  20 00 14 9B 00 00 00 80
  can0  215   [6]  FF F0 FF 00 FF FF
  can0  239   [5]  00 FF B1 80 54
  can0  2A0   [6]  FF 7F FF 7F FE FE
  can0  245   [8]  FF E0 00 18 00 00 FF E2
  can0  0C1   [8]  B0 FD 00 00 08 00 00 76
  can0  1B4   [7]  00 00 E9 06 40 0E F2
  can0  2B0   [8]  00 0F FF 81 00 8C E0 AD
  can0  2DE   [8]  00 00 80 00 00 00 0A 1B
  can0  2B3   [6]  00 00 00 00 80 52
  can0  002   [8]  EF FD 00 07 9D A6 9F 0A
  can0  216   [2]  42 64
  can0  160   [7]  33 C3 1D 00 08 FF E0
  can0  180   [8]  14 9B 31 D3 3C 00 2A 10
  can0  182   [8]  00 00 00 00 00 0A 00 CF
  can0  1F9   [8]  20 00 14 9B 00 00 00 80
  can0  290   [8]  40 05 E9 06 E9 06 02 B7
  can0  285   [8]  00 00 00 00 00 00 55 DC
  can0  0C1   [8]  B0 FD 00 00 08 00 01 77
  can0  284   [8]  00 00 00 00 00 00 55 DB
  can0  1B4   [7]  00 00 E9 06 40 0F F3
  can0  280   [8]  03 00 80 00 00 00 39 40
  can0  2B0   [8]  00 0F FF 81 00 8C F0 BD
  can0  2DE   [8]  00 00 81 00 00 00 0A 1B
  can0  355   [7]  00 00 00 00 00 00 60
  can0  002   [8]  EF FD 00 07 AE A6 9F 0A
  can0  358   [8]  00 00 00 00 80 00 00 00
  can0  215   [6]  FF F0 FF 00 FF FF
  can0  160   [7]  33 C3 1D 00 08 FF E0
  can0  180   [8]  14 9B 31 D3 3C 00 2B 10
  can0  182   [8]  00 00 00 00 00 0B 00 CF
  can0  1F9   [8]  20 00 14 9B 00 00 00 80
  can0  239   [5]  00 FF B1 80 55
  can0  0C1   [8]  B0 FD 00 00 08 00 02 78
  can0  354   [8]  00 00 00 00 00 08 04 00
  can0  2A0   [6]  FF 7F FE 7F FE FE
  can0  245   [8]  FF E0 00 18 00 00 FF E3
  can0  1B4   [7]  00 00 E9 06 40 00 E4
  can0  2DE   [8]  00 00 82 00 00 00 0A 1B
  can0  2B0   [8]  00 0F FF 81 00 8C 00 CD
  can0  54A   [8]  DA 20 70 0A 55 55 00 78
  can0  2B3   [6]  00 00 00 00 80 52
  can0  002   [8]  EF FD 00 07 BF A6 9F 0A
  can0  54B   [8]  02 48 90 02 14 00 00 00
  can0  216   [2]  42 64
  can0  54C   [8]  F9 63 40 00 00 80 04 08
  can0  160   [7]  33 C3 1B 00 08 FF E0
  can0  180   [8]  14 9B 31 B3 3C 00 2C 10
  can0  182   [8]  00 00 00 00 00 0C 00 CF
  can0  1F9   [8]  20 00 14 9B 00 00 00 80
  can0  290   [8]  40 05 E9 06 E9 06 12 C7
  can0  0C1   [8]  B0 FD 00 00 08 00 03 79
  can0  285   [8]  00 00 00 00 00 00 56 DD
  can0  284   [8]  00 00 00 00 00 00 56 DC
  can0  551   [8]  83 7F 00 80 00 02 80 FF
  can0  580   [3]  00 82 40
  can0  6E2   [3]  64 15 79
  can0  1B4   [7]  00 00 E9 06 40 01 E5
  can0  2B0   [8]  00 0F FF 81 00 8C 10 DD
  can0  280   [8]  03 00 80 00 00 00 39 40
  can0  2DE   [8]  00 00 83 00 00 00 0A 1B
  can0  002   [8]  EF FD 00 07 40 A6 9F 0A
  can0  351   [8]  00 00 00 00 00 08 00 22
  can0  215   [6]  FF F0 FF 00 FF FF
  can0  160   [7]  33 C3 1E 00 08 FF E0
  can0  180   [8]  14 9B 31 E3 3C 00 2D 10
  can0  182   [8]  00 00 00 00 00 0D 00 CF
  can0  1F9   [8]  20 00 14 9B 00 00 00 80
  can0  0C1   [8]  B0 FD 00 00 08 00 00 76
  can0  239   [5]  00 FF B1 80 56
  can0  2A0   [6]  FF 7F FD 7F FE FE
  can0  245   [8]  FF E0 00 18 00 00 FF E0
  can0  2DE   [8]  00 00 80 00 00 00 0A 1B
  can0  1B4   [7]  00 00 E9 06 40 02 E6
  can0  2B0   [8]  00 0F FF 81 00 8C 20 ED
  can0  2B3   [6]  00 00 00 00 80 52
  can0  002   [8]  EF FD 00 07 51 A6 9F 0A
  can0  216   [2]  42 64
  can0  160   [7]  33 C3 1E 00 08 FF E0
  can0  180   [8]  14 9B 31 E3 3C 00 2E 10
  can0  182   [8]  00 00 00 00 00 0E 00 CF
  can0  0C1   [8]  B0 FD 00 00 08 00 01 77
  can0  1F9   [8]  20 00 14 9B 00 00 00 80
  can0  290   [8]  40 05 E9 06 E9 06 22 D7
  can0  285   [8]  00 00 00 00 00 00 57 DE
  can0  284   [8]  00 00 00 00 00 00 57 DD
  can0  1B4   [7]  00 00 E9 06 40 03 E7
  can0  280   [8]  03 00 80 00 00 00 3A 40
  can0  2B0   [8]  00 0F FF 81 00 8C 30 FD
  can0  2DE   [8]  00 00 81 00 00 00 0A 1B
  can0  002   [8]  EF FD 00 07 62 A6 9F 0A
  can0  355   [7]  00 00 00 00 00 00 60
  can0  385   [7]  04 00 00 00 00 00 00
  can0  215   [6]  FF F0 FF 00 FF FF
  can0  354   [8]  00 00 00 00 00 10 04 00
  can0  160   [7]  33 C3 1C 00 08 FF E0
  can0  0C1   [8]  B0 FD 00 00 08 00 02 78
  can0  180   [8]  14 9B 31 C3 3C 00 2F 10
  can0  182   [8]  00 00 00 00 00 0F 00 CF
  can0  1F9   [8]  20 00 14 9B 00 00 00 80
  can0  239   [5]  00 FF B1 80 57
  can0  2A0   [6]  FF 7F FC 7F FE FE
  can0  245   [8]  FF E0 00 18 00 00 FF E1
  can0  2DE   [8]  00 00 82 00 00 00 0A 1B
  can0  1B4   [7]  00 00 E9 06 40 04 E8
  can0  2B0   [8]  00 0F FF 81 00 8C 40 0D
  can0  2B3   [6]  00 00 00 00 80 52
  can0  002   [8]  EF FD 00 07 73 A6 9F 0A
  can0  216   [2]  42 64
  can0  290   [8]  40 05 E9 06 E9 06 32 E7
  can0  160   [7]  33 C3 1C 00 08 FF E0
  can0  0C1   [8]  B0 FD 00 00 08 00 03 79
  can0  180   [8]  14 9B 31 C3 3C 00 20 10
  can0  182   [8]  00 00 00 00 00 00 00 CF
  can0  1F9   [8]  20 00 14 9B 00 00 00 80
  can0  285   [8]  00 00 00 00 00 00 58 DF
  can0  284   [8]  00 00 00 00 00 00 58 DE
  can0  540   [8]  28 20 00 00 00 00 00 01
  can0  541   [8]  00 00 00 00 00 00 00 81
  can0  542   [8]  00 00 00 00 00 00 00 01
  can0  1B4   [7]  00 00 E9 06 40 05 E9
  can0  280   [8]  03 00 80 00 00 00 3A 40
  can0  2B0   [8]  00 0F FF 81 00 8C 50 1D
  can0  2DE   [8]  00 00 83 00 00 00 0A 1B
  can0  002   [8]  EF FD 00 07 04 A6 9F 0A
  can0  5C5   [8]  44 02 75 EE 00 0C 00 00
  can0  60D   [8]  00 06 00 00 00 00 00 00
  can0  215   [6]  FF F0 FF 00 FF FF
  can0  2A0   [6]  FF 7F FC 7F FE FE
  can0  245   [8]  FF E0 00 18 00 00 FF E2
  can0  0C1   [8]  B0 FD 00 00 08 00 00 76
  can0  160   [7]  33 C3 1C 00 08 FF E0
  can0  180   [8]  14 82 31 C3 3C 00 21 10
  can0  182   [8]  00 00 00 00 00 01 00 CF
  can0  1F9   [8]  20 00 14 82 00 00 00 80
  can0  239   [5]  00 FF B1 80 54
  can0  625   [6]  02 00 FF 1D 20 00
  can0  1B4   [7]  00 00 E9 06 40 06 EA
  can0  2DE   [8]  00 00 80 00 00 00 0A 1B
  can0  2B0   [8]  00 0F FF 81 00 8C 60 2D
  can0  2B3   [6]  00 00 00 00 80 52
  can0  002   [8]  EF FD 00 07 15 A6 9F 0A
  can0  216   [2]  42 64
  can0  290   [8]  40 05 E9 06 E9 06 42 F7
  can0  285   [8]  00 00 00 00 00 00 59 E0
  can0  0C1   [8]  B0 FD 00 00 08 00 01 77
  can0  284   [8]  00 00 00 00 00 00 59 DF
  can0  160   [7]  33 C3 1B 00 08 FF E0
  can0  180   [8]  14 82 31 B3 3C 00 22 10
  can0  182   [8]  00 00 00 00 00 02 00 CF
  can0  1F9   [8]  20 00 14 82 00 00 00 80
  can0  525   [1]  C0
  can0  2DE   [8]  00 00 81 00 00 00 0A 1B
  can0  1B4   [7]  00 00 E9 06 40 07 EB
  can0  280   [8]  03 00 80 00 00 00 3A 40
  can0  2B0   [8]  00 0F FF 81 00 8C 70 3D
  can0  002   [8]  EF FD 00 07 26 A6 9F 0A
  can0  355   [7]  00 00 00 00 00 00 60
  can0  35D   [8]  80 03 00 00 00 00 00 00
  can0  215   [6]  FF F0 FF 00 FF FF
  can0  354   [8]  00 00 00 00 00 18 04 00
  can0  2A0   [6]  FF 7F FE 7F FE FE
  can0  0C1   [8]  B0 FD 00 00 08 00 02 78
  can0  245   [8]  FF E0 00 18 00 00 FF E3
  can0  160   [7]  33 C3 1C 00 08 FF E0
  can0  180   [8]  14 82 31 C3 3C 00 23 10
  can0  182   [8]  00 00 00 00 00 03 00 CF
  can0  1F9   [8]  20 00 14 82 00 00 00 80
  can0  239   [5]  00 FF B1 80 55
  can0  1B4   [7]  00 00 E9 06 40 08 EC
  can0  2DE   [8]  00 00 82 00 00 00 0A 1B
  can0  2B0   [8]  00 0F FF 81 00 8C 80 4D
  can0  002   [8]  EF FD 00 07 37 A6 9F 0A
  can0  2B3   [6]  00 00 00 00 80 52
  can0  216   [2]  42 64
  can0  290   [8]  40 05 E9 06 E9 06 52 07
  can0  285   [8]  00 00 00 00 00 00 5A E1
  can0  0C1   [8]  B0 FD 00 00 08 00 03 79
  can0  284   [8]  00 00 00 00 00 00 5A E0
  can0  160   [7]  33 C3 1C 00 08 FF E0
  can0  180   [8]  14 9B 31 C3 3C 00 24 10
  can0  182   [8]  00 00 00 00 00 04 00 CF
  can0  1F9   [8]  20 00 14 9B 00 00 00 80
  can0  2DE   [8]  00 00 83 00 00 00 0A 1B
  can0  280   [8]  03 FF 40 00 00 00 38 40
  can0  1B4   [7]  00 00 E9 06 40 09 ED
  can0  358   [8]  00 00 00 00 80 00 00 00
  can0  002   [8]  EF FD 00 07 C8 A6 9F 0A
  can0  2B0   [8]  00 0F FF 81 00 8C 90 5D
  can0  215   [6]  FF F0 FF 00 FF FF
  can0  2A0   [6]  FF 7F FF 7F FE FE
  can0  245   [8]  FF E0 00 18 00 00 FF E0
  can0  0C1   [8]  B0 FD 00 00 08 00 00 76
  can0  160   [7]  33 C3 1D 00 08 FF E0
  can0  180   [8]  14 9B 31 D3 3C 00 25 10
  can0  182   [8]  00 00 00 00 00 05 00 CF
  can0  1F9   [8]  20 00 14 9B 00 00 00 80
  can0  239   [5]  00 FF B1 80 56
  can0  2DE   [8]  00 00 80 00 00 00 0A 1B
  can0  1B4   [7]  00 00 E9 06 40 0A EE
  can0  54A   [8]  3C 20 70 0A 55 55 00 78
  can0  2B0   [8]  00 0F FF 81 00 8C A0 6D
  can0  002   [8]  EF FD 00 07 D9 A6 9F 0A
  can0  2B3   [6]  00 00 00 00 80 52
  can0  216   [2]  42 64
  can0  54B   [8]  02 48 90 02 14 00 00 00
  can0  54C   [8]  F9 63 40 00 00 80 04 08
  can0  290   [8]  40 05 E9 06 E9 06 62 17
  can0  285   [8]  00 00 00 00 00 00 5B E2
  can0  0C1   [8]  B0 FD 00 00 08 00 01 77
  can0  284   [8]  00 00 00 00 00 00 5B E1
  can0  160   [7]  33 C3 1C 00 08 FF E0
  can0  180   [8]  14 9B 31 C3 3C 00 26 10
  can0  182   [8]  00 00 00 00 00 06 00 CF
  can0  1F9   [8]  20 00 14 9B 00 00 00 80
  can0  551   [8]  83 80 00 80 00 02 80 FF
  can0  580   [3]  00 82 40
  can0  6E2   [3]  64 15 7A
  can0  351   [8]  00 00 00 00 00 08 00 22
  can0  1B4   [7]  00 00 E9 06 40 0B EF
  can0  280   [8]  03 FF 40 00 00 00 38 40
  can0  2B0   [8]  00 0F FF 81 00 8C B0 7D
  can0  002   [8]  EF FD 00 07 EA A6 9F 0A
  can0  2DE   [8]  00 00 81 00 00 00 0A 1B
  can0  355   [7]  00 00 00 00 00 00 60
  can0  215   [6]  FF F0 FF 00 FF FF
  can0  354   [8]  00 00 00 00 00 00 04 00
  can0  2A0   [6]  FF 7F FC 7F FE FE
  can0  0C1   [8]  B0 FD 00 00 08 00 02 78
  can0  245   [8]  FF E0 00 18 00 00 FF E1
  can0  160   [7]  33 C3 1C 00 08 FF E0
  can0  180   [8]  14 9B 31 C3 3C 00 27 10
  can0  182   [8]  00 00 00 00 00 07 00 CF
  can0  1F9   [8]  20 00 14 9B 00 00 00 80
  can0  239   [5]  00 FF B1 80 57
  can0  2DE   [8]  00 00 82 00 00 00 0A 1B
  can0  1B4   [7]  00 00 E9 06 40 0C F0
  can0  2B0   [8]  00 0F FF 81 00 8C C0 8D
  can0  2B3   [6]  00 00 00 00 80 52
  can0  002   [8]  EF FD 00 07 FB A6 9F 0A
  can0  216   [2]  42 64
  can0  290   [8]  40 05 E9 06 E9 06 72 27
  can0  285   [8]  00 00 00 00 00 00 5C E3
  can0  0C1   [8]  B0 FD 00 00 08 00 03 79
  can0  284   [8]  00 00 00 00 00 00 5C E2
  can0  160   [7]  33 C3 1B 00 08 FF E0
  can0  180   [8]  14 9B 31 B3 3C 00 28 10
  can0  182   [8]  00 00 00 00 00 08 00 CF
  can0  1F9   [8]  20 00 14 9B 00 00 00 80
  can0  385   [7]  04 00 00 00 00 00 00
  can0  1B4   [7]  00 00 E9 06 40 0D F1
  can0  280   [8]  03 00 80 00 00 00 39 40
  can0  2B0   [8]  00 0F FF 81 00 8C D0 9D
  can0  002   [8]  EF FD 00 07 8C A6 9F 0A
  can0  2DE   [8]  00 00 83 00 00 00 0A 1B
  can0  215   [6]  FF F0 FF 00 FF FF
  can0  2A0   [6]  FF 7F FC 7F FE FE
  can0  245   [8]  FF E0 00 18 00 00 FF E2
  can0  0C1   [8]  B0 FD 00 00 08 00 00 76
  can0  160   [7]  33 C3 1B 00 08 FF E0
  can0  180   [8]  14 B4 31 B3 3C 00 29 10
  can0  182   [8]  00 00 00 00 00 09 00 CF
  can0  1F9   [8]  20 00 14 B4 00 00 00 80
  can0  239   [5]  00 FF B1 80 54
  can0  2DE   [8]  00 00 80 00 00 00 0A 1B
  can0  1B4   [7]  00 00 E9 06 40 0E F2
  can0  2B0   [8]  00 0F FF 81 00 8C E0 AD
  can0  2B3   [6]  00 00 00 00 80 52
  can0  002   [8]  EF FD 00 07 9D A6 9F 0A
  can0  216   [2]  42 64
  can0  290   [8]  40 05 E9 06 E9 06 82 37
  can0  285   [8]  00 00 00 00 00 00 5D E4
  can0  0C1   [8]  B0 FD 00 00 08 00 01 77
  can0  284   [8]  00 00 00 00 00 00 5D E3
  can0  160   [7]  33 C3 1B 00 08 FF E0
  can0  180   [8]  14 B4 31 B3 3C 00 2A 10
  can0  182   [8]  00 00 00 00 00 0A 00 CF
  can0  1F9   [8]  20 00 14 B4 00 00 00 80
  can0  540   [8]  28 20 00 00 00 00 00 02
  can0  541   [8]  00 00 00 00 00 00 00 82
  can0  542   [8]  00 00 00 00 00 00 00 02
  can0  60D   [8]  00 06 00 00 00 00 00 00
  can0  1B4   [7]  00 00 E9 06 40 0F F3
  can0  280   [8]  03 00 80 00 00 00 39 40
  can0  002   [8]  EF FD 00 07 AE A6 9F 0A
  can0  2B0   [8]  00 0F FF 81 00 8C F0 BD
  can0  2DE   [8]  00 00 81 00 00 00 0A 1B
  can0  355   [7]  00 00 00 00 00 00 60
  can0  5C5   [8]  44 02 75 EE 00 0C 00 00
  can0  215   [6]  FF F0 FF 00 FF FF
  can0  354   [8]  00 00 00 00 00 08 04 00
  can0  2A0   [6]  FF 7F FE 7F FE FE
  can0  0C1   [8]  B0 FD 00 00 08 00 02 78
  can0  245   [8]  FF E0 00 18 00 00 FF E3
  can0  160   [7]  33 C3 1B 00 08 FF E0
  can0  180   [8]  14 B4 31 B3 3C 00 2B 10
  can0  182   [8]  00 00 00 00 00 0B 00 CF
  can0  1F9   [8]  20 00 14 B4 00 00 00 80
  can0  239   [5]  00 FF B1 80 55
  can0  625   [6]  02 00 FF 1D 20 00
  can0  2DE   [8]  00 00 82 00 00 00 0A 1B
  can0  1B4   [7]  00 00 E9 06 40 00 E4
  can0  2B0   [8]  00 0F FF 81 00 8C 00 CD
  can0  002   [8]  EF FD 00 07 BF A6 9F 0A
  can0  2B3   [6]  00 00 00 00 80 52
  can0  216   [2]  42 64
  can0  290   [8]  40 05 E9 06 E9 06 92 47
  can0  285   [8]  00 00 00 00 00 00 5E E5
  can0  0C1   [8]  B0 FD 00 00 08 00 03 79
  can0  284   [8]  00 00 00 00 00 00 5E E4
  can0  160   [7]  33 C3 19 00 08 FF E0
  can0  180   [8]  14 82 31 93 3C 00 2C 10
  can0  182   [8]  00 00 00 00 00 0C 00 CF
  can0  1F9   [8]  20 00 14 82 00 00 00 80
  can0  525   [1]  C0
  can0  2DE   [8]  00 00 83 00 00 00 0A 1B
  can0  280   [8]  03 00 80 00 00 00 39 40
  can0  35D   [8]  80 03 00 00 00 00 00 00
  can0  1B4   [7]  00 00 E9 06 40 01 E5
  can0  002   [8]  EF FD 00 07 40 A6 9F 0A
  can0  2B0   [8]  00 0F FF 81 00 8C 10 DD
  can0  215   [6]  FF F0 FF 00 FF FF
  can0  2A0   [6]  FF 7F FD 7F FE FE
  can0  245   [8]  FF E0 00 18 00 00 FF E0
  can0  0C1   [8]  B0 FD 00 00 08 00 00 76
  can0  160   [7]  33 C3 19 00 08 FF E0
  can0  180   [8]  14 82 31 93 3C 00 2D 10
  can0  182   [8]  00 00 00 00 00 0D 00 CF
  can0  1F9   [8]  20 00 14 82 00 00 00 80
  can0  239   [5]  00 FF B1 80 56
  can0  2DE   [8]  00 00 80 00 00 00 0A 1B
  can0  1B4   [7]  00 00 E9 06 40 02 E6
  can0  2B0   [8]  00 0F FF 81 00 8C 20 ED
  can0  002   [8]  EF FD 00 07 51 A6 9F 0A
  can0  2B3   [6]  00 00 00 00 80 52
  can0  216   [2]  42 64
  can0  290   [8]  40 05 E9 06 E9 06 A2 57
  can0  285   [8]  00 00 00 00 00 00 5F E6
  can0  0C1   [8]  B0 FD 00 00 08 00 01 77
  can0  284   [8]  00 00 00 00 00 00 5F E5
  can0  160   [7]  33 C3 1E 00 08 FF E0
  can0  180   [8]  14 82 31 E3 3C 00 2E 10
  can0  182   [8]  00 00 00 00 00 0E 00 CF
  can0  1F9   [8]  20 00 14 82 00 00 00 80
  can0  2DE   [8]  00 00 81 00 00 00 0A 1B
  can0  280   [8]  03 00 80 00 00 00 3B 40
  can0  355   [7]  00 00 00 00 00 00 60
  can0  1B4   [7]  00 00 E9 06 40 03 E7
  can0  002   [8]  EF FD 00 07 62 A6 9F 0A
  can0  2B0   [8]  00 0F FF 81 00 8C 30 FD
  can0  358   [8]  00 00 00 00 80 00 00 00
  can0  215   [6]  FF F0 FF 00 FF FF
  can0  354   [8]  00 00 00 00 00 10 04 00
  can0  2A0   [6]  FF 7F FD 7F FE FE
  can0  245   [8]  FF E0 00 18 00 00 FF E1
  can0  0C1   [8]  B0 FD 00 00 08 00 02 78
  can0  160   [7]  33 C3 1A 00 08 FF E0
  can0  180   [8]  14 9B 31 A3 3C 00 2F 10
  can0  182   [8]  00 00 00 00 00 0F 00 CF
  can0  1F9   [8]  20 00 14 9B 00 00 00 80
  can0  239   [5]  00 FF B1 80 57
  can0  2DE   [8]  00 00 82 00 00 00 0A 1B
  can0  54A   [8]  DA 20 70 0A 55 55 00 78
  can0  1B4   [7]  00 00 E9 06 40 04 E8
  can0  54B   [8]  02 48 90 02 14 00 00 00
  can0  002   [8]  EF FD 00 07 73 A6 9F 0A
  can0  2B0   [8]  00 0F FF 81 00 8C 40 0D
  can0  216   [2]  42 64
  can0  2B3   [6]  00 00 00 00 80 52
  can0  54C   [8]  F9 63 40 00 00 80 04 08
  can0  290   [8]  40 05 E9 06 E9 06 B2 67
  can0  285   [8]  00 00 00 00 00 00 60 E7
  can0  0C1   [8]  B0 FD 00 00 08 00 03 79
  can0  284   [8]  00 00 00 00 00 00 60 E6
  can0  160   [7]  33 C3 20 00 08 FF E0
  can0  180   [8]  14 9B 32 03 3C 00 20 10
  can0  182   [8]  00 00 00 00 00 00 00 CF
  can0  1F9   [8]  20 00 14 9B 00 00 00 80
  can0  551   [8]  83 80 00 80 00 02 80 FF
  can0  580   [3]  00 82 40
  can0  6E2   [3]  64 15 7B
  can0  2DE   [8]  00 00 83 00 00 00 0A 1B
  can0  280   [8]  03 00 80 00 00 00 3B 40
  can0  1B4   [7]  00 00 E9 06 40 05 E9
  can0  002   [8]  EF FD 00 07 04 A6 9F 0A
  can0  2B0   [8]  00 0F FF 81 00 8C 50 1D
  can0  351   [8]  00 00 00 00 00 08 00 22
  can0  215   [6]  FF F0 FF 00 FF FF
  can0  2A0   [6]  FF 7F FE 7F FE FE
  can0  245   [8]  FF E0 00 18 00 00 FF E2
  can0  0C1   [8]  B0 FD 00 00 08 00 00 76
  can0  160   [7]  33 C3 1D 00 08 FF E0
  can0  180   [8]  14 9B 31 D3 3C 00 21 10
  can0  182   [8]  00 00 00 00 00 01 00 CF
  can0  1F9   [8]  20 00 14 9B 00 00 00 80
  can0  239   [5]  00 FF B1 80 54
  can0  2DE   [8]  00 00 80 00 00 00 0A 1B
  can0  1B4   [7]  00 00 E9 06 40 06 EA
  can0  002   [8]  EF FD 00 07 15 A6 9F 0A
  can0  2B0   [8]  00 0F FF 81 00 8C 60 2D
  can0  2B3   [6]  00 00 00 00 80 52
  can0  216   [2]  42 64
  can0  290   [8]  40 05 E9 06 E9 06 C2 77
  can0  285   [8]  00 00 00 00 00 00 61 E8
  can0  284   [8]  00 00 00 00 00 00 61 E7
  can0  0C1   [8]  B0 FD 00 00 08 00 01 77
  can0  160   [7]  33 C3 1D 00 08 FF E0
  can0  180   [8]  14 9B 31 D3 3C 00 22 10
  can0  182   [8]  00 00 00 00 00 02 00 CF
  can0  1F9   [8]  20 00 14 9B 00 00 00 80
  can0  2DE   [8]  00 00 81 00 00 00 0A 1B
  can0  280   [8]  03 02 80 00 00 00 38 40
  can0  1B4   [7]  00 00 E9 06 40 07 EB
  can0  002   [8]  EF FD 00 07 26 A6 9F 0A
  can0  2B0   [8]  00 0F FF 81 00 8C 70 3D
  can0  355   [7]  00 00 00 00 00 00 60
  can0  385   [7]  04 00 00 00 00 00 00
  can0  215   [6]  FF F0 FF 00 FF FF
  can0  354   [8]  00 00 00 00 00 18 04 00
  can0  2A0   [6]  FF 7F FD 7F FE FE
  can0  245   [8]  FF E0 00 18 00 00 FF E3
  can0  0C1   [8]  B0 FD 00 00 08 00 02 78
  can0  160   [7]  33 C3 1C 00 08 FF E0
  can0  180   [8]  14 9B 31 C3 3C 00 23 10
  can0  182   [8]  00 00 00 00 00 03 00 CF
  can0  1F9   [8]  20 00 14 9B 00 00 00 80
  can0  239   [5]  00 FF B1 80 55
  can0  2DE   [8]  00 00 82 00 00 00 0A 1B
  can0  1B4   [7]  00 00 E9 06 40 08 EC
