  can0  33D   [8]  00 42 00 00 64 00 00 00
  can0  073   [8]  05 20 93 63 00 40 C0 DE
  can0  375   [8]  13 10 34 3F 3F 07 00 00
  can0  75E   [8]  00 81 00 2D 18 18 18 18
  can0  204   [8]  02 33 33 35 FF FF FF FF
  can0  003   [8]  0F FB 10 00 04 FF 30 B9
  can0  328   [2]  07 60
  can0  105   [8]  02 62 7F 00 00 99 13 09
  can0  201   [8]  EE AB 83 62 FF FF E0 CA
  can0  37D   [8]  02 00 04 D1 10 00 FF FF
  can0  203   [8]  00 00 00 00 C0 00 C0 00
  can0  245   [8]  80 03 7F 7E 7F 82 E0 85
  can0  34F   [8]  10 94 00 94 03 E7 07 FF
  can0  766   [8]  00 00 00 00 00 00 0E 08
  can0  073   [8]  05 20 93 63 00 40 D0 13
  can0  75E   [8]  00 81 00 2D 18 18 18 18
  can0  76E   [8]  00 00 00 00 00 00 00 00
  can0  003   [8]  0F FB 10 00 04 FF 40 E0
  can0  10E   [4]  00 C0 00 02
  can0  005   [8]  11 00 01 5A 0D 00 F8 9C
  can0  3D3   [4]  C0 00 00 00
  can0  249   [8]  17 E8 00 1B E8 00 FF FF
  can0  388   [8]  35 FF 1F CF FF 0F 07 FF
  can0  073   [8]  05 20 93 63 00 40 E0 59
  can0  10D   [4]  00 A0 3E 00
  can0  04B   [6]  01 00 0C 06 FF 04
  can0  30E   [8]  0C 00 00 00 00 05 FF 03
  can0  413   [8]  FD 00 04 0F 10 00 00 05
  can0  75E   [8]  00 81 00 2D 18 18 18 18
  can0  003   [8]  0F FB 10 00 04 FF 50 2D
  can0  105   [8]  02 61 7F 00 00 99 23 89
  can0  201   [8]  EE AB 83 62 FF FF F0 07
  can0  247   [8]  00 00 00 06 00 18 00 00
  can0  203   [8]  00 00 00 00 C0 00 C0 00
  can0  245   [8]  80 02 7F 7E 7F 82 F0 85
  can0  317   [2]  0A 00
  can0  073   [8]  05 20 93 63 00 40 F0 94
  can0  283   [8]  F5 0D 08 03 C0 6E 3F FF
  can0  766   [8]  00 00 00 00 00 00 0E 08
  can0  068   [1]  01
  can0  003   [8]  0F FB 10 00 04 FF 60 67
  can0  75E   [8]  00 81 00 2D 18 18 18 18
  can0  005   [8]  11 00 01 5A 0D 00 08 E3
  can0  007   [8]  F0 05 3A 00 3F FC AF 79
  can0  073   [8]  05 20 93 63 00 40 00 EB
  can0  10C   [8]  3B 7F FF 07 03 FF C3 67
  can0  003   [8]  0F FB 10 00 04 FF 70 AA
  can0  105   [8]  02 61 7F 00 00 98 33 08
  can0  20E   [8]  3F 00 01 F0 FF FF 3F 68
  can0  75E   [8]  00 81 00 2D 18 18 18 18
  can0  201   [8]  EE AB 83 62 FF FF 00 78
  can0  205   [8]  06 93 0C 00 01 00 00 00
  can0  203   [8]  00 00 00 00 C0 00 C0 00
  can0  245   [8]  80 02 7F 7E 80 82 00 85
  can0  073   [8]  05 20 93 63 00 40 10 26
  can0  351   [8]  00 00 00 00 00 00 00 00
  can0  766   [8]  00 00 00 00 00 00 0E 08
  can0  003   [8]  0F FB 10 00 04 FF 80 D5
  can0  005   [8]  11 00 01 5B 0D 00 18 B3
  can0  75E   [8]  00 81 00 2D 18 18 18 18
  can0  776   [8]  00 00 00 00 00 00 00 00
  can0  073   [8]  05 20 93 63 00 40 20 6C
  can0  39D   [8]  1E 02 00 FB FF 0E 00 1F
  can0  003   [8]  0F FB 10 00 04 FF 90 18
  can0  105   [8]  02 62 7F 00 00 98 43 9B
  can0  201   [8]  EE AB 83 62 FF FF 10 B5
  can0  203   [8]  00 00 00 00 C0 00 C0 00
  can0  245   [8]  80 02 7F 7E 7F 82 10 85
  can0  75E   [8]  00 81 00 2D 18 18 18 18
  can0  34E   [8]  00 00 AD 00 00 AD 11 31
  can0  073   [8]  05 20 93 63 00 40 30 A1
  can0  766   [8]  00 00 00 00 00 00 0E 08
  can0  003   [8]  0F FB 10 00 04 FF A0 52
  can0  005   [8]  11 00 01 5B 0D 00 28 F9
  can0  30D   [8]  7F 4F 79 FF FF 02 75 81
  can0  75E   [8]  00 81 00 2D 18 18 18 18
  can0  073   [8]  05 20 93 63 00 40 40 F8
  can0  001   [8]  CC 83 1F 9E 55 03 D1 13
  can0  003   [8]  0F FB 10 00 04 FF B0 9F
  can0  105   [8]  02 62 7F 00 00 98 53 56
  can0  045   [8]  00 FF 00 00 00 00 E0 B1
  can0  201   [8]  EE AB 83 62 FF FF 20 FF
  can0  203   [8]  00 00 00 00 C0 00 C0 00
  can0  245   [8]  80 02 7F 7E 7F 82 20 85
  can0  75E   [8]  00 81 00 2D 18 18 18 18
  can0  2FF   [8]  02 28 00 53 FF 53 62 FE
  can0  12D   [8]  01 0F 00 00 50 53 56 79
  can0  073   [8]  05 20 93 63 00 40 50 35
  can0  766   [8]  00 00 00 00 00 00 0E 08
  can0  003   [8]  0F FB 10 00 04 FF C0 C6
  can0  005   [8]  11 00 01 5C 0D 00 38 C0
  can0  33D   [8]  00 42 00 00 64 00 00 00
  can0  75E   [8]  00 81 00 2D 18 18 18 18
  can0  073   [8]  05 20 93 63 00 40 60 7F
  can0  375   [8]  13 10 34 3F 3F 07 00 00
  can0  003   [8]  0F FB 10 00 04 FF D0 0B
  can0  105   [8]  02 62 7F 00 00 98 63 1C
  can0  34F   [8]  10 94 00 94 03 E7 07 FF
  can0  201   [8]  EE AB 83 62 FF FF 30 32
  can0  203   [8]  00 00 00 00 C0 00 C0 00
  can0  75E   [8]  00 81 00 2D 18 18 18 18
  can0  245   [8]  80 02 7F 7E 80 82 30 85
  can0  073   [8]  05 20 93 63 00 40 70 B2
  can0  766   [8]  00 00 00 00 00 00 0E 08
  can0  400   [8]  FD 13 04 0F E0 81 00 05
  can0  003   [8]  0F FB 10 00 04 FF E0 41
  can0  005   [8]  11 00 01 5A 0D 00 48 F0
  can0  75E   [8]  00 81 00 2D 18 18 18 18
  can0  76E   [8]  00 00 00 00 00 00 00 00
  can0  249   [8]  1F E8 00 23 E8 00 FF FF
  can0  073   [8]  05 20 93 63 00 40 80 CD
  can0  388   [8]  35 FF 1F CF FF 0F 07 FF
  can0  003   [8]  0F FB 10 00 04 FF F0 8C
  can0  105   [8]  02 63 7F 00 00 98 73 97
  can0  201   [8]  EE AB 83 62 FF FF 40 6B
  can0  203   [8]  00 00 00 00 C0 00 C0 00
  can0  245   [8]  80 01 7F 7E 7F 82 40 85
  can0  247   [8]  00 00 00 06 00 18 00 00
  can0  04B   [6]  01 00 0C 06 FF 04
  can0  75E   [8]  00 81 00 2D 18 18 18 18
  can0  073   [8]  05 20 93 63 00 40 90 00
  can0  283   [8]  F5 0D 08 03 C0 6E 3F FF
  can0  766   [8]  00 00 00 00 00 00 0E 08
  can0  003   [8]  0F FB 10 00 04 FF 00 F3
  can0  005   [8]  11 00 01 59 0D 00 58 87
  can0  007   [8]  F0 05 3A 00 3F FC AF 79
  can0  75E   [8]  00 81 00 2D 18 18 18 18
  can0  073   [8]  05 20 93 63 00 40 A0 4A
  can0  26F   [2]  6F C0
  can0  003   [8]  0F FB 10 00 04 FF 10 3E
  can0  105   [8]  02 63 7F 00 00 98 83 E8
  can0  205   [8]  06 93 0C 00 01 00 00 00
  can0  201   [8]  EE AB 83 62 FF FF 50 A6
  can0  203   [8]  00 00 00 00 C0 00 C0 00
  can0  245   [8]  80 00 7F 7E 7F 82 50 85
  can0  3D1   [4]  C6 0B 00 00
  can0  073   [8]  05 20 93 63 00 40 B0 87
  can0  75E   [8]  00 81 00 2D 18 18 18 18
  can0  766   [8]  00 00 00 00 00 00 0E 08
  can0  003   [8]  0F FB 10 00 04 FF 20 74
  can0  005   [8]  11 00 01 57 0D 00 68 38
  can0  073   [8]  05 20 93 63 00 40 C0 DE
  can0  75E   [8]  00 81 00 2D 18 18 18 18
  can0  39D   [8]  1E 02 00 FB FF 0E 00 27
  can0  3F6   [5]  02 00 00 00 00
  can0  003   [8]  0F FB 10 00 04 FF 30 B9
  can0  105   [8]  02 63 7F 00 00 98 93 25
  can0  201   [8]  EE AB 83 62 FF FF 60 EC
  can0  203   [8]  00 00 00 00 C0 00 C0 00
  can0  245   [8]  80 06 7F 7E 7F 82 60 85
  can0  34E   [8]  00 00 AD 00 00 AD 11 31
  can0  073   [8]  05 20 93 63 00 40 D0 13
  can0  75E   [8]  00 81 00 2D 18 18 18 18
  can0  766   [8]  00 00 00 00 00 00 0E 08
  can0  003   [8]  0F FB 10 00 04 FF 40 E0
  can0  005   [8]  11 00 01 4F 0D 00 78 4C
  can0  35C   [8]  02 10 E0 00 00 FF FF 01
  can0  30D   [8]  7F 4F 79 FF FF 02 75 81
  can0  2EF   [8]  F7 00 FF 0F FF FF FF 00
  can0  073   [8]  05 20 93 63 00 40 E0 59
  can0  75E   [8]  00 81 00 2D 18 18 18 18
  can0  336   [8]  6E 42 00 00 00 00 00 00
  can0  001   [8]  CC 83 1F 9E 55 03 E1 59
  can0  003   [8]  0F FB 10 00 04 FF 50 2D
  can0  105   [8]  02 63 7F 00 00 98 A3 6F
  can0  045   [8]  00 FF 00 00 00 00 F0 7C
  can0  201   [8]  EE AB 83 62 FF FF 70 21
  can0  203   [8]  00 00 00 00 C0 00 C0 00
  can0  245   [8]  80 06 7F 7E 7F 82 70 85
  can0  3E3   [8]  5A FD 18 74 29 CF 94 EF
  can0  073   [8]  05 20 93 63 00 40 F0 94
  can0  12D   [8]  01 0F 00 00 50 53 56 79
  can0  75E   [8]  00 81 00 2D 18 18 18 18
  can0  003   [8]  0F FB 10 00 04 FF 60 67
  can0  766   [8]  00 00 00 00 00 00 0E 08
  can0  005   [8]  11 00 01 30 0D 00 88 A0
  can0  33D   [8]  00 42 00 00 64 00 00 00
  can0  3F2   [8]  00 23 00 0A 00 00 3F FD
  can0  1C1   [4]  00 00 00 00
  can0  073   [8]  05 20 93 63 00 40 00 EB
  can0  75E   [8]  00 81 00 2D 18 18 18 18
  can0  375   [8]  13 10 34 3F 3F 07 00 00
  can0  3E5   [8]  0E 0A 0A 14 04 FF FF 00
  can0  3E7   [8]  5A FD 19 0C 29 CF 94 8C
  can0  003   [8]  0F FB 10 00 04 FF 70 AA
  can0  105   [8]  02 63 7F 00 00 98 B3 A2
  can0  328   [2]  07 60
  can0  201   [8]  EE AB 83 62 FF FF 80 5E
  can0  203   [8]  00 00 00 00 C0 00 C0 00
  can0  37D   [8]  02 00 04 D1 10 00 FF FF
  can0  245   [8]  80 03 7F 7E 80 82 80 85
  can0  34F   [8]  10 94 00 94 03 E7 07 FF
  can0  3E9   [8]  07 E9 0B 03 02 01 12 5C
  can0  073   [8]  05 20 93 63 00 40 10 26
  can0  3B8   [8]  00 00 00 60 41 05 00 00
  can0  75E   [8]  00 81 00 2D 18 18 18 18
  can0  3EB   [8]  00 02 06 4B 0D 29 0D 86
  can0  39F   [8]  12 01 30 02 0B 19 0A FF
  can0  413   [8]  FD 00 04 0F 10 00 00 05
  can0  003   [8]  0F FB 10 00 04 FF 80 D5
  can0  766   [8]  00 00 00 00 00 00 0E 08
  can0  005   [8]  11 00 00 FD 0D 00 98 E9
  can0  249   [8]  27 E8 00 29 FC 00 FF FF
  can0  3D3   [4]  C0 00 00 00
  can0  19F   [8]  00 00 74 F0 49 22 61 F7
  can0  073   [8]  05 20 93 63 00 40 20 6C
  can0  75E   [8]  00 81 00 2D 18 18 18 18
  can0  76E   [8]  00 00 00 00 00 00 00 00
  can0  003   [8]  0F FB 10 00 04 FF 90 18
  can0  105   [8]  02 63 7F 00 00 98 C3 FB
  can0  388   [8]  35 FF 1F CF FF 0F 07 FF
  can0  201   [8]  EE AB 83 62 FF FF 90 93
  can0  247   [8]  00 00 00 06 00 18 00 00
  can0  203   [8]  00 00 00 00 C0 00 C0 00
  can0  245   [8]  80 03 7F 7E 80 82 90 85
  can0  2C4   [8]  00 00 FC 3F 7F FF 3F FF
  can0  073   [8]  05 20 93 63 00 80 30 82
  can0  04B   [6]  01 00 0C 06 FF 04
  can0  75E   [8]  00 81 00 2D 18 18 18 18
  can0  003   [8]  0F FB 10 00 04 FF A0 52
  can0  283   [8]  F5 0D 08 03 C0 6E 3F FF
  can0  005   [8]  11 00 00 CB 0D 00 A8 A5
  can0  766   [8]  00 00 00 00 00 00 0E 08
  can0  007   [8]  F0 05 3A 00 3F FC AF 79
  can0  073   [8]  05 20 93 63 00 80 40 DB
  can0  068   [1]  01
  can0  75E   [8]  00 81 00 2D 18 18 18 18
  can0  003   [8]  0F FB 10 00 04 FF B0 9F
  can0  105   [8]  02 63 7F 00 00 98 D3 36
  can0  201   [8]  EE AB 83 62 FF FF A0 D9
  can0  203   [8]  00 00 00 00 C0 00 C0 00
  can0  10C   [8]  3B 7F FF 07 03 FF C3 67
  can0  205   [8]  06 93 0C 00 01 00 00 00
  can0  245   [8]  80 05 7F 7E 81 82 A0 85
  can0  073   [8]  05 20 93 63 00 80 50 16
  can0  20E   [8]  3F 00 01 F0 FF FF 3F 68
  can0  75E   [8]  00 81 00 2D 18 18 18 18
  can0  003   [8]  0F FB 10 00 04 FF C0 C6
  can0  005   [8]  11 00 00 9D 0D 00 B8 B0
  can0  351   [8]  00 00 00 00 00 00 00 00
  can0  766   [8]  00 00 00 00 00 00 0E 08
  can0  073   [8]  05 20 93 63 00 80 60 5C
  can0  75E   [8]  00 81 00 2D 18 18 18 18
  can0  776   [8]  00 00 00 00 00 00 00 00
  can0  39D   [8]  1E 02 00 FB FF 0E 00 2F
  can0  003   [8]  0F FB 0F FF 04 FF D0 3F
  can0  105   [8]  02 63 7F 00 00 98 E3 7C
  can0  201   [8]  EE AB 84 62 FF FF B0 1F
  can0  203   [8]  00 00 00 00 C0 00 C0 00
  can0  245   [8]  80 05 7F 7E 83 81 B0 85
  can0  208   [8]  1F 40 11 80 00 06 40 A8
  can0  34E   [8]  00 00 AD 00 00 AD 11 31
  can0  073   [8]  05 20 93 63 00 80 70 91
  can0  207   [8]  10 09 3D 22 0F CB 4D AC
  can0  75E   [8]  00 81 00 2D 18 18 18 18
  can0  003   [8]  0F FB 0F FF 04 FF E0 75
  can0  005   [8]  11 00 00 76 0D 00 C8 24
  can0  30D   [8]  7F 4F 79 FF FF 02 75 81
  can0  206   [8]  00 00 0D 20 C1 80 D2 CC
  can0  766   [8]  00 00 00 00 00 00 0E 08
  can0  073   [8]  05 20 93 63 00 80 80 EE
  can0  20A   [8]  FA FF 00 FC FF FF FF 7F
  can0  75E   [8]  00 81 00 2D 18 18 18 18
  can0  001   [8]  CC 83 1F 9E 55 03 F1 94
  can0  003   [8]  0F FB 0F FF 04 FF F0 B8
  can0  105   [8]  02 62 7F 00 00 98 F3 F7
  can0  045   [8]  00 FF 00 00 00 00 00 03
  can0  201   [8]  EE AB 84 62 FF FF C0 46
  can0  203   [8]  00 00 00 00 C0 00 C0 00
  can0  245   [8]  80 05 7F 7E 86 82 C0 85
  can0  073   [8]  05 20 93 63 00 80 90 23
  can0  12D   [8]  01 0F 00 00 50 53 56 79
  can0  75E   [8]  00 81 00 2D 18 18 18 18
  can0  003   [8]  0F FB 0F FF 04 FF 00 C7
  can0  005   [8]  11 00 00 5A 0D 00 D8 71
  can0  33D   [8]  00 42 00 00 64 00 00 00
  can0  766   [8]  00 00 00 00 00 00 0E 08
  can0  400   [8]  FD 13 04 0F E0 81 00 05
  can0  073   [8]  05 20 93 63 00 80 A0 69
  can0  375   [8]  13 10 34 3F 3F 07 00 00
  can0  75E   [8]  00 81 00 2D 18 18 18 18
  can0  003   [8]  0F FB 0F FF 04 FF 10 0A
  can0  105   [8]  02 62 7F 00 00 98 03 88
  can0  201   [8]  EE AB 84 62 FF FF D0 8B
  can0  203   [8]  00 00 00 00 C0 00 C0 00
  can0  34F   [8]  10 94 00 94 03 E7 07 FF
  can0  245   [8]  80 03 7F 7E 88 82 D0 85
  can0  073   [8]  05 20 93 63 00 80 B0 A4
  can0  75E   [8]  00 81 00 2D 18 18 18 18
  can0  003   [8]  0F FB 0F FF 04 FF 20 40
  can0  005   [8]  00 00 00 44 0D 00 E8 0F
  can0  766   [8]  00 00 00 00 00 00 0E 08
  can0  249   [8]  2C 5E 00 30 6F 00 FF FF
  can0  001   [8]  CC 81 1F 9E 55 03 01 67
  can0  073   [8]  05 20 93 63 00 80 C0 FD
  can0  75E   [8]  00 81 00 2D 18 18 18 18
  can0  76E   [8]  00 00 00 00 00 00 00 00
  can0  003   [8]  0F FB 0F FF 04 FF 30 8D
  can0  105   [8]  02 62 7F 00 00 98 13 45
  can0  201   [8]  EE AB 84 63 FF FF E0 5C
  can0  203   [8]  00 00 00 00 C0 00 C0 00
  can0  245   [8]  80 06 7F 7E 86 82 E0 85
  can0  247   [8]  00 00 00 06 00 18 00 00
  can0  388   [8]  35 FF 1F CF FF 0F 07 FF
  can0  073   [8]  05 20 93 63 00 80 D0 30
  can0  04B   [6]  01 00 0C 06 FF 04
  can0  75E   [8]  00 81 00 2D 18 18 18 18
  can0  003   [8]  0F FB 0F FE 04 FF 40 49
  can0  005   [8]  00 00 00 34 0D 00 F8 39
  can0  007   [8]  F0 05 3A 00 3F FC AF 79
  can0  073   [8]  05 20 93 63 00 80 E0 7A
  can0  283   [8]  F5 0D 08 03 C0 6E 3F FF
  can0  766   [8]  00 00 00 00 00 00 0E 08
  can0  75E   [8]  00 81 00 2D 18 18 18 18
  can0  003   [8]  0F FB 0F FE 04 FF 50 84
  can0  105   [8]  02 62 7F 00 00 99 23 43
  can0  3D1   [4]  C6 0B 00 00
  can0  201   [8]  EE AB 84 63 FF FF F0 91
  can0  203   [8]  00 00 00 00 C0 00 C0 00
  can0  205   [8]  06 93 0C 00 01 00 00 00
  can0  245   [8]  80 01 7F 7E 86 82 F0 85
  can0  073   [8]  05 20 93 63 00 80 F0 B7
  can0  75E   [8]  00 81 00 2D 18 18 18 18
  can0  003   [8]  0F FB 0F FE 04 FF 60 CE
  can0  005   [8]  00 00 00 28 0D 00 08 B1
  can0  004   [5]  01 00 00 7D 07
  can0  073   [8]  05 20 93 63 00 80 00 C8
  can0  766   [8]  00 00 00 00 00 00 0E 08
  can0  39D   [8]  1E 02 00 FB FF 0E 00 37
  can0  3F6   [5]  02 00 00 00 00
  can0  003   [8]  0F FB 0F FF 04 FF 70 9E
  can0  75E   [8]  00 81 00 2D 18 18 18 18
  can0  105   [8]  02 62 7F 00 00 99 33 8E
  can0  201   [8]  EE AB 84 63 FF FF 00 EE
  can0  007   [8]  F0 05 38 00 3F FC AF 79
  can0  203   [8]  00 00 00 00 C0 00 C0 00
  can0  245   [8]  80 00 7F 7E 87 82 00 85
  can0  34E   [8]  00 00 AD 00 00 AD 11 31
  can0  073   [8]  05 20 93 63 00 80 10 05
  can0  003   [8]  0F FB 0F FF 04 FF 80 E1
  can0  35C   [8]  02 10 E0 00 00 FF FF 01
  can0  75E   [8]  00 81 00 2D 18 18 18 18
  can0  005   [8]  00 00 00 1F 0D 00 18 E7
  can0  30D   [8]  7F 4F 79 FF FF 02 75 81
  can0  2EF   [8]  F7 00 FF 0F FF FF FF 00
  can0  073   [8]  05 20 93 63 00 80 20 4F
  can0  766   [8]  00 00 00 00 00 00 0E 08
  can0  336   [8]  6E 42 00 00 00 00 00 00
  can0  001   [8]  CC 81 1F 9E 55 03 11 AA
  can0  003   [8]  0F FB 0F FF 04 FF 90 2C
  can0  045   [8]  00 FF 00 00 00 00 10 CE
  can0  105   [8]  02 61 7F 00 00 99 43 1D
  can0  75E   [8]  00 81 00 2D 18 18 18 18
  can0  201   [8]  EE AB 84 63 FF FF 10 23
  can0  203   [8]  00 00 00 00 C0 00 C0 00
  can0  245   [8]  80 02 7F 7E 86 82 10 85
  can0  073   [8]  05 20 93 63 00 80 30 82
  can0  12D   [8]  01 0F 00 00 50 53 56 79
  can0  413   [8]  FD 00 04 0F 10 00 00 05
  can0  003   [8]  0F FB 0F FF 04 FF A0 66
  can0  005   [8]  00 00 00 17 0D 00 28 31
  can0  75E   [8]  00 81 00 2D 18 18 18 18
  can0  33D   [8]  00 42 00 00 64 00 00 00
  can0  073   [8]  05 20 93 63 00 80 40 DB
  can0  375   [8]  13 10 34 3F 3F 07 00 00
  can0  766   [8]  00 00 00 00 00 00 0E 08
  can0  003   [8]  0F FB 0F FF 04 FF B0 AB
  can0  105   [8]  02 61 7F 00 00 99 53 D0
  can0  328   [2]  07 60
  can0  201   [8]  EE AB 84 63 FF FF 20 69
  can0  203   [8]  00 00 00 00 C0 00 C0 00
  can0  75E   [8]  00 81 00 2D 18 18 18 18
  can0  245   [8]  80 01 7F 7E 86 82 20 85
  can0  34F   [8]  10 94 00 94 03 E7 07 FF
  can0  37D   [8]  02 00 04 CF 10 00 FF FF
  can0  073   [8]  05 20 93 63 00 80 50 16
  can0  003   [8]  0F FB 0F FF 04 FF C0 F2
  can0  005   [8]  00 00 00 12 0D 00 38 2F
  can0  75E   [8]  00 81 00 2D 18 18 18 18
  can0  3D3   [4]  C0 00 00 00
  can0  249   [8]  34 7D 00 39 0F 00 FF FF
  can0  073   [8]  05 20 93 63 00 80 60 5C
  can0  766   [8]  00 00 00 00 00 00 0E 08
  can0  003   [8]  0F FB 0F FF 04 FF D0 3F
  can0  105   [8]  02 61 7F 00 00 99 63 9A
  can0  201   [8]  EE AC 84 63 FF FF 30 6B
  can0  247   [8]  00 00 00 06 00 18 00 00
  can0  203   [8]  00 00 00 00 C0 00 C0 00
  can0  245   [8]  80 03 7F 7E 87 82 30 85
  can0  75E   [8]  00 81 00 2D 18 18 18 18
  can0  76E   [8]  00 00 00 00 00 00 00 00
  can0  073   [8]  05 20 93 63 00 80 70 91
  can0  388   [8]  35 FF 1F CF FF 0F 07 FF
  can0  003   [8]  0F FB 10 00 04 FF E0 41
  can0  005   [8]  00 00 00 0D 0D 00 48 3B
  can0  007   [8]  F0 05 38 00 3F FC AF 79
  can0  04B   [6]  01 00 0C 06 FF 04
  can0  75E   [8]  00 81 00 2D 18 18 18 18
  can0  073   [8]  05 20 93 63 00 80 80 EE
  can0  283   [8]  F5 0D 08 03 C0 6E 3F FF
  can0  766   [8]  00 00 00 00 00 00 0E 08
  can0  003   [8]  0F FB 10 00 04 FF F0 8C
  can0  105   [8]  02 60 7F 00 00 99 73 11
  can0  201   [8]  EF AC 84 63 FF FF 40 6F
  can0  205   [8]  06 93 0C 00 01 00 00 00
  can0  203   [8]  00 00 00 00 C0 00 C0 00
  can0  245   [8]  80 05 7F 7E 87 82 40 85
  can0  073   [8]  05 20 93 63 00 80 90 23
  can0  068   [1]  01
  can0  75E   [8]  00 81 00 2D 18 18 18 18
  can0  003   [8]  0F FB 10 00 04 FF 00 F3
  can0  10C   [8]  3B 7F FF 07 03 FF C3 67
  can0  005   [8]  00 00 00 0B 0D 00 58 9F
  can0  073   [8]  05 20 93 63 00 80 A0 69
  can0  20E   [8]  3F 00 01 F0 FF FF 3F 68
  can0  75E   [8]  00 81 00 2D 18 18 18 18
  can0  39D   [8]  1E 02 00 FA FF 0E 00 3F
  can0  351   [8]  00 00 00 00 00 00 00 00
  can0  003   [8]  0F FB 10 00 04 FF 10 3E
  can0  766   [8]  00 00 00 00 00 00 0E 08
  can0  105   [8]  02 60 7F 00 00 99 83 6E
  can0  201   [8]  EF AC 84 63 FF FF 50 A2
  can0  203   [8]  00 00 00 00 C0 00 C0 00
  can0  245   [8]  80 07 7F 7E 87 82 50 85
  can0  34E   [8]  00 00 AD 00 00 AD 11 31
  can0  073   [8]  05 20 93 63 00 80 B0 A4
  can0  75E   [8]  00 81 00 2D 18 18 18 18
  can0  776   [8]  00 00 00 00 00 00 00 00
  can0  003   [8]  0F FB 10 00 04 FF 20 74
  can0  005   [8]  00 00 00 08 0D 00 68 6F
  can0  30D   [8]  7F 4F 79 FF FF 02 75 81
  can0  073   [8]  05 20 93 63 00 80 C0 FD
  can0  75E   [8]  00 81 00 2D 18 18 18 18
  can0  001   [8]  CC 81 1F 9E 55 03 21 E0
  can0  003   [8]  0F FB 10 00 04 FF 30 B9
  can0  045   [8]  00 FF 00 00 00 00 20 84
  can0  105   [8]  02 5F 7F 08 06 99 94 90
  can0  002   [5]  01 00 C3 8C 07
  can0  766   [8]  00 00 00 00 00 00 0E 08
  can0  201   [8]  EF AC 84 63 FF FF 60 E8
  can0  203   [8]  00 00 00 00 C0 00 C0 00
  can0  34D   [2]  10 00
  can0  245   [8]  80 03 7F 7E 88 82 60 85
  can0  400   [8]  FD 13 04 0F E0 81 00 05
  can0  073   [8]  05 20 93 63 00 80 D0 30
  can0  12D   [8]  01 0F 00 00 50 53 56 79
  can0  75E   [8]  00 81 00 2D 18 18 18 18
  can0  003   [8]  0F FB 10 00 04 FF 40 E0
  can0  005   [8]  00 00 00 06 0D 00 78 57
  can0  33D   [8]  00 42 00 00 64 00 00 00
  can0  073   [8]  05 20 93 63 00 80 E0 7A
  can0  375   [8]  13 10 34 3F 3F 07 00 00
  can0  75E   [8]  00 81 00 2D 18 18 18 18
  can0  003   [8]  0F FB 10 00 04 FF 50 2D
  can0  105   [8]  02 5F 7F 15 0E 99 A4 BC
  can0  201   [8]  EF AC 85 63 FF FF 70 4F
  can0  203   [8]  00 00 00 00 C0 00 C0 00
  can0  34F   [8]  10 94 00 94 03 E7 07 FF
  can0  245   [8]  80 02 7F 7E 87 82 70 85
  can0  766   [8]  00 00 00 00 00 00 0E 08
  can0  073   [8]  05 20 93 63 00 80 F0 B7
  can0  75E   [8]  00 81 00 2D 18 18 18 18
  can0  003   [8]  0F FB 10 00 04 FF 60 67
  can0  10E   [4]  00 C0 00 02
  can0  005   [8]  00 00 00 04 0D 00 88 0F
  can0  249   [8]  3C 39 00 FF FF 00 03 FF
  can0  073   [8]  05 20 93 63 00 80 00 C8
  can0  10D   [4]  00 A0 3E 00
  can0  75E   [8]  00 81 00 2D 18 18 18 18
  can0  003   [8]  0F FB 10 00 04 FF 70 AA
  can0  105   [8]  02 60 7F 16 0F 99 B4 BD
  can0  201   [8]  EF AC 85 64 FF FF 80 C4
  can0  203   [8]  00 00 00 00 C0 00 C0 00
  can0  245   [8]  80 03 7F 7E 86 82 80 85
  can0  247   [8]  00 00 00 06 00 18 00 00
  can0  073   [8]  05 20 93 63 00 80 10 05
  can0  766   [8]  00 00 00 00 00 00 0E 08
  can0  75E   [8]  00 81 00 2D 18 18 18 18
  can0  003   [8]  0F FB 10 00 04 FF 80 D5
  can0  76E   [8]  00 00 00 00 00 00 00 00
  can0  005   [8]  00 00 00 03 0D 00 98 36
  can0  007   [8]  F0 05 38 00 3F FC AF 79
  can0  073   [8]  05 20 93 63 00 80 20 4F
  can0  388   [8]  35 FF 1F CF FF 0F 07 FF
  can0  003   [8]  0F FB 10 00 04 FF 90 18
  can0  105   [8]  02 66 7F 17 10 99 C4 6E
  can0  3D1   [4]  C6 0B 00 00
  can0  04B   [6]  01 00 0C 06 FF 04
  can0  75E   [8]  00 81 00 2D 18 18 18 18
  can0  201   [8]  EF AC 85 64 FF FF 90 09
  can0  205   [8]  06 93 0C 00 01 00 00 00
  can0  203   [8]  00 00 00 00 C0 00 C0 00
  can0  245   [8]  80 03 7F 7E 87 82 90 85
  can0  073   [8]  05 20 93 63 00 80 30 82
  can0  283   [8]  F5 0D 08 03 C0 6E 3F FF
  can0  766   [8]  00 00 00 00 00 00 0E 08
  can0  003   [8]  0F FB 10 00 04 FF A0 52
  can0  005   [8]  00 00 00 02 0D 00 A8 E1
  can0  75E   [8]  00 81 00 2D 18 18 18 18
  can0  073   [8]  05 20 93 63 00 80 40 DB
  can0  39D   [8]  1E 02 00 FA FF 0E 00 47
  can0  3F6   [5]  02 00 00 00 00
  can0  003   [8]  0F FB 10 00 04 FF B0 9F
  can0  105   [8]  02 66 7F 18 11 99 D4 44
  can0  201   [8]  F0 AD 85 64 FF FF A0 E0
  can0  203   [8]  00 00 00 00 C0 00 C0 00
  can0  75E   [8]  00 81 00 2D 18 18 18 18
  can0  245   [8]  80 01 7F 7E 86 82 A0 85
  can0  34E   [8]  00 00 AD 00 00 AD 11 31
  can0  073   [8]  05 20 93 63 00 80 50 16
  can0  766   [8]  00 00 00 00 00 00 0E 08
  can0  003   [8]  0F FB 10 00 04 FF C0 C6
  can0  35C   [8]  02 10 E0 00 00 FF FF 01
  can0  005   [8]  00 00 00 01 0D 00 B8 96
  can0  30D   [8]  7F 4F 79 FF FF 02 75 81
  can0  75E   [8]  00 81 00 2D 18 18 18 18
  can0  2EF   [8]  F7 00 FF 0F FF FF FF 00
  can0  073   [8]  05 20 93 63 00 80 60 5C
  can0  336   [8]  6E 42 00 00 00 00 00 00
  can0  413   [8]  FD 00 04 0F 10 00 00 05
  can0  001   [8]  CC 81 1F 9E 55 03 31 2D
  can0  003   [8]  0F FB 0F FF 04 FF D0 3F
  can0  105   [8]  02 6B 7F 1A 12 99 E4 EC
  can0  045   [8]  00 FF 00 00 00 00 30 49
  can0  201   [8]  F0 AD 85 64 FF FF B0 2D
  can0  203   [8]  00 00 00 00 C0 00 C0 00
  can0  245   [8]  7F FD 7F 7E 86 81 B0 85
  can0  75E   [8]  00 81 00 2D 18 18 18 18
  can0  12D   [8]  01 0F 00 00 50 53 56 79
  can0  073   [8]  05 20 93 63 00 80 70 91
  can0  766   [8]  00 00 00 00 00 00 0E 08
  can0  003   [8]  0F FB 0F FF 04 FF E0 75
  can0  005   [8]  00 00 00 01 0D 00 C8 CF
  can0  33D   [8]  00 42 00 00 64 00 00 00
  can0  75E   [8]  00 81 00 2D 18 18 18 18
  can0  073   [8]  05 20 93 63 00 80 80 EE
  can0  375   [8]  13 10 34 3F 3F 07 00 00
  can0  003   [8]  0F FB 0F FF 04 FF F0 B8
  can0  105   [8]  02 6F 7F 1C 13 99 F4 C2
  can0  328   [2]  07 60
  can0  201   [8]  F0 AD 86 64 FF FF C0 CA
  can0  37D   [8]  02 00 04 CF 10 00 FF FF
  can0  203   [8]  00 00 00 00 C0 00 C0 00
  can0  245   [8]  80 00 7F 7E 86 81 C0 85
  can0  34F   [8]  10 94 00 94 03 E7 07 FF
  can0  073   [8]  05 20 93 63 00 80 90 23
  can0  75E   [8]  00 81 00 2D 18 18 18 18
  can0  003   [8]  0F FB 0F FF 04 FF 00 C7
  can0  766   [8]  00 00 00 00 00 00 0E 08
  can0  005   [8]  00 00 00 01 0D 00 D8 02
  can0  3D3   [4]  C0 00 00 00
  can0  249   [8]  04 70 00 0A B4 00 FF FF
  can0  073   [8]  05 20 93 63 00 80 A0 69
  can0  75E   [8]  00 81 00 2D 18 18 18 18
  can0  003   [8]  0F FB 0F FF 04 FF 10 0A
  can0  105   [8]  02 6F 7F 2D 21 99 04 64
  can0  201   [8]  F0 AD 86 65 FF FF D0 9A
  can0  247   [8]  00 00 00 06 00 18 00 00
  can0  203   [8]  00 00 00 00 C0 00 C0 00
  can0  245   [8]  80 03 7F 7E 87 82 D0 85
  can0  073   [8]  05 20 93 63 00 80 B0 A4
  can0  75E   [8]  00 81 00 2D 18 18 18 18
  can0  003   [8]  0F FB 0F FF 04 FF 20 40
  can0  766   [8]  00 00 00 00 00 00 0E 08
  can0  005   [8]  00 00 00 00 0D 00 E8 D5
  can0  007   [8]  F0 05 38 00 3F FC AF 79
  can0  073   [8]  05 20 93 63 00 80 C0 FD
  can0  75E   [8]  00 81 00 2D 18 18 18 18
  can0  76E   [8]  00 00 00 00 00 00 00 00
  can0  003   [8]  0F FB 0F FF 04 FF 30 8D
  can0  105   [8]  02 76 7F 2F 22 99 14 5A
  can0  388   [8]  35 FF 1F CF FF 0F 07 FF
  can0  201   [8]  F0 AE 86 65 FF FF E0 1A
  can0  205   [8]  06 93 0C 00 01 00 00 00
  can0  203   [8]  00 00 00 00 C0 00 C0 00
  can0  245   [8]  80 01 7F 7E 87 82 E0 85
  can0  073   [8]  05 20 93 63 00 80 D0 30
  can0  04B   [6]  01 00 0C 06 FF 04
  can0  75E   [8]  00 81 00 2D 18 18 18 18
  can0  003   [8]  0F FB 0F FF 04 FF 40 D4
  can0  283   [8]  F5 0D 08 03 C0 6E 3F FF
  can0  005   [8]  00 00 00 00 0D 00 F8 18
  can0  766   [8]  00 00 00 00 00 00 0E 08
  can0  073   [8]  05 20 93 63 00 80 E0 7A
  can0  068   [1]  01
  can0  75E   [8]  00 81 00 2D 18 18 18 18
  can0  39D   [8]  1E 02 00 FA FF 0E 00 4F
  can0  003   [8]  0F FB 0F FF 04 FF 50 19
  can0  105   [8]  02 76 7F 31 24 99 24 C5
  can0  10C   [8]  3B 7F FF 07 03 FF C3 67
  can0  201   [8]  F1 AE 86 65 FF FF F0 8A
  can0  203   [8]  40 09 40 0B C0 00 C0 00
  can0  245   [8]  80 00 7F 7E 87 82 F0 85
  can0  34E   [8]  00 00 AD 00 00 AD 11 31
  can0  073   [8]  05 20 93 63 00 80 F0 B7
  can0  20E   [8]  3F 00 01 F0 FF FF 3F 68
  can0  75E   [8]  00 81 00 2D 18 18 18 18
  can0  003   [8]  0F FB 0F FF 04 FF 60 53
  can0  351   [8]  00 00 00 00 00 00 00 00
  can0  005   [8]  00 00 00 00 0D 00 08 67
  can0  766   [8]  00 00 00 00 00 00 0E 08
  can0  400   [8]  FD 13 04 0F E0 81 00 05
  can0  30D   [8]  7F 4F 79 FF FF 02 75 81
  can0  073   [8]  05 20 93 63 00 80 00 C8
  can0  75E   [8]  00 81 00 2D 18 18 18 18
  can0  776   [8]  00 00 00 00 00 00 00 00
  can0  19F   [8]  00 06 74 F0 49 22 61 F7
  can0  003   [8]  0F FB 10 00 04 FF 70 AA
  can0  001   [8]  CC 81 1F 9E 55 03 41 74
  can0  105   [8]  02 7E 7F 32 25 99 34 37
  can0  045   [8]  00 FF 00 00 00 00 40 10
  can0  201   [8]  F1 AE 87 65 FF FF 00 9F
  can0  203   [8]  40 0B 40 0B C0 00 C0 00
  can0  245   [8]  80 06 7F 7E 88 82 00 85
  can0  12D   [8]  01 0F 00 00 50 53 56 79
  can0  073   [8]  05 20 93 63 00 80 10 05
  can0  75E   [8]  00 81 00 2D 18 18 18 18
  can0  003   [8]  0F FB 10 00 04 FF 80 D5
  can0  005   [8]  00 00 00 00 0D 00 18 AA
  can0  766   [8]  00 00 00 00 00 00 0E 08
  can0  33D   [8]  00 42 00 00 64 00 00 00
  can0  1C1   [4]  00 00 00 00
  can0  073   [8]  05 20 93 63 00 80 20 4F
  can0  75E   [8]  00 81 00 2D 18 18 18 18
  can0  375   [8]  13 10 34 3F 3F 07 00 00
  can0  003   [8]  0F FB 10 00 04 FF 90 18
  can0  105   [8]  02 8B 7F 33 26 99 44 F0
  can0  201   [8]  F1 AE 87 66 FF FF 10 E8
  can0  203   [8]  40 0B 40 0B C0 0D C0 0B
  can0  34F   [8]  10 94 00 94 03 E7 07 FF
  can0  245   [8]  80 05 7F 7E 88 82 10 85
  can0  073   [8]  05 20 93 63 00 80 30 82
  can0  75E   [8]  00 81 00 2D 18 18 18 18
  can0  003   [8]  0F FB 10 00 04 FF A0 52
  can0  766   [8]  00 00 00 00 00 00 0E 08
  can0  005   [8]  00 00 00 00 0D 00 28 E0
  can0  249   [8]  0C B6 00 13 E8 00 FF FF
  can0  073   [8]  05 20 93 63 00 80 40 DB
  can0  75E   [8]  00 81 00 2D 18 18 18 18
  can0  003   [8]  0F FB 10 00 04 FF B0 9F
  can0  105   [8]  02 8B 7F 34 27 99 54 46
  can0  201   [8]  F2 AF 87 66 FF FF 20 03
  can0  203   [8]  40 0B 40 0C C0 0D C0 0E
  can0  245   [8]  80 03 7F 7E 88 82 20 85
  can0  247   [8]  00 00 00 06 00 18 00 00
  can0  073   [8]  05 20 93 63 00 80 50 16
  can0  75E   [8]  00 81 00 2D 18 18 18 18
  can0  003   [8]  0F FB 10 00 04 FF C0 C6
  can0  005   [8]  00 00 00 00 0D 00 38 2D
  can0  766   [8]  00 00 00 00 00 00 0E 08
  can0  007   [8]  F0 05 38 00 3F FC AF 79
  can0  073   [8]  05 20 93 63 00 80 60 5C
  can0  75E   [8]  00 81 00 2D 18 18 18 18
  can0  76E   [8]  00 00 00 00 00 00 00 00
  can0  003   [8]  0F FB 10 00 04 FF D0 0B
  can0  105   [8]  02 9C 7F 35 28 96 64 6F
  can0  201   [8]  F2 AF 87 66 FF FF 30 CE
  can0  388   [8]  35 FF 1F CF FF 0F 07 FF
  can0  203   [8]  40 0F 40 0F C0 0D C0 0E
  can0  205   [8]  06 93 0C 00 01 00 00 00
  can0  245   [8]  80 01 7F 7E 88 82 30 85
  can0  3D1   [4]  C6 0B 00 00
  can0  073   [8]  05 20 93 63 00 80 70 91
  can0  04B   [6]  01 00 0C 06 FF 04
  can0  75E   [8]  00 81 00 2D 18 18 18 18
  can0  003   [8]  0F FB 10 00 04 FF E0 41
  can0  005   [8]  00 00 00 00 0D 00 48 74
  can0  283   [8]  F5 0D 08 03 C0 6E 3F FF
  can0  766   [8]  00 00 00 00 00 00 0E 08
  can0  073   [8]  05 20 93 63 00 80 80 EE
  can0  39D   [8]  1E 02 00 FA FF 0E 00 57
  can0  3F6   [5]  02 00 00 00 00
  can0  75E   [8]  00 81 00 2D 18 18 18 18
  can0  003   [8]  0F FB 10 00 04 FF F0 8C
  can0  105   [8]  02 B3 7F 36 29 96 74 7A
  can0  201   [8]  F2 AF 88 66 FF FF 40 EB
  can0  203   [8]  40 0F 40 0F C0 0E C0 0E
  can0  245   [8]  7F FD 7F 7E 88 81 40 85
  can0  34E   [8]  00 00 AD 00 00 AD 11 31
  can0  073   [8]  05 20 93 63 00 80 90 23
  can0  413   [8]  FD 00 04 0F 10 00 00 05
  can0  003   [8]  0F FB 10 00 04 FF 00 F3
  can0  75E   [8]  00 81 00 2D 18 18 18 18
  can0  35C   [8]  02 10 E0 00 00 FF FF 01
  can0  005   [8]  00 00 00 00 0D 00 58 B9
  can0  30D   [8]  7F 4F 79 FF FF 02 75 81
  can0  2EF   [8]  F7 00 FF 0F FF FF FF 00
  can0  766   [8]  00 00 00 00 00 00 0E 08
  can0  073   [8]  05 20 93 63 00 80 A0 69
  can0  19F   [8]  00 08 74 F0 49 22 61 F7
  can0  001   [8]  CC 81 1F 9E 55 03 51 B9
  can0  75E   [8]  00 81 00 2D 18 18 18 18
  can0  003   [8]  0F FB 10 00 04 FF 10 3E
  can0  105   [8]  02 D4 7F 37 2A 96 84 A3
  can0  045   [8]  00 FF 00 00 00 00 50 DD
  can0  201   [8]  F2 B0 88 67 FF FF 50 6A
  can0  203   [8]  40 0F 40 0F C0 0F C0 10
  can0  245   [8]  7F F8 7F 7E 88 82 50 85
  can0  12D   [8]  01 0F 00 00 50 53 56 79
  can0  073   [8]  05 20 93 63 00 80 B0 A4
  can0  75E   [8]  00 81 00 2D 18 18 18 18
  can0  003   [8]  0F FB 10 00 04 FF 20 74
  can0  005   [8]  00 00 00 00 0D 00 68 F3
  can0  33D   [8]  00 42 00 00 64 00 00 00
  can0  336   [8]  6E 42 00 00 00 00 00 00
  can0  073   [8]  05 20 93 63 00 80 C0 FD
  can0  766   [8]  00 00 00 00 00 00 0E 08
  can0  375   [8]  13 10 34 3F 3F 07 00 00
  can0  003   [8]  0F FB 10 00 04 FF 30 B9
  can0  105   [8]  02 D4 7F 39 2C 96 94 9E
  can0  328   [2]  07 60
  can0  75E   [8]  00 81 00 2D 18 18 18 18
  can0  201   [8]  F3 B0 88 67 FF FF 60 7D
  can0  37D   [8]  02 00 04 D3 10 00 FF FF
  can0  203   [8]  40 11 40 11 C0 0F C0 10
  can0  245   [8]  7F FD 7F 7E 89 82 60 85
  can0  34F   [8]  10 94 00 94 03 E7 07 FF
  can0  073   [8]  05 20 93 63 00 80 D0 30
  can0  003   [8]  0F FB 10 00 04 FF 40 E0
  can0  005   [8]  00 00 00 00 0D 00 78 3E
  can0  3D3   [4]  C0 00 00 00
  can0  75E   [8]  00 81 00 2D 18 18 18 18
  can0  249   [8]  17 E8 00 1B E8 00 FF FF
  can0  073   [8]  05 20 93 63 00 80 E0 7A
  can0  766   [8]  00 00 00 00 00 00 0E 08
  can0  003   [8]  0F FB 10 00 04 FF 50 2D
  can0  105   [8]  02 FC 7F 3B 2D 96 A4 5E
  can0  201   [8]  F3 B0 89 68 FF FF 70 B2
  can0  247   [8]  00 00 00 06 00 18 00 00
  can0  203   [8]  40 12 40 11 C0 12 C0 10
  can0  245   [8]  80 02 7F 7E 8A 82 70 85
  can0  75E   [8]  00 81 00 2D 18 18 18 18
  can0  073   [8]  05 20 93 63 00 80 F0 B7
  can0  003   [8]  0F FB 10 00 04 FF 60 67
  can0  005   [8]  00 00 00 00 0D 00 88 41
  can0  007   [8]  F0 05 38 00 3F FC AF 79
  can0  75E   [8]  00 81 00 2D 18 18 18 18
  can0  073   [8]  05 20 93 63 00 80 00 C8
  can0  766   [8]  00 00 00 00 00 00 0E 08
  can0  003   [8]  0F FB 10 00 04 FF 70 AA
  can0  105   [8]  03 22 7F 3D 2F 92 B4 EE
  can0  201   [8]  F4 B1 89 68 FF FF 80 05
  can0  205   [8]  06 93 0C 00 01 00 00 00
  can0  203   [8]  40 12 40 12 C0 12 C0 13
  can0  245   [8]  80 07 7F 7E 8B 82 80 85
  can0  073   [8]  05 20 93 63 00 80 10 05
  can0  75E   [8]  00 81 00 2D 18 18 18 18
  can0  76E   [8]  00 00 00 00 00 00 00 00
  can0  003   [8]  0F FB 10 00 04 FF 80 D5
  can0  388   [8]  35 FF 1F CF FF 0F 07 FF
  can0  005   [8]  00 00 00 00 0D 00 98 8C
  can0  004   [5]  01 00 00 7D 07
  can0  04B   [6]  01 00 0C 06 FF 04
  can0  073   [8]  05 20 93 63 00 80 20 4F
  can0  75E   [8]  00 81 00 2D 18 18 18 18
  can0  39D   [8]  1E 02 00 FA FF 0E 00 5F
  can0  283   [8]  F5 0D 08 03 C0 6E 3F FF
  can0  003   [8]  0F FB 10 00 04 FF 90 18
  can0  766   [8]  00 00 00 00 00 00 0E 08
  can0  105   [8]  03 47 7F 40 32 92 C4 A5
  can0  400   [8]  FD 13 04 0F E0 81 00 05
  can0  201   [8]  F4 B1 8A 68 FF FF 90 76
  can0  203   [8]  40 15 40 14 C0 13 C0 13
  can0  245   [8]  80 09 7F 7E 8D 81 90 85
  can0  34E   [8]  00 00 AD 00 00 AD 11 31
  can0  073   [8]  05 20 93 63 00 80 30 82
  can0  068   [1]  01
  can0  75E   [8]  00 81 00 2D 18 18 18 18
  can0  10C   [8]  3B 7F FF 07 03 FF C3 67
  can0  003   [8]  0F FB 10 00 04 FF A0 52
  can0  005   [8]  00 00 00 00 0D 00 A8 C6
  can0  30D   [8]  7F 4F 79 FF FF 02 BE 81
  can0  073   [8]  05 20 93 63 00 80 40 DB
  can0  20E   [8]  3F 00 01 F0 FF FF 3F 68
  can0  75E   [8]  00 81 00 2D 18 18 18 18
  can0  19F   [8]  00 0C 74 F0 49 22 61 F7
  can0  003   [8]  0F FB 10 00 04 FF B0 9F
  can0  001   [8]  CC 81 1F 9E 55 03 61 F3
  can0  045   [8]  00 FF 00 00 00 00 60 97
  can0  351   [8]  00 00 00 00 00 00 00 00
  can0  105   [8]  03 6A 7F 43 34 92 D4 B6
  can0  766   [8]  00 00 00 00 00 00 0E 08
  can0  201   [8]  F4 B2 8A 69 FF FF A0 6B
  can0  203   [8]  40 15 40 14 C0 17 C0 17
  can0  245   [8]  80 09 7F 7E 8E 82 A0 85
  can0  12D   [8]  01 0F 00 00 50 53 56 79
  can0  073   [8]  05 20 93 63 00 80 50 16
  can0  75E   [8]  00 81 00 2D 18 18 18 18
  can0  776   [8]  00 00 00 00 00 00 00 00
  can0  003   [8]  0F FB 10 00 04 FF C0 C6
  can0  005   [8]  00 00 00 00 0D 00 B8 0B
  can0  33D   [8]  00 42 00 00 64 00 00 00
  can0  073   [8]  05 20 93 63 00 80 60 5C
  can0  75E   [8]  00 81 00 2D 18 18 18 18
  can0  375   [8]  13 10 34 3F 3F 07 00 00
  can0  003   [8]  0F FB 10 00 04 FF D0 0B
  can0  105   [8]  03 88 7F 46 37 92 E4 F7
  can0  766   [8]  00 00 00 00 00 00 0E 08
  can0  201   [8]  F5 B2 8B 69 FF FF B0 91
  can0  203   [8]  40 17 40 17 C0 18 C0 18
  can0  34F   [8]  10 94 00 94 03 E7 07 FF
  can0  245   [8]  80 05 7F 7E 90 83 B0 85
  can0  073   [8]  05 20 93 63 00 80 70 91
  can0  75E   [8]  00 81 00 2D 18 18 18 18
  can0  003   [8]  0F FB 10 00 04 FF E0 41
  can0  005   [8]  00 00 00 00 0D 00 C8 52
  can0  249   [8]  1F E8 00 23 E8 00 FF FF
  can0  073   [8]  05 20 93 63 00 80 80 EE
  can0  75E   [8]  00 81 00 2D 18 18 18 18
  can0  003   [8]  0F FB 10 00 04 FF F0 8C
  can0  105   [8]  03 88 7F 49 3A 92 F4 D7
  can0  766   [8]  00 00 00 00 00 00 0E 08
  can0  201   [8]  F5 B2 8B 6A FF FF C0 72
  can0  203   [8]  40 18 40 17 C0 1B C0 1A
  can0  245   [8]  7F FF 7F 7E 92 82 C0 85
  can0  247   [8]  00 00 00 06 00 18 00 00
  can0  073   [8]  05 20 93 63 00 80 90 23
  can0  75E   [8]  00 81 00 2D 18 18 18 18
  can0  003   [8]  0F FB 10 00 04 FF 00 F3
  can0  005   [8]  00 00 00 00 0D 00 D8 9F
  can0  007   [8]  F0 05 38 00 3F FC AF 79
  can0  073   [8]  05 20 93 63 00 80 A0 69
  can0  75E   [8]  00 81 00 2D 18 18 18 18
  can0  003   [8]  0F FB 10 00 04 FF 10 3E
  can0  105   [8]  03 A2 7F 5C 4C 8B 04 1F
  can0  201   [8]  F6 B3 8C 6A FF FF D0 15
  can0  203   [8]  40 1B 40 1B C0 1C C0 1C
  can0  205   [8]  06 93 0C 00 01 00 00 00
  can0  245   [8]  80 00 7F 7E 94 82 D0 85
  can0  3D1   [4]  C6 0B 00 00
  can0  766   [8]  00 00 00 00 00 00 0E 08
  can0  073   [8]  05 20 93 63 00 80 B0 A4
  can0  75E   [8]  00 81 00 2D 18 18 18 18
  can0  76E   [8]  00 00 00 00 00 00 00 00
  can0  003   [8]  0F FB 10 00 04 FF 20 74
  can0  005   [8]  00 00 00 00 0D 00 E8 D5
  can0  388   [8]  35 FF 1F CF FF 0F 07 FF
  can0  073   [8]  05 20 93 63 00 80 C0 FD
  can0  204   [8]  00 57 44 44 4B 4A 36 46
  can0  39D   [8]  1E 02 00 FA FF 0E 00 67
  can0  04B   [6]  01 00 0C 06 FF 04
  can0  413   [8]  FD 00 04 0F 10 00 00 05
  can0  3F6   [5]  02 00 00 00 00
  can0  75E   [8]  00 81 00 2D 18 18 18 18
  can0  003   [8]  0F FB 10 00 04 FF 30 B9
  can0  105   [8]  03 B8 7F 62 52 8B 14 CB
  can0  201   [8]  F6 B4 8C 6B FF FF E0 0D
  can0  203   [8]  40 1B 40 1C C0 1F C0 1F
  can0  245   [8]  7F FF 7F 7E 95 82 E0 85
  can0  34E   [8]  00 00 AD 00 00 AD 11 31
  can0  073   [8]  05 20 93 63 00 80 D0 30
  can0  283   [8]  F5 0D 08 03 C0 6E 3F FF
  can0  766   [8]  00 00 00 00 00 00 0E 08
  can0  003   [8]  0F FB 10 00 04 FF 40 E0
  can0  75E   [8]  00 81 00 2D 18 18 18 18
  can0  35C   [8]  02 10 E0 00 00 FF FF 01
  can0  005   [8]  00 00 00 00 0D 00 F8 18
  can0  30D   [8]  7F 4F 79 FF FF 03 B9 81
  can0  2EF   [8]  F7 00 FF 0F FF FF FF 00
  can0  073   [8]  05 20 93 63 00 80 E0 7A
  can0  204   [8]  01 42 31 47 46 33 31 34
  can0  19F   [8]  00 0F 74 F0 49 22 61 F7
  can0  001   [8]  CC 81 1F 9E 55 03 71 3E
  can0  003   [8]  0F FB 10 00 04 FF 50 2D
  can0  105   [8]  03 D0 7F 63 53 8B 24 E1
  can0  045   [8]  00 FF 00 00 00 00 70 5A
  can0  75E   [8]  00 81 00 2D 18 18 18 18
  can0  002   [5]  01 00 C3 8C 07
  can0  201   [8]  F7 B4 8D 6C FF FF F0 03
  can0  203   [8]  40 1F 40 1F C0 21 C0 20
  can0  245   [8]  7F FE 7F 7E 96 82 F0 85
  can0  1C0   [2]  00 00
  can0  12D   [8]  01 0F 00 00 50 53 56 79
  can0  073   [8]  05 20 93 63 00 80 F0 B7
  can0  34D   [2]  10 00
  can0  766   [8]  00 00 00 00 00 00 0E 08
  can0  003   [8]  0F FB 10 00 04 FF 60 67
  can0  005   [8]  00 00 00 00 0D 00 08 67
  can0  75E   [8]  00 81 00 2D 18 18 18 18
  can0  205   [8]  06 93 0C 00 00 00 00 00
  can0  33D   [8]  00 42 00 00 64 00 00 00
  can0  336   [8]  6E 42 00 00 00 00 00 00
  can0  073   [8]  05 20 93 63 00 80 00 C8
  can0  375   [8]  13 10 34 3F 3F 07 00 00
  can0  204   [8]  02 33 33 35 FF FF FF FF
  can0  003   [8]  0F FB 10 00 04 FF 70 AA
  can0  105   [8]  03 E6 7F 64 55 8B 34 68
  can0  328   [2]  07 60
  can0  201   [8]  F8 B5 8E 6C FF FF 00 D8
  can0  37D   [8]  02 00 04 D7 10 00 FF FF
  can0  203   [8]  40 20 40 20 C0 22 C0 24
  can0  245   [8]  7F FD 7F 7E 96 82 00 85
  can0  34F   [8]  10 94 00 94 03 E7 07 FF
  can0  75E   [8]  00 81 00 2D 18 18 18 18
  can0  073   [8]  05 20 93 63 00 80 10 05
  can0  766   [8]  00 00 00 00 00 00 0E 08
  can0  003   [8]  0F FB 10 00 04 FF 80 D5
  can0  10E   [4]  00 C0 00 02
  can0  005   [8]  00 00 00 00 0D 00 18 AA
  can0  3D3   [4]  C0 00 00 00
  can0  249   [8]  27 E8 00 29 FC 00 FF FF
  can0  073   [8]  05 20 93 63 00 80 20 4F
  can0  75E   [8]  00 81 00 2D 18 18 18 18
  can0  10D   [4]  00 A0 3E 00
  can0  30E   [8]  0C 00 00 00 00 05 FF 03
  can0  003   [8]  0F FB 10 00 04 FF 90 18
  can0  105   [8]  03 FF 7F 72 62 8B 44 87
  can0  201   [8]  F8 B5 8E 6D FF FF 10 88
  can0  247   [8]  00 00 00 06 00 18 00 00
  can0  203   [8]  40 24 40 23 C0 26 C0 26
  can0  245   [8]  7F F9 81 7E 97 82 10 85
  can0  317   [2]  0A 00
  can0  073   [8]  05 20 93 63 00 80 30 82
  can0  75E   [8]  00 81 00 2D 18 18 18 18
  can0  003   [8]  0F FB 10 00 04 FF A0 52
  can0  766   [8]  00 00 00 00 00 00 0E 08
  can0  005   [8]  00 00 00 00 0D 00 28 E0
  can0  007   [8]  F0 05 38 00 3F FC AF 79
  can0  073   [8]  05 20 93 63 00 80 40 DB
  can0  75E   [8]  00 81 00 2D 18 18 18 18
  can0  003   [8]  0F FB 10 00 04 FF B0 9F
  can0  105   [8]  04 3D 7F 7E 6D 8B 54 EC
  can0  201   [8]  F9 B6 8F 6E FF FF 20 85
  can0  203   [8]  40 27 40 26 C0 29 C0 28
  can0  205   [8]  06 93 0C 00 00 00 00 00
  can0  245   [8]  7F FB 81 7E 97 81 20 85
  can0  073   [8]  05 20 93 63 00 80 50 16
  can0  75E   [8]  00 81 00 2D 18 18 18 18
  can0  003   [8]  0F FB 10 00 04 FF C0 C6
  can0  005   [8]  00 00 00 00 0D 00 38 2D
  can0  766   [8]  00 00 00 00 00 00 0E 08
  can0  400   [8]  FD 13 04 0F E0 81 00 05
  can0  073   [8]  05 20 93 63 00 80 60 5C
  can0  75E   [8]  00 81 00 2D 18 18 18 18
  can0  76E   [8]  00 00 00 00 00 00 00 00
  can0  39D   [8]  1E 02 00 FA FF 0E 00 6F
  can0  003   [8]  0F FB 10 00 04 FF D0 0B
  can0  105   [8]  04 66 7F 8C 7A 8B 64 59
  can0  388   [8]  35 FF 1F CF FF 0F 07 FF
  can0  201   [8]  FA B7 90 6F FF FF 30 E6
  can0  203   [8]  40 28 40 28 C0 2B C0 2A
  can0  245   [8]  80 03 81 7E 97 82 30 85
  can0  34E   [8]  00 00 AD 00 00 AD 11 31
  can0  073   [8]  05 20 93 63 00 80 70 91
  can0  04B   [6]  01 00 0C 06 FF 04
  can0  75E   [8]  00 81 00 2D 18 18 18 18
  can0  003   [8]  0F FB 10 00 04 FF E0 41
  can0  283   [8]  F5 0D 08 03 C0 6E 3F FF
  can0  005   [8]  00 00 00 00 0D 00 48 74
  can0  766   [8]  00 00 00 00 00 00 0E 08
  can0  30D   [8]  7F 4F 79 FF FF 04 9F 81
  can0  073   [8]  05 20 93 63 00 80 80 EE
  can0  068   [1]  01
  can0  75E   [8]  00 81 00 2D 18 18 18 18
  can0  19F   [8]  00 17 74 F0 49 22 61 F7
  can0  001   [8]  CC 81 1F 9E 55 03 81 41
  can0  003   [8]  0F FB 10 00 04 FF F0 8C
  can0  105   [8]  04 90 7F 9A 88 8B 74 16
  can0  045   [8]  00 FF 00 00 00 00 80 25
  can0  10C   [8]  3B 7F FF 07 03 FF C3 67
  can0  201   [8]  FB B8 91 6F FF FF 40 4D
  can0  203   [8]  40 2B 40 2B C0 2E C0 2E
  can0  245   [8]  80 06 81 7E 99 82 40 85
  can0  2FF   [8]  02 28 00 53 FF 53 62 FE
  can0  073   [8]  05 20 93 63 00 80 90 23
  can0  12D   [8]  01 0F 00 00 50 53 56 79
  can0  20E   [8]  3F 00 01 F0 FF FF 3F 68
  can0  75E   [8]  00 81 00 2D 18 18 18 18
  can0  003   [8]  0F FB 10 00 04 FF 00 F3
  can0  351   [8]  00 00 00 00 00 00 00 00
  can0  005   [8]  00 00 00 00 0D 00 58 B9
  can0  766   [8]  00 00 00 00 00 00 0E 08
  can0  33D   [8]  00 42 00 00 64 00 00 00
  can0  073   [8]  05 20 93 63 00 80 A0 69
  can0  75E   [8]  00 81 00 2D 18 18 18 18
  can0  776   [8]  00 00 00 00 00 00 00 00
  can0  375   [8]  13 10 34 3F 3F 07 00 00
  can0  003   [8]  0F FB 10 00 04 FF 10 3E
  can0  105   [8]  04 BA 7F AA 96 8B 84 B9
  can0  34F   [8]  10 94 00 94 03 E7 07 FF
  can0  201   [8]  FB B9 92 70 FF FF 50 35
  can0  203   [8]  40 2E 40 2E C0 31 C0 32
  can0  245   [8]  80 0A 81 7E 9B 82 50 85
  can0  073   [8]  05 20 93 63 00 80 B0 A4
  can0  75E   [8]  00 81 00 2D 18 18 18 18
  can0  003   [8]  0F FB 10 00 04 FF 20 74
  can0  005   [8]  00 00 00 00 0D 00 68 F3
  can0  766   [8]  00 00 00 00 00 00 0E 08
  can0  249   [8]  2C 5E 00 30 6F 00 FF FF
  can0  073   [8]  05 20 93 63 00 80 C0 FD
  can0  75E   [8]  00 81 00 2D 18 18 18 18
  can0  003   [8]  0F FB 10 00 04 FF 30 B9
  can0  105   [8]  04 E4 7F B4 A0 8B 94 4E
  can0  201   [8]  FC B9 93 71 FF FF 60 06
  can0  203   [8]  40 31 40 31 C0 35 C0 35
  can0  245   [8]  80 0E 81 7E 9E 81 60 85
  can0  247   [8]  00 00 00 06 00 18 00 00
  can0  073   [8]  05 20 93 63 00 80 D0 30
  can0  75E   [8]  00 81 00 2D 18 18 18 18
  can0  003   [8]  0F FB 10 00 04 FF 40 E0
  can0  005   [8]  00 00 00 00 0D 00 78 3E
  can0  766   [8]  00 00 00 00 00 00 0E 08
  can0  007   [8]  F0 05 38 00 3F FC AF 79
  can0  073   [8]  05 20 93 63 00 80 E0 7A
  can0  75E   [8]  00 81 00 2D 18 18 18 18
  can0  26F   [2]  6F C0
  can0  003   [8]  0F FB 10 00 04 FF 50 2D
  can0  105   [8]  05 2F 7F B8 A4 8A A4 F1
  can0  205   [8]  06 93 0C 00 00 00 00 00
  can0  201   [8]  FD BA 94 72 FF FF 70 ED
  can0  203   [8]  40 35 40 35 C0 39 C0 3A
  can0  245   [8]  80 0D 81 7E A2 82 70 85
  can0  3D1   [4]  C6 0B 00 00
  can0  073   [8]  05 20 93 63 00 80 F0 B7
  can0  75E   [8]  00 81 00 2D 18 18 18 18
  can0  413   [8]  FD 00 04 0F 10 00 00 05
  can0  003   [8]  0F FB 10 00 04 FF 60 67
  can0  005   [8]  00 00 00 00 0D 00 88 41
  can0  766   [8]  00 00 00 00 00 00 0E 08
  can0  073   [8]  05 20 93 63 00 80 00 C8
  can0  39D   [8]  1E 02 00 FA FF 0E 00 77
  can0  3F6   [5]  02 00 00 00 00
  can0  75E   [8]  00 81 00 2D 18 18 18 18
  can0  76E   [8]  00 00 00 00 00 00 00 00
  can0  003   [8]  0F FB 10 00 04 FF 70 AA
  can0  105   [8]  05 4F 7F BA A6 8A B4 60
  can0  201   [8]  FE BB 95 73 FF FF 80 C4
  can0  203   [8]  40 38 40 39 C0 3D C0 3E
  can0  245   [8]  80 0A 81 7E A6 82 80 85
  can0  34E   [8]  00 00 AD 00 00 AD 11 31
  can0  073   [8]  05 20 93 63 00 80 10 05
  can0  388   [8]  35 FF 1F CF FF 0F 07 FF
  can0  003   [8]  0F FB 10 00 04 FF 80 D5
  can0  04B   [6]  01 00 0C 06 FF 04
  can0  35C   [8]  02 10 E0 00 00 FF FF 01
  can0  75E   [8]  00 81 00 2D 18 18 18 18
  can0  005   [8]  00 00 00 00 0D 00 98 8C
  can0  30D   [8]  7F 4F 79 FF FF 05 9F 81
  can0  2EF   [8]  F7 00 FF 0F FF FF FF 00
  can0  073   [8]  05 20 93 63 00 80 20 4F
  can0  283   [8]  F5 0D 08 03 C0 6E 3F FF
  can0  766   [8]  00 00 00 00 00 00 0E 08
  can0  19F   [8]  00 20 74 F0 49 22 61 F7
  can0  001   [8]  CC 81 1F 9E 55 03 91 8C
  can0  003   [8]  0F FB 10 00 04 FF 90 18
  can0  105   [8]  05 6D 7F BB A7 8A C4 8F
  can0  045   [8]  00 FF 00 00 00 00 90 E8
  can0  75E   [8]  00 81 00 2D 18 18 18 18
  can0  3E3   [8]  5A FD 18 70 29 CF 94 F3
  can0  201   [8]  00 BD 96 75 FF FF 90 FF
  can0  203   [8]  40 3C 40 3C C0 43 C0 42
  can0  245   [8]  80 06 81 7E AA 82 90 85
  can0  12D   [8]  01 0F 00 00 50 53 56 79
  can0  073   [8]  05 20 93 63 00 80 30 82
  can0  003   [8]  0F FB 10 00 04 FF A0 52
  can0  3E5   [8]  0E 0A 0A 14 04 FF FF 00
  can0  005   [8]  00 00 00 00 0D 00 A8 C6
  can0  33D   [8]  00 42 00 00 64 00 00 00
  can0  3F2   [8]  00 23 00 0A 00 00 3F FD
  can0  1C1   [4]  00 00 00 00
  can0  3E7   [8]  5A FD 19 02 29 CF 94 8F
  can0  75E   [8]  00 81 00 2D 18 18 18 18
  can0  073   [8]  05 20 93 63 00 80 40 DB
  can0  375   [8]  13 10 34 3F 3F 07 00 00
  can0  766   [8]  00 00 00 00 00 00 0E 08
  can0  336   [8]  6E 42 00 00 00 00 00 00
  can0  003   [8]  0F FB 10 00 04 FF B0 9F
  can0  3E9   [8]  07 E9 0B 03 02 01 12 C0
  can0  105   [8]  05 A6 7F BB A7 8A D4 72
  can0  328   [2]  07 60
  can0  201   [8]  02 BE 97 76 FF FF A0 15
  can0  37D   [8]  02 00 04 D9 10 00 FF FF
  can0  203   [8]  40 41 40 42 C0 48 C0 47
  can0  245   [8]  80 05 81 7E AF 82 A0 85
  can0  34F   [8]  10 94 00 94 03 E7 07 FF
  can0  3EB   [8]  00 01 06 4B 0D 29 0D 86
  can0  073   [8]  05 20 93 63 00 80 50 16
  can0  75E   [8]  00 81 00 2D 18 18 18 18
  can0  39F   [8]  12 01 31 02 0B 19 0A FF
  can0  003   [8]  0F FB 10 00 04 FF C0 C6
  can0  005   [8]  00 00 00 00 0D 00 B8 0B
  can0  3D3   [4]  C0 00 00 00
  can0  249   [8]  34 7D 00 39 0F 00 FF FF
  can0  073   [8]  05 20 93 63 00 80 60 5C
  can0  75E   [8]  00 81 00 2D 18 18 18 18
  can0  766   [8]  00 00 00 00 00 00 0E 08
  can0  003   [8]  0F FB 10 00 04 FF D0 0B
  can0  105   [8]  05 C2 7F BB A7 8A E4 45
  can0  201   [8]  03 BF 99 77 FF FF B0 48
  can0  247   [8]  00 00 00 06 00 18 00 00
  can0  203   [8]  40 46 40 47 C0 4D C0 4B
  can0  245   [8]  7F FB 81 7E B3 81 B0 85
  can0  2C4   [8]  00 00 FC 3F 7F FF 3F FF
  can0  073   [8]  05 20 93 63 00 80 70 91
  can0  75E   [8]  00 81 00 2D 18 18 18 18
  can0  003   [8]  0F FB 10 00 04 FF E0 41
  can0  005   [8]  00 00 00 00 0D 00 C8 52
  can0  007   [8]  F0 05 38 00 3F FC AF 79
  can0  073   [8]  05 20 93 63 00 80 80 EE
  can0  75E   [8]  00 81 00 2D 18 18 18 18
  can0  003   [8]  0F FB 10 00 04 FF F0 8C
  can0  105   [8]  05 F3 7F BB A7 8A F4 F2
  can0  766   [8]  00 00 00 00 00 00 0E 08
  can0  201   [8]  04 C0 9A 79 FF FF C0 7D
  can0  205   [8]  06 94 0C 00 00 00 00 00
  can0  203   [8]  40 4B 40 4B C0 53 C0 50
  can0  245   [8]  7F F8 81 7E B5 82 C0 85
  can0  400   [8]  FD 13 04 0F E0 81 00 05
  can0  073   [8]  05 20 93 63 00 80 90 23
  can0  75E   [8]  00 81 00 2D 18 18 18 18
  can0  003   [8]  0F FB 10 00 04 FF 00 F3
  can0  005   [8]  00 00 00 00 0D 00 D8 9F
  can0  073   [8]  05 20 93 63 00 80 A0 69
  can0  75E   [8]  00 81 00 2D 18 18 18 18
  can0  39D   [8]  1E 02 00 FA FF 0E 00 7F
  can0  003   [8]  0F FB 10 00 04 FF 10 3E
  can0  105   [8]  06 08 7F BB A7 8A 04 66
  can0  201   [8]  06 C2 9B 7A FF FF D0 56
  can0  203   [8]  40 51 40 52 C0 57 C0 57
  can0  245   [8]  7F F6 81 7E B6 82 D0 85
  can0  34E   [8]  00 00 AD 00 00 AD 11 31
  can0  766   [8]  00 00 00 00 00 00 0E 08
  can0  073   [8]  05 20 93 63 00 80 B0 A4
  can0  75E   [8]  00 81 00 2D 18 18 18 18
  can0  76E   [8]  00 00 00 00 00 00 00 00
  can0  003   [8]  0F FB 10 00 04 FF 20 74
  can0  005   [8]  00 00 00 00 0D 00 E8 D5
  can0  30D   [8]  7F 4F 79 FF FF 08 2D 81
  can0  388   [8]  35 FF 1F CF FF 0F 07 FF
  can0  073   [8]  05 20 93 63 00 80 C0 FD
  can0  19F   [8]  00 2E 74 F0 49 22 61 F7
  can0  04B   [6]  01 00 0C 06 FF 04
  can0  75E   [8]  00 81 00 2D 18 18 18 18
  can0  001   [8]  CC 81 1F 9E 55 03 A1 C6
  can0  003   [8]  0F FB 10 00 04 FF 30 B9
  can0  105   [8]  06 30 7F BC A7 8A 14 69
  can0  045   [8]  00 FF 00 00 00 00 A0 A2
  can0  201   [8]  07 C3 9D 7C FF FF E0 0F
  can0  203   [8]  40 58 40 57 C0 5D C0 5B
  can0  245   [8]  7F F4 81 7E B7 82 E0 85
  can0  283   [8]  F5 0D 08 03 C0 6E 3F FF
  can0  073   [8]  05 20 93 63 00 80 D0 30
  can0  12D   [8]  01 0F 00 00 50 53 56 79
  can0  766   [8]  00 00 00 00 00 00 0E 08
  can0  003   [8]  0F FB 10 00 04 FF 40 E0
  can0  068   [1]  01
  can0  75E   [8]  00 81 00 2D 18 18 18 18
  can0  005   [8]  00 00 00 00 0D 00 F8 18
  can0  33D   [8]  00 42 00 00 64 00 00 00
  can0  073   [8]  05 20 93 63 00 80 E0 7A
  can0  10C   [8]  3B 7F FF 07 03 FF C3 67
  can0  375   [8]  13 10 34 3F 3F 07 00 00
  can0  20E   [8]  3F 00 01 F0 FF FF 3F 68
  can0  003   [8]  0F FB 10 00 04 FF 50 2D
  can0  75E   [8]  00 81 00 2D 18 18 18 18
  can0  105   [8]  06 50 7F C3 AE 8A 24 4B
  can0  201   [8]  09 C5 9F 7D FF FF F0 03
  can0  203   [8]  40 5C 40 5C C0 62 C0 62
  can0  34F   [8]  10 94 00 94 03 E7 07 FF
  can0  245   [8]  7F F7 81 7E B9 82 F0 85
  can0  073   [8]  05 20 93 63 00 80 F0 B7
  can0  351   [8]  00 00 00 00 00 00 00 00
  can0  766   [8]  00 00 00 00 00 00 0E 08
  can0  75E   [8]  00 81 00 2D 18 18 18 18
  can0  003   [8]  0F FB 10 00 04 FF 60 67
  can0  776   [8]  00 00 00 00 00 00 00 00
  can0  005   [8]  00 00 00 00 0D 00 08 67
  can0  249   [8]  3C 39 00 FF FF 00 03 FF
  can0  073   [8]  05 20 93 63 00 80 00 C8
  can0  208   [8]  1F 40 11 80 00 06 40 A8
  can0  003   [8]  0F FB 10 00 04 FF 70 AA
  can0  105   [8]  06 60 7F C9 B9 8A 34 93
  can0  207   [8]  10 09 3D 22 0F CB 4D AC
  can0  75E   [8]  00 81 00 2D 18 18 18 18
  can0  201   [8]  0A C6 A0 7F FF FF 00 25
  can0  247   [8]  00 00 00 06 00 18 00 00
  can0  203   [8]  40 62 40 64 C0 69 C0 68
  can0  245   [8]  7F FB 81 7E BA 82 00 85
  can0  073   [8]  05 20 93 63 00 80 10 05
  can0  206   [8]  00 00 0D 20 C1 80 D2 CC
  can0  766   [8]  00 00 00 00 00 00 0E 08
  can0  003   [8]  0F FB 10 00 04 FF 80 D5
  can0  005   [8]  00 00 00 00 0D 00 18 AA
  can0  20A   [8]  FA FF 00 FC FF FF FF 7F
  can0  75E   [8]  00 81 00 2D 18 18 18 18
  can0  007   [8]  F0 05 38 00 3F FC AF 79
  can0  073   [8]  05 20 93 63 00 80 20 4F
  can0  413   [8]  FD 00 04 0F 10 00 00 05
  can0  003   [8]  0F FB 10 00 04 FF 90 18
  can0  105   [8]  06 77 7F D1 C3 8A 44 EF
  can0  3D1   [4]  C6 0B 00 00
  can0  205   [8]  06 94 0C 00 00 00 00 00
  can0  201   [8]  0C C8 A2 81 FF FF 10 57
  can0  203   [8]  40 69 40 69 C0 6E C0 6D
  can0  245   [8]  7F FF 81 7E BB 82 10 85
  can0  75E   [8]  00 81 00 2D 18 18 18 18
  can0  073   [8]  05 20 93 63 00 80 30 82
  can0  766   [8]  00 00 00 00 00 00 0E 08
  can0  003   [8]  0F FB 10 00 04 FF A0 52
  can0  005   [8]  00 00 00 00 0D 00 28 E0
  can0  004   [5]  01 00 00 7D 07
  can0  75E   [8]  00 81 00 2D 18 18 18 18
  can0  073   [8]  05 20 93 63 00 80 40 DB
  can0  39D   [8]  1E 02 00 FA FF 0E 00 07
  can0  3F6   [5]  02 00 00 00 00
  can0  003   [8]  0F FB 10 00 04 FF B0 9F
  can0  105   [8]  06 8F 7F D6 CA 8A 54 93
  can0  201   [8]  0E CA A4 83 FF FF 20 6D
  can0  203   [8]  40 6F 40 6F C0 75 C0 73
  can0  245   [8]  80 06 81 7E BD 83 20 85
  can0  75E   [8]  00 81 00 2D 18 18 18 18
  can0  34E   [8]  00 00 AD 00 00 AD 11 31
  can0  073   [8]  05 20 93 63 00 80 50 16
  can0  766   [8]  00 00 00 00 00 00 0E 08
  can0  003   [8]  0F FB 10 00 04 FF C0 C6
  can0  35C   [8]  02 10 E0 00 00 FF FF 01
  can0  005   [8]  00 00 00 00 0D 00 38 2D
  can0  30D   [8]  7F 4F 79 FF FF 0C 03 81
  can0  2EF   [8]  F7 00 FF 0F FF FF FF 00
  can0  75E   [8]  00 81 00 2D 18 18 18 18
  can0  76E   [8]  00 00 00 00 00 00 00 00
  can0  073   [8]  05 20 93 63 00 80 60 5C
  can0  19F   [8]  00 3F 74 F0 49 22 61 F7
  can0  388   [8]  35 FF 1F CF FF 0F 07 FF
  can0  001   [8]  CC 81 1F 9E 55 03 B1 0B
  can0  003   [8]  0F FB 10 00 04 FF D0 0B
  can0  105   [8]  06 95 7F D8 CC 8A 64 BB
  can0  045   [8]  00 FF 00 00 00 00 B0 6F
  can0  201   [8]  10 CC A6 85 FF FF 30 2C
  can0  203   [8]  40 74 40 76 C0 7B C0 7B
  can0  245   [8]  80 0F 81 7E BE 82 30 85
  can0  12D   [8]  01 0F 00 00 50 53 56 79
  can0  073   [8]  05 20 93 63 00 80 70 91
  can0  04B   [6]  01 00 0C 06 FF 04
  can0  75E   [8]  00 81 00 2D 18 18 18 18
  can0  003   [8]  0F FB 10 00 04 FF E0 41
  can0  283   [8]  F5 0D 08 03 C0 6E 3F FF
  can0  766   [8]  00 00 00 00 00 00 0E 08
  can0  005   [8]  00 00 00 00 0D 00 48 74
  can0  33D   [8]  00 42 00 00 64 00 00 00
  can0  336   [8]  6E 42 00 00 00 00 00 00
  can0  073   [8]  05 20 93 63 00 80 80 EE
  can0  75E   [8]  00 81 00 2D 18 18 18 18
  can0  375   [8]  13 10 34 3F 3F 07 00 00
  can0  003   [8]  0F FB 10 00 04 FF F0 8C
  can0  105   [8]  06 A2 7F D8 CC 8A 74 85
  can0  328   [2]  07 60
  can0  201   [8]  12 CE A9 87 FF FF 40 18
  can0  37D   [8]  02 00 04 D5 10 00 FF FF
  can0  203   [8]  40 7B 40 7C C0 81 C0 81
  can0  245   [8]  80 11 81 7E BF 83 40 85
  can0  34F   [8]  10 94 00 94 03 E7 07 FF
  can0  073   [8]  05 20 93 63 00 80 90 23
  can0  75E   [8]  00 81 00 2D 18 18 18 18
  can0  003   [8]  0F FB 10 00 04 FF 00 F3
  can0  766   [8]  00 00 00 00 00 00 0E 08
  can0  005   [8]  00 00 00 00 0D 00 58 B9
  can0  3D3   [4]  C0 00 00 00
  can0  249   [8]  04 70 00 0A B4 00 FF FF
  can0  073   [8]  05 20 93 63 00 80 A0 69
  can0  75E   [8]  00 81 00 2D 18 18 18 18
  can0  003   [8]  0F FB 10 00 04 FF 10 3E
  can0  105   [8]  06 B2 7F D7 CB 8A 84 0C
  can0  201   [8]  14 D0 AB 89 FF FF 50 B0
  can0  247   [8]  00 00 00 06 00 18 00 00
  can0  203   [8]  40 82 40 82 C0 88 C0 88
  can0  245   [8]  80 11 81 7E C0 83 50 85
  can0  073   [8]  05 20 93 63 00 80 B0 A4
  can0  75E   [8]  00 81 00 2D 18 18 18 18
  can0  766   [8]  00 00 00 00 00 00 0E 08
  can0  003   [8]  0F FB 10 00 04 FF 20 74
  can0  005   [8]  00 00 00 00 0D 00 68 F3
  can0  400   [8]  FD 13 04 0F E0 81 00 05
  can0  007   [8]  F0 05 38 00 3F FC AF 79
  can0  073   [8]  05 20 93 63 00 80 C0 FD
  can0  75E   [8]  00 81 00 2D 18 18 18 18
  can0  003   [8]  0F FB 10 00 04 FF 30 B9
  can0  105   [8]  06 B9 7F D6 C9 8B 94 D3
  can0  201   [8]  16 D3 AD 8C FF FF 60 38
  can0  205   [8]  06 94 0C 00 00 00 00 00
  can0  203   [8]  40 88 40 87 C0 8E C0 8F
  can0  245   [8]  80 13 81 7E C1 83 60 85
  can0  073   [8]  05 20 93 63 00 80 D0 30
  can0  75E   [8]  00 81 00 2D 18 18 18 18
  can0  003   [8]  0F FB 10 00 04 FF 40 E0
  can0  005   [8]  00 00 00 00 0D 00 78 3E
  can0  766   [8]  00 00 00 00 00 00 0E 08
  can0  073   [8]  05 00 93 63 00 80 E0 52
  can0  75E   [8]  00 81 00 2D 18 18 18 18
  can0  39D   [8]  1E 02 00 FA FF 0E 00 0F
  can0  003   [8]  0F FB 10 00 04 FF 50 2D
  can0  105   [8]  06 C6 7F D3 C6 8B A4 65
  can0  201   [8]  19 D5 B0 8E FF FF 70 41
  can0  203   [8]  40 8E 40 8F C0 95 C0 95
  can0  245   [8]  80 0F 81 7E C0 83 70 85
  can0  34E   [8]  00 00 AD 00 00 AD 11 31
  can0  073   [8]  05 00 93 63 00 80 F0 9F
  can0  75E   [8]  00 81 00 2D 18 18 18 18
  can0  003   [8]  0F FB 10 00 04 FF 60 67
  can0  005   [8]  00 00 00 00 0D 00 88 41
  can0  766   [8]  00 00 00 00 00 00 0E 08
  can0  30D   [8]  7F 4F 79 FF FF 0F 47 81
  can0  073   [8]  05 00 93 63 00 80 00 E0
  can0  75E   [8]  00 81 00 2D 18 18 18 18
  can0  76E   [8]  00 00 00 00 00 00 00 00
  can0  19F   [8]  00 51 74 F0 49 22 61 F7
  can0  001   [8]  CC 81 1F 9E 55 03 C1 52
  can0  003   [8]  0F FB 10 00 04 FF 70 AA
  can0  105   [8]  06 D4 7F D2 C4 8B B4 AE
  can0  045   [8]  00 FF 00 00 00 00 C0 36
  can0  002   [5]  01 00 C3 8C 07
  can0  388   [8]  35 FF 1F CF FF 0F 07 FF
  can0  201   [8]  1B D7 B2 91 FF FF 80 91
  can0  203   [8]  40 94 40 96 C0 9B C0 9B
  can0  34D   [2]  10 00
  can0  245   [8]  80 0B 81 7E BF 82 80 85
  can0  073   [8]  05 00 93 63 00 80 10 2D
  can0  12D   [8]  01 0F 00 00 50 53 56 79
  can0  04B   [6]  01 00 0C 06 FF 04
  can0  75E   [8]  00 81 00 2D 18 18 18 18
  can0  003   [8]  0F FB 10 00 04 FF 80 D5
  can0  005   [8]  00 00 00 00 0D 00 98 8C
  can0  283   [8]  F5 0D 08 03 C0 6E 3F FF
  can0  766   [8]  00 00 00 00 00 00 0E 08
  can0  33D   [8]  00 42 00 00 64 00 00 00
  can0  073   [8]  05 00 93 63 00 80 20 67
  can0  375   [8]  13 10 34 3F 3F 07 00 00
  can0  068   [1]  01
  can0  75E   [8]  00 81 00 2D 18 18 18 18
  can0  003   [8]  0F FB 10 00 04 FF 90 18
  can0  105   [8]  06 E1 7F D2 C4 8B C4 88
  can0  201   [8]  1E DA B5 93 FF FF 90 0D
  can0  203   [8]  40 9B 40 9B C0 A2 C0 A2
  can0  34F   [8]  10 94 00 94 03 E7 07 FF
  can0  245   [8]  80 0A 81 7E C0 82 90 85
  can0  10C   [8]  3B 7F FF 07 03 FF C3 67
  can0  073   [8]  05 00 93 63 00 80 30 AA
  can0  20E   [8]  3F 00 01 F0 FF FF 3F 68
  can0  75E   [8]  00 81 00 2D 18 18 18 18
  can0  003   [8]  0F FB 10 00 04 FF A0 52
  can0  10E   [4]  00 C0 00 02
  can0  005   [8]  00 00 00 00 0D 00 A8 C6
  can0  249   [8]  0C B6 00 13 E8 00 FF FF
  can0  073   [8]  05 00 93 63 00 80 40 F3
  can0  351   [8]  00 00 00 00 00 00 00 00
  can0  766   [8]  00 00 00 00 00 00 0E 08
  can0  10D   [4]  00 A0 3E 00
  can0  003   [8]  0F FB 10 00 04 FF B0 9F
  can0  105   [8]  06 E7 7F D3 C7 8B D4 DD
  can0  75E   [8]  00 81 00 2D 18 18 18 18
  can0  201   [8]  20 DD B8 96 FF FF A0 24
  can0  203   [8]  40 A2 40 A1 C0 A9 C0 A8
  can0  776   [8]  00 00 00 00 00 00 00 00
  can0  245   [8]  80 05 81 7E C0 82 A0 85
  can0  247   [8]  00 00 00 06 00 18 00 00
  can0  073   [8]  05 00 93 63 00 80 50 3E
  can0  413   [8]  FD 00 04 0F 10 00 00 05
  can0  003   [8]  0F FB 10 00 04 FF C0 C6
  can0  005   [8]  00 00 00 00 0D 00 B8 0B
  can0  75E   [8]  00 81 00 2D 18 18 18 18
  can0  007   [8]  F0 05 38 00 3F FC AF 79
  can0  073   [8]  05 00 93 63 00 80 60 74
  can0  766   [8]  00 00 00 00 00 00 0E 08
  can0  003   [8]  0F FB 10 00 04 FF D0 0B
  can0  105   [8]  06 F3 7F D6 CA 8B E4 D0
  can0  201   [8]  23 DF BB 99 FF FF B0 54
  can0  203   [8]  40 A7 40 A8 C0 AF C0 AF
  can0  205   [8]  06 94 0C 00 00 00 00 00
  can0  245   [8]  80 03 81 7E C0 81 B0 85
  can0  3D1   [4]  C6 0B 00 00
  can0  75E   [8]  00 81 00 2D 18 18 18 18
  can0  073   [8]  05 00 93 63 00 80 70 B9
  can0  003   [8]  0F FB 10 00 04 FF E0 41
  can0  005   [8]  00 00 00 00 0D 00 C8 52
  can0  75E   [8]  00 81 00 2D 18 18 18 18
  can0  073   [8]  05 00 93 63 00 80 80 C6
  can0  39D   [8]  1E 02 00 FA FF 0E 00 17
  can0  766   [8]  00 00 00 00 00 00 0E 08
  can0  3F6   [5]  02 00 00 00 00
  can0  003   [8]  0F FB 10 00 04 FF F0 8C
  can0  105   [8]  06 FB 7F D8 CC 8B F4 E7
  can0  201   [8]  26 E2 BE 9C FF FF C0 40
  can0  203   [8]  40 AD 40 AE C0 B6 C0 B6
  can0  245   [8]  80 07 81 7E C0 81 C0 85
  can0  34E   [8]  00 00 AD 00 00 AD 11 31
  can0  073   [8]  05 00 93 63 00 80 90 0B
  can0  75E   [8]  00 81 00 2D 18 18 18 18
  can0  003   [8]  0F FB 10 00 04 FF 00 F3
  can0  35C   [8]  02 10 E0 00 00 FF FF 01
  can0  005   [8]  00 00 00 00 0D 00 D8 9F
  can0  30D   [8]  7F 4F 79 FF FF 11 A3 81
  can0  2EF   [8]  F7 00 FF 0F FF FF FF 00
  can0  073   [8]  05 00 93 63 00 80 A0 41
  can0  75E   [8]  00 81 00 2D 18 18 18 18
  can0  19F   [8]  00 63 74 F0 49 22 61 F7
  can0  001   [8]  CC 81 1F 9E 55 03 D1 9F
  can0  766   [8]  00 00 00 00 00 00 0E 08
  can0  003   [8]  0F FB 10 00 04 FF 10 3E
  can0  105   [8]  07 04 7F E1 D8 8B 04 BC
  can0  045   [8]  00 FF 00 00 00 00 D0 FB
  can0  201   [8]  29 E5 C1 9F FF FF D0 68
  can0  203   [8]  40 B4 40 B3 C0 BC C0 BD
  can0  245   [8]  80 0D 81 7E C0 81 D0 85
  can0  073   [8]  05 00 93 63 00 80 B0 8C
  can0  75E   [8]  00 81 00 2D 18 18 18 18
  can0  12D   [8]  01 0F 00 00 50 53 56 79
  can0  76E   [8]  00 00 00 00 00 00 00 00
  can0  388   [8]  35 FF 1F CF FF 0F 07 FF
  can0  003   [8]  0F FB 10 00 04 FF 20 74
  can0  005   [8]  00 00 00 00 0D 00 E8 D5
  can0  33D   [8]  00 42 00 00 64 00 00 00
  can0  336   [8]  6E 42 00 00 00 00 00 00
  can0  04B   [6]  01 00 0C 06 FF 04
  can0  073   [8]  05 00 93 63 00 80 C0 D5
  can0  75E   [8]  00 81 00 2D 18 18 18 18
  can0  375   [8]  13 10 34 3F 3F 07 00 00
  can0  003   [8]  0F FB 10 00 04 FF 30 B9
  can0  283   [8]  F5 0D 08 03 C0 6E 3F FF
  can0  766   [8]  00 00 00 00 00 00 0E 08
  can0  105   [8]  07 0C 7F E6 DF 8B 14 05
  can0  328   [2]  07 60
  can0  201   [8]  2C E8 C4 A2 FF FF E0 A0
  can0  37D   [8]  02 00 04 D1 10 00 FF FF
  can0  203   [8]  40 BB 40 BB C0 C3 C0 C3
  can0  245   [8]  80 11 81 7E C0 82 E0 85
  can0  34F   [8]  10 94 00 94 03 E7 07 FF
  can0  073   [8]  05 00 93 63 00 80 D0 18
  can0  75E   [8]  00 81 00 2D 18 18 18 18
  can0  003   [8]  0F FB 10 00 04 FF 40 E0
  can0  005   [8]  00 00 00 00 0D 00 F8 18
  can0  3D3   [4]  C0 00 00 00
  can0  249   [8]  17 E8 00 1B E8 00 FF FF
  can0  073   [8]  05 00 93 63 00 80 E0 52
  can0  75E   [8]  00 81 00 2D 18 18 18 18
  can0  766   [8]  00 00 00 00 00 00 0E 08
  can0  003   [8]  0F FB 10 00 04 FF 50 2D
  can0  105   [8]  07 0F 7F EB E6 8B 24 61
  can0  400   [8]  FD 13 04 0F E0 81 00 05
  can0  201   [8]  2F EB C7 A6 FF FF F0 B0
  can0  247   [8]  00 00 00 06 00 18 00 00
  can0  203   [8]  40 C1 40 C1 C0 C9 C0 C9
  can0  245   [8]  80 0E 81 7E C0 83 F0 85
  can0  073   [8]  05 00 93 63 00 80 F0 9F
  can0  75E   [8]  00 81 00 2D 18 18 18 18
  can0  003   [8]  0F FB 0F FF 04 FF 60 53
  can0  005   [8]  00 00 00 00 0D 00 08 67
  can0  007   [8]  F0 05 38 00 3F FC AF 79
  can0  073   [8]  05 00 93 63 00 80 00 E0
  can0  75E   [8]  00 81 00 2D 18 18 18 18
  can0  003   [8]  0F FB 0F FE 04 FF 70 03
  can0  105   [8]  07 1C 7F EF EC 8A 34 7F
  can0  766   [8]  00 00 00 00 00 00 0E 08
  can0  201   [8]  32 EF CA A9 FF FF 00 55
  can0  205   [8]  06 94 0C 00 00 00 00 00
  can0  203   [8]  40 C7 40 C6 C0 CF C0 CE
  can0  245   [8]  80 0D 81 7E C0 82 00 85
  can0  073   [8]  05 00 93 63 00 80 10 2D
  can0  75E   [8]  00 81 00 2D 18 18 18 18
  can0  003   [8]  0F FB 0F FE 04 FF 80 7C
  can0  005   [8]  00 00 00 00 0D 00 18 AA
  can0  073   [8]  05 00 93 63 00 80 20 67
  can0  75E   [8]  00 81 00 2D 18 18 18 18
  can0  39D   [8]  1E 02 00 FA FF 0E 00 1F
  can0  003   [8]  0F FB 0F FD 04 FF 90 0B
  can0  105   [8]  07 25 7F F2 F0 8A 44 2E
  can0  201   [8]  36 F2 CE AC FF FF 10 CA
  can0  203   [8]  40 CC 40 CD C0 D5 C0 D6
  can0  245   [8]  80 11 81 7E BF 81 10 85
  can0  34E   [8]  00 00 AD 00 00 AD 11 31
  can0  766   [8]  00 00 00 00 00 00 0E 08
  can0  073   [8]  05 00 93 63 00 80 30 AA
  can0  75E   [8]  00 81 00 2D 18 18 18 18
  can0  003   [8]  0F FB 0F FD 04 FF A0 41
  can0  005   [8]  00 00 00 00 0D 00 28 E0
  can0  30D   [8]  7F 4F 79 FF FF 13 2D 81
  can0  073   [8]  05 00 93 63 00 80 40 F3
  can0  19F   [8]  00 75 74 F0 49 22 61 F7
  can0  003   [8]  0F FB 0F FD 04 FF B0 8C
  can0  001   [8]  CC 81 1F 9E 55 03 E1 D5
  can0  105   [8]  07 36 7F F3 F0 8A 54 A0
  can0  045   [8]  00 FF 00 00 00 00 E0 B1
  can0  75E   [8]  00 81 00 2D 18 18 18 18
  can0  201   [8]  39 F5 D2 B0 FF FF 20 C8
  can0  203   [8]  40 D2 40 D3 C0 DC C0 DA
  can0  245   [8]  80 12 81 7E BF 81 20 85
  can0  12D   [8]  01 0F 00 00 50 53 56 79
  can0  073   [8]  05 00 93 63 00 80 50 3E
  can0  766   [8]  00 00 00 00 00 00 0E 08
  can0  003   [8]  0F FB 0F FD 04 FF C0 D5
  can0  005   [8]  00 00 00 00 0D 00 38 2D
  can0  75E   [8]  00 81 00 2D 18 18 18 18
  can0  76E   [8]  00 00 00 00 00 00 00 00
  can0  33D   [8]  00 42 00 00 64 00 00 00
  can0  1C1   [4]  00 00 00 00
  can0  073   [8]  05 00 93 63 00 80 60 74
  can0  388   [8]  35 FF 1F CF FF 0F 07 FF
  can0  375   [8]  13 10 34 3F 3F 07 00 00
  can0  003   [8]  0F FB 0F FD 04 FF D0 18
  can0  105   [8]  07 4B 7F F3 F0 8A 64 CF
  can0  04B   [6]  01 00 0C 06 FF 04
  can0  75E   [8]  00 81 00 2D 18 18 18 18
  can0  201   [8]  3D F9 D5 B4 FF FF 30 26
  can0  203   [8]  40 D8 40 D8 C0 E1 C0 E2
  can0  34F   [8]  10 95 00 95 03 E7 07 FF
  can0  245   [8]  80 15 81 7E BE 81 30 85
  can0  073   [8]  05 00 93 63 00 80 70 B9
  can0  283   [8]  F5 0D 08 03 C0 6E 3F FF
  can0  766   [8]  00 00 00 00 00 00 0E 08
  can0  003   [8]  0F FB 0F FD 04 FF E0 52
  can0  005   [8]  00 00 00 00 0D 00 48 74
  can0  068   [1]  01
  can0  75E   [8]  00 81 00 2D 18 18 18 18
  can0  249   [8]  1F E8 00 23 E8 00 FF FF
  can0  073   [8]  05 00 93 63 00 80 80 C6
  can0  10C   [8]  3B 7F FF 07 03 FF C3 67
  can0  413   [8]  FD 00 04 0F 10 00 00 05
  can0  003   [8]  0F FB 10 01 04 FF F0 11
  can0  105   [8]  07 5E 7F F3 F0 8A 74 55
  can0  201   [8]  40 FD D9 B7 FF FF 40 EC
  can0  203   [8]  40 DF 40 E0 C0 E8 C0 E6
  can0  20E   [8]  3F 00 01 F0 FF FF 3F 68
  can0  245   [8]  80 16 81 7E BD 81 40 85
  can0  75E   [8]  00 81 00 2D 18 18 18 18
  can0  247   [8]  00 00 00 06 00 18 00 00
  can0  073   [8]  05 00 93 63 00 80 90 0B
  can0  351   [8]  00 00 00 00 00 00 00 00
  can0  766   [8]  00 00 00 00 00 00 0E 08
  can0  003   [8]  0F FB 10 02 04 FF 00 D4
  can0  005   [8]  00 00 00 00 0D 00 58 B9
  can0  007   [8]  F0 05 38 00 3F FC AF 79
  can0  75E   [8]  00 81 00 2D 18 18 18 18
  can0  776   [8]  00 00 00 00 00 00 00 00
  can0  073   [8]  05 00 93 63 00 80 A0 41
  can0  003   [8]  0F FB 10 02 04 FF 10 19
  can0  105   [8]  07 71 7F F3 F0 8B 84 8B
  can0  3D1   [4]  C6 0B 00 00
  can0  201   [8]  44 01 DD BB FF FF 50 EC
  can0  203   [8]  40 E3 40 E3 C0 EE C0 ED
  can0  205   [8]  06 94 0C 00 00 00 00 00
  can0  245   [8]  80 17 81 7E BD 81 50 85
  can0  75E   [8]  00 81 00 2D 18 18 18 18
  can0  073   [8]  05 00 93 63 00 80 B0 8C
  can0  766   [8]  00 00 00 00 00 00 0E 08
  can0  003   [8]  0F FB 10 02 04 FF 20 53
  can0  005   [8]  00 00 00 00 0D 00 68 F3
  can0  75E   [8]  00 81 00 2D 18 18 18 18
  can0  073   [8]  05 00 93 63 00 80 C0 D5
  can0  39D   [8]  1E 02 00 FA FF 0E 00 27
  can0  3F6   [5]  02 00 00 00 00
  can0  003   [8]  0F FB 10 03 04 FF 30 03
  can0  105   [8]  07 88 7F F3 F0 8B 94 C6
  can0  201   [8]  48 05 E1 BF FF FF 60 BB
  can0  203   [8]  40 EA 40 EA C0 F4 C0 F3
  can0  245   [8]  80 12 81 7E BC 84 60 85
  can0  34E   [8]  00 00 AD 00 00 AD 11 31
  can0  073   [8]  05 00 93 63 00 80 D0 18
  can0  75E   [8]  00 81 00 2D 18 18 18 18
  can0  003   [8]  0F FB 10 03 04 FF 40 5A
  can0  766   [8]  00 00 00 00 00 00 0E 08
  can0  35C   [8]  02 10 E0 00 00 FF FF 01
  can0  005   [8]  00 00 00 00 0D 00 78 3E
  can0  30D   [8]  7F 4F 79 FF FF 14 4A 81
  can0  2EF   [8]  F7 00 FF 0F FF FF FF 00
  can0  073   [8]  05 00 93 63 00 80 E0 52
  can0  75E   [8]  00 81 00 2D 18 18 18 18
  can0  19F   [8]  00 86 74 F0 49 22 61 F7
  can0  001   [8]  CC 81 1F 9E 55 03 F1 18
  can0  003   [8]  0F FB 10 03 04 FF 50 97
  can0  105   [8]  07 92 7F F3 F0 8B A4 1E
  can0  045   [8]  00 FF 00 00 00 00 F0 7C
  can0  201   [8]  4C 09 E5 C3 FF FF 70 8C
  can0  203   [8]  40 F0 40 F1 C0 FB C0 F9
  can0  245   [8]  80 0D 81 7E BC 85 70 85
  can0  12D   [8]  01 0F 00 00 50 53 56 79
  can0  073   [8]  05 00 93 63 00 80 F0 9F
  can0  75E   [8]  00 81 00 2D 18 18 18 18
  can0  003   [8]  0F FB 10 03 04 FF 60 DD
  can0  005   [8]  00 00 00 00 0D 00 88 41
  can0  766   [8]  00 00 00 00 00 00 0E 08
  can0  33D   [8]  00 42 00 00 64 00 00 00
  can0  336   [8]  6E 42 00 00 00 00 00 00
  can0  073   [8]  05 00 93 63 00 80 00 E0
  can0  375   [8]  13 10 34 3F 3F 07 00 00
  can0  75E   [8]  00 81 00 2D 18 18 18 18
  can0  76E   [8]  00 00 00 00 00 00 00 00
  can0  003   [8]  0F FB 10 03 04 FF 70 10
  can0  328   [2]  07 60
  can0  105   [8]  07 AE 7F F3 F0 8B B4 E0
  can0  201   [8]  50 0D E9 C7 FF FF 80 78
  can0  203   [8]  40 F7 40 F6 C1 00 C1 00
  can0  388   [8]  35 FF 1F CF FF 0F 07 FF
  can0  245   [8]  80 06 81 7E BC 85 80 85
  can0  37D   [8]  02 00 04 D1 10 00 FF FF
  can0  34F   [8]  10 95 00 95 03 E7 07 FF
  can0  073   [8]  05 00 93 63 00 80 10 2D
  can0  04B   [6]  01 00 0C 06 FF 04
  can0  75E   [8]  00 81 00 2D 18 18 18 18
  can0  003   [8]  0F FB 10 03 04 FF 80 6F
  can0  005   [8]  00 00 00 00 0D 00 98 8C
  can0  3D3   [4]  C0 00 00 00
  can0  283   [8]  F5 0D 08 03 C0 6E 3F FF
  can0  766   [8]  00 00 00 00 00 00 0E 08
  can0  249   [8]  27 E8 00 29 FC 00 FF FF
  can0  400   [8]  FD 13 04 0F E0 81 00 05
  can0  073   [8]  05 00 93 63 00 80 20 67
  can0  75E   [8]  00 81 00 2D 18 18 18 18
  can0  003   [8]  0F FB 10 02 04 FF 90 3F
  can0  105   [8]  07 C8 7F F3 F0 8B C4 48
  can0  201   [8]  54 11 ED CC FF FF 90 54
  can0  247   [8]  00 00 00 06 00 18 00 00
  can0  203   [8]  40 FC 40 FC C1 07 C1 05
  can0  245   [8]  80 02 81 7E BC 85 90 85
  can0  073   [8]  05 00 93 63 00 80 30 AA
  can0  75E   [8]  00 81 00 2D 18 18 18 18
  can0  003   [8]  0F FB 10 01 04 FF A0 CF
  can0  005   [8]  00 00 00 00 0D 00 A8 C6
  can0  007   [8]  F0 05 38 00 3F FC AF 79
  can0  073   [8]  05 00 93 63 00 80 40 F3
  can0  766   [8]  00 00 00 00 00 00 0E 08
  can0  003   [8]  0F FB 10 01 04 FF B0 02
  can0  75E   [8]  00 81 00 2D 18 18 18 18
  can0  105   [8]  07 DE 7F F3 F1 8B D4 97
  can0  201   [8]  58 15 F2 D0 FF FF A0 C5
  can0  205   [8]  06 93 0C 00 00 00 00 00
  can0  203   [8]  41 00 41 01 C1 0B C1 0D
  can0  245   [8]  80 05 81 7E BC 82 A0 85
  can0  073   [8]  05 00 93 63 00 80 50 3E
  can0  003   [8]  0F FB 10 00 04 FF C0 C6
  can0  75E   [8]  00 81 00 2D 18 18 18 18
  can0  005   [8]  00 00 00 00 0D 00 B8 0B
  can0  004   [5]  01 00 00 7D 07
  can0  073   [8]  05 00 93 63 00 80 60 74
  can0  766   [8]  00 00 00 00 00 00 0E 08
  can0  39D   [8]  1E 02 00 FA FF 0E 00 2F
  can0  75E   [8]  00 81 00 2D 18 18 18 18
  can0  003   [8]  0F FB 10 00 04 FF D0 0B
  can0  105   [8]  08 05 7F F7 F6 8B E4 61
  can0  201   [8]  5C 19 F6 D4 FF FF B0 95
  can0  203   [8]  41 07 41 07 C1 13 C1 11
  can0  245   [8]  80 02 81 7E BC 80 B0 85
  can0  34E   [8]  00 00 AD 00 00 AD 11 31
  can0  073   [8]  05 00 93 63 00 80 70 B9
  can0  003   [8]  0F FB 10 00 04 FF E0 41
  can0  75E   [8]  00 81 00 2D 18 18 18 18
  can0  005   [8]  00 00 00 00 0D 00 C8 52
  can0  30D   [8]  7F 4F 79 FF FF 15 7F 81
  can0  073   [8]  05 00 93 63 00 80 80 C6
  can0  766   [8]  00 00 00 00 00 00 0E 08
  can0  19F   [8]  00 97 74 F0 49 22 61 F7
  can0  003   [8]  0F FB 10 00 04 FF F0 8C
  can0  001   [8]  CC 81 1F 9E 55 03 01 67
  can0  105   [8]  08 23 7F FA FA 8B F4 48
  can0  045   [8]  00 FF 00 00 00 00 00 03
  can0  75E   [8]  00 81 00 2D 18 18 18 18
  can0  201   [8]  61 1E FA D9 FF FF C0 BE
  can0  203   [8]  41 0C 41 0E C1 17 C1 18
  can0  245   [8]  80 0D 81 7E BD 7F C0 85
  can0  073   [8]  05 00 93 63 00 80 90 0B
  can0  12D   [8]  01 0F 00 00 50 53 56 79
  can0  003   [8]  0F FB 10 00 04 FF 00 F3
  can0  75E   [8]  00 81 00 2D 18 18 18 18
  can0  005   [8]  00 00 00 00 0D 00 D8 9F
  can0  33D   [8]  00 42 00 00 64 00 00 00
  can0  073   [8]  05 00 93 63 00 80 A0 41
  can0  766   [8]  00 00 00 00 00 00 0E 08
  can0  375   [8]  13 10 34 3F 3F 07 00 00
  can0  75E   [8]  00 81 00 2D 18 18 18 18
  can0  003   [8]  0F FB 10 00 04 FF 10 3E
  can0  105   [8]  08 3D 7F FA FA 8B 04 A0
  can0  76E   [8]  00 00 00 00 00 00 00 00
  can0  201   [8]  65 22 00 DE FF FF D0 ED
  can0  203   [8]  41 13 41 13 C1 1E C1 1E
  can0  34F   [8]  10 95 00 95 03 E7 07 FF
  can0  245   [8]  80 19 81 7E BE 7F D0 85
  can0  073   [8]  05 00 93 63 00 80 B0 8C
  can0  388   [8]  35 FF 1F CF FF 0F 07 FF
  can0  413   [8]  FD 00 04 0F 10 00 00 05
  can0  003   [8]  0F FB 10 00 04 FF 20 74
  can0  005   [8]  00 00 00 00 0D 00 E8 D5
  can0  04B   [6]  01 00 0C 06 FF 04
  can0  75E   [8]  00 81 00 2D 18 18 18 18
  can0  249   [8]  2C 5E 00 30 6F 00 FF FF
  can0  073   [8]  05 00 93 63 00 80 C0 D5
  can0  283   [8]  F5 0D 08 03 C0 6E 3F FF
  can0  766   [8]  00 00 00 00 00 00 0E 08
  can0  003   [8]  0F FB 10 00 04 FF 30 B9
  can0  105   [8]  08 58 7F FA FA 8B 14 56
  can0  201   [8]  6A 27 05 E2 FF FF E0 DA
  can0  203   [8]  41 17 41 18 C1 24 C1 25
  can0  068   [1]  01
  can0  75E   [8]  00 81 00 2D 18 18 18 18
  can0  245   [8]  80 15 81 7E BD 80 E0 85
  can0  247   [8]  00 00 00 06 00 18 00 00
  can0  073   [8]  05 00 93 63 00 80 D0 18
  can0  10C   [8]  3B 7F FF 07 03 FF C3 67
  can0  003   [8]  0F FB 10 00 04 FF 40 E0
  can0  005   [8]  00 00 00 00 0D 00 F8 18
  can0  007   [8]  F0 05 38 00 3F FC AF 79
  can0  20E   [8]  3F 00 01 F0 FF FF 3F 68
  can0  75E   [8]  00 81 00 2D 18 18 18 18
  can0  073   [8]  05 00 93 63 00 80 E0 52
  can0  351   [8]  00 00 00 00 00 00 00 00
  can0  766   [8]  00 00 00 00 00 00 0E 08
  can0  003   [8]  0F FB 0F FF 04 FF 50 19
  can0  105   [8]  08 79 7F FA FA 8B 24 72
  can0  3D1   [4]  C6 0B 00 00
  can0  201   [8]  6E 2B 0A E7 FF FF F0 DE
  can0  203   [8]  41 1D 41 1E C1 2A C1 2B
  can0  205   [8]  06 93 0C 00 00 00 00 00
  can0  245   [8]  80 15 81 7E BF 81 F0 85
  can0  073   [8]  05 00 93 63 00 80 F0 9F
  can0  75E   [8]  00 81 00 2D 18 18 18 18
  can0  776   [8]  00 00 00 00 00 00 00 00
  can0  003   [8]  0F FB 0F FE 04 FF 60 CE
  can0  005   [8]  00 00 00 00 0D 00 08 67
  can0  073   [8]  05 00 93 63 00 80 00 E0
  can0  75E   [8]  00 81 00 2D 18 18 18 18
  can0  204   [8]  00 57 44 44 4B 4A 36 46
  can0  39D   [8]  1E 02 00 FA FF 0E 00 37
  can0  3F6   [5]  02 00 00 00 00
  can0  003   [8]  0F FB 0F FD 04 FF 70 B9
  can0  766   [8]  00 00 00 00 00 00 0E 08
  can0  105   [8]  08 90 7F FA FA 8B 34 2B
  can0  201   [8]  73 30 0F EC FF FF 00 D3
  can0  203   [8]  41 24 41 25 C1 31 C1 30
  can0  245   [8]  80 16 81 7E BF 81 00 85
  can0  34E   [8]  00 00 AD 00 00 AD 11 31
  can0  073   [8]  05 00 93 63 00 80 10 2D
  can0  75E   [8]  00 81 00 2D 18 18 18 18
  can0  003   [8]  0F FB 0F FD 04 FF 80 C6
  can0  35C   [8]  02 10 E0 00 00 FF FF 01
  can0  005   [8]  00 00 00 00 0D 00 18 AA
  can0  30D   [8]  7F 4F 79 FF FF 17 17 81
  can0  2EF   [8]  F7 00 FF 0F FF FF FF 00
  can0  073   [8]  05 00 93 63 00 80 20 67
  can0  75E   [8]  00 81 00 2D 18 18 18 18
  can0  204   [8]  01 42 31 47 46 33 31 34
  can0  19F   [8]  00 A8 74 F0 49 22 61 F7
  can0  001   [8]  CC 81 1F 9E 55 03 11 AA
  can0  003   [8]  0F FB 0F FD 04 FF 90 0B
  can0  766   [8]  00 00 00 00 00 00 0E 08
  can0  105   [8]  08 A5 7F FA FA 8B 44 0D
  can0  045   [8]  00 FF 00 00 00 00 10 CE
  can0  002   [5]  01 00 C3 8C 07
  can0  201   [8]  78 35 14 F1 FF FF 10 25
  can0  203   [8]  41 2B 41 2C C1 36 C1 37
  can0  245   [8]  80 1E 81 7E C0 83 10 85
  can0  1C0   [2]  00 00
  can0  073   [8]  05 00 93 63 00 80 30 AA
  can0  75E   [8]  00 81 00 2D 18 18 18 18
  can0  34D   [2]  10 00
  can0  12D   [8]  01 0F 00 00 50 53 56 79
  can0  003   [8]  0F FB 0F FD 04 FF A0 41
  can0  005   [8]  00 00 00 00 0D 00 28 E0
  can0  33D   [8]  00 42 00 00 64 00 00 00
  can0  336   [8]  6E 42 00 00 00 00 00 00
  can0  073   [8]  05 00 93 63 00 80 40 F3
  can0  75E   [8]  00 81 00 2D 18 18 18 18
  can0  375   [8]  13 10 34 3F 3F 07 00 00
  can0  204   [8]  02 33 33 35 FF FF FF FF
  can0  003   [8]  0F FB 0F FD 04 FF B0 8C
  can0  766   [8]  00 00 00 00 00 00 0E 08
  can0  105   [8]  08 C7 7F FA FA 8B 54 34
  can0  328   [2]  07 60
  can0  201   [8]  7D 3A 19 F6 FF FF 20 C2
  can0  37D   [8]  02 00 04 D2 10 00 FF FF
  can0  203   [8]  41 31 41 2F C1 3E C1 3E
  can0  400   [8]  FD 13 04 0F E0 81 00 05
  can0  245   [8]  80 1E 81 7E C1 84 20 85
  can0  34F   [8]  10 95 00 95 03 E7 07 FF
  can0  073   [8]  05 00 93 63 00 80 50 3E
  can0  75E   [8]  00 81 00 2D 18 18 18 18
  can0  76E   [8]  00 00 00 00 00 00 00 00
  can0  003   [8]  0F FB 0F FD 04 FF C0 D5
  can0  388   [8]  35 FF 1F CF FF 0F 07 FF
  can0  10E   [4]  00 C0 00 02
  can0  005   [8]  00 00 00 00 0D 00 38 2D
  can0  3D3   [4]  C0 00 00 00
  can0  249   [8]  34 7D 00 39 0F 00 FF FF
  can0  073   [8]  05 00 93 63 00 80 60 74
  can0  10D   [4]  00 A0 3E 00
  can0  04B   [6]  01 00 0C 06 FF 04
  can0  75E   [8]  00 81 00 2D 18 18 18 18
  can0  30E   [8]  0C 00 00 00 00 05 FF 03
  can0  003   [8]  0F FB 0F FD 04 FF D0 18
  can0  105   [8]  08 E0 7F FA FA 8B 64 99
  can0  283   [8]  F5 0D 08 03 C0 6E 3F FF
  can0  766   [8]  00 00 00 00 00 00 0E 08
  can0  201   [8]  82 3F 1E FB FF FF 30 FD
  can0  247   [8]  00 00 00 06 00 18 00 00
  can0  203   [8]  41 36 41 38 C1 45 C1 43
  can0  245   [8]  80 1B 81 7E C2 83 30 85
  can0  317   [2]  0A 00
  can0  073   [8]  05 00 93 63 00 80 70 B9
  can0  75E   [8]  00 81 00 2D 18 18 18 18
  can0  003   [8]  0F FB 0F FD 04 FF E0 52
  can0  005   [8]  00 00 00 00 0D 00 48 74
  can0  007   [8]  F0 05 38 00 3F FC AF 79
  can0  073   [8]  05 00 93 63 00 80 80 C6
  can0  75E   [8]  00 81 00 2D 18 18 18 18
  can0  003   [8]  0F FB 0F FE 04 FF F0 25
  can0  105   [8]  08 F2 7F FA FA 8B 74 CC
  can0  201   [8]  87 44 23 02 FF FF 40 74
  can0  205   [8]  06 93 0C 00 00 00 00 00
  can0  203   [8]  41 3C 41 3E C1 4A C1 4A
  can0  245   [8]  80 13 81 7E C1 82 40 85
  can0  766   [8]  00 00 00 00 00 00 0E 08
  can0  073   [8]  05 00 93 63 00 80 90 0B
  can0  75E   [8]  00 81 00 2D 18 18 18 18
  can0  003   [8]  0F FB 0F FE 04 FF 00 5A
  can0  005   [8]  00 00 00 00 0D 00 58 B9
  can0  073   [8]  05 00 93 63 00 80 A0 41
  can0  39D   [8]  1E 02 00 FA FF 0E 00 3F
  can0  75E   [8]  00 81 00 2D 18 18 18 18
  can0  003   [8]  0F FB 0F FF 04 FF 10 0A
  can0  105   [8]  09 11 7F FA FA 8B 84 FC
  can0  201   [8]  8C 49 29 07 FF FF 50 B5
  can0  203   [8]  41 43 41 42 C1 51 C1 50
  can0  245   [8]  80 0D 81 7E C2 82 50 85
  can0  34E   [8]  00 00 AD 00 00 AD 11 31
  can0  073   [8]  05 00 93 63 00 80 B0 8C
  can0  766   [8]  00 00 00 00 00 00 0E 08
  can0  003   [8]  0F FB 0F FF 04 FF 20 40
  can0  75E   [8]  00 81 00 2D 18 18 18 18
  can0  005   [8]  00 00 00 00 0D 00 68 F3
  can0  30D   [8]  7F 4F 79 FF FF 19 7D 81
  can0  073   [8]  05 00 93 63 00 80 C0 D5
  can0  19F   [8]  00 BA 74 F0 49 22 61 F7
  can0  001   [8]  CC 81 1F 9E 55 03 21 E0
  can0  003   [8]  0F FB 10 00 04 FF 30 B9
  can0  75E   [8]  00 81 00 2D 18 18 18 18
  can0  045   [8]  00 FF 00 00 00 00 20 84
  can0  105   [8]  09 26 7F FA FA 8B 94 C2
  can0  201   [8]  91 4F 2E 0D FF FF 60 99
  can0  203   [8]  41 49 41 49 C1 56 C1 55
  can0  245   [8]  80 0E 81 7E C0 82 60 85
  can0  2FF   [8]  02 28 00 53 FF 53 62 FE
  can0  073   [8]  05 00 93 63 00 80 D0 18
  can0  12D   [8]  01 0F 00 00 50 53 56 79
  can0  766   [8]  00 00 00 00 00 00 0E 08
  can0  003   [8]  0F FB 10 00 04 FF 40 E0
  can0  75E   [8]  00 81 00 2D 18 18 18 18
  can0  005   [8]  00 00 00 00 0D 00 78 3E
  can0  33D   [8]  00 42 00 00 64 00 00 00
  can0  073   [8]  05 00 93 63 00 80 E0 52
  can0  375   [8]  13 10 34 3F 3F 07 00 00
  can0  413   [8]  FD 00 04 0F 10 00 00 05
  can0  75E   [8]  00 81 00 2D 18 18 18 18
  can0  003   [8]  0F FB 10 00 04 FF 50 2D
  can0  105   [8]  09 3E 7F FA FA 8B A4 96
  can0  34F   [8]  10 95 00 95 03 E7 07 FF
  can0  201   [8]  97 54 34 12 FF FF 70 53
  can0  203   [8]  41 4E 41 4F C1 5B C1 5C
  can0  245   [8]  80 0E 81 7E BE 81 70 85
  can0  073   [8]  05 00 93 63 00 80 F0 9F
  can0  766   [8]  00 00 00 00 00 00 0E 08
  can0  003   [8]  0F FB 10 00 04 FF 60 67
  can0  005   [8]  00 00 00 00 0D 00 88 41
  can0  75E   [8]  00 81 00 2D 18 18 18 18
  can0  76E   [8]  00 00 00 00 00 00 00 00
  can0  249   [8]  3C 39 00 FF FF 00 03 FF
  can0  073   [8]  05 00 93 63 00 80 00 E0
  can0  388   [8]  35 FF 1F CF FF 0F 07 FF
  can0  003   [8]  0F FB 10 00 04 FF 70 AA
  can0  105   [8]  09 68 7F FA FA 8B B4 96
  can0  04B   [6]  01 00 0C 06 FF 04
  can0  201   [8]  9C 5A 3A 18 FF FF 80 37
  can0  75E   [8]  00 81 00 2D 18 18 18 18
  can0  203   [8]  41 54 41 54 C1 5F C1 5F
  can0  245   [8]  80 0E 81 7E BC 81 80 85
  can0  247   [8]  00 00 00 06 00 18 00 00
  can0  319   [1]  80
  can0  073   [8]  05 00 93 63 00 80 10 2D
  can0  283   [8]  F5 0D 08 03 C0 6E 3F FF
  can0  766   [8]  00 00 00 00 00 00 0E 08
  can0  003   [8]  0F FB 10 01 04 FF 80 48
  can0  005   [8]  00 00 00 00 0D 00 98 8C
  can0  068   [1]  01
  can0  75E   [8]  00 81 00 2D 18 18 18 18
  can0  007   [8]  F0 05 38 00 3F FC AF 79
  can0  073   [8]  05 00 93 63 00 80 20 67
  can0  10C   [8]  3B 7F FF 07 03 FF C3 67
  can0  26F   [2]  6F C0
  can0  003   [8]  0F FB 10 01 04 FF 90 85
  can0  105   [8]  09 85 7F FA FA 8B C4 5E
  can0  201   [8]  A2 5F 3F 1E FF FF 90 D8
  can0  203   [8]  41 5A 41 5A C1 66 C1 67
  can0  205   [8]  06 93 0C 00 00 00 00 00
  can0  245   [8]  80 0F 81 7E BA 81 90 85
  can0  3D1   [4]  C6 0B 00 00
  can0  20E   [8]  3F 00 01 F0 FF FF 3F 68
  can0  75E   [8]  00 81 00 2D 18 18 18 18
  can0  073   [8]  05 00 93 63 00 80 30 AA
  can0  351   [8]  00 00 00 00 00 00 00 00
  can0  766   [8]  00 00 00 00 00 00 0E 08
  can0  003   [8]  0F FB 10 02 04 FF A0 75
  can0  005   [8]  00 00 00 00 0D 00 A8 C6
  can0  75E   [8]  00 81 00 2D 18 18 18 18
  can0  776   [8]  00 00 00 00 00 00 00 00
  can0  073   [8]  05 00 93 63 00 80 40 F3
  can0  39D   [8]  1E 02 00 FA FF 0E 00 47
  can0  3F6   [5]  02 00 00 00 00
  can0  003   [8]  0F FB 10 03 04 FF B0 25
  can0  105   [8]  09 BA 7F FA FA 8B D4 6A
  can0  201   [8]  A7 65 45 24 FF FF A0 DB
  can0  203   [8]  41 5E 41 5F C1 6A C1 6A
  can0  245   [8]  80 15 81 7E B7 82 A0 85
  can0  34E   [8]  00 00 AD 00 00 AD 11 31
  can0  073   [8]  05 00 93 63 00 80 50 3E
  can0  75E   [8]  00 81 00 2D 18 18 18 18
  can0  003   [8]  0F FB 10 04 04 FF C0 88
  can0  766   [8]  00 00 00 00 00 00 0E 08
  can0  005   [8]  00 00 00 00 0D 00 B8 0B
  can0  35C   [8]  02 10 E0 00 00 FF FF 01
  can0  30D   [8]  7F 4F 79 FF FF 1C F2 81
  can0  2EF   [8]  F7 00 FF 0F FF FF FF 00
  can0  073   [8]  05 00 93 63 00 80 60 74
  can0  75E   [8]  00 81 00 2D 18 18 18 18
  can0  19F   [8]  00 CA 74 F0 49 22 61 F7
  can0  001   [8]  CC 81 1F 9E 55 03 31 2D
  can0  003   [8]  0F FB 10 04 04 FF D0 45
  can0  105   [8]  09 DE 7F FA FA 8B E4 5D
  can0  045   [8]  00 FF 00 00 00 00 30 49
  can0  201   [8]  AD 6B 4B 2A FF FF B0 1E
  can0  203   [8]  41 63 41 66 C1 70 C1 70
  can0  245   [8]  80 15 81 7E B6 84 B0 85
  can0  073   [8]  05 00 93 63 00 80 70 B9
  can0  75E   [8]  00 81 00 2D 18 18 18 18
  can0  12D   [8]  01 0F 00 00 50 53 56 79
  can0  003   [8]  0F FB 10 05 04 FF E0 92
  can0  766   [8]  00 00 00 00 00 00 0E 08
  can0  005   [8]  00 00 00 00 0D 00 C8 52
  can0  3E3   [8]  5A FD 18 70 29 CF 94 F9
  can0  400   [8]  FD 13 04 0F E0 81 00 05
  can0  33D   [8]  00 42 00 00 64 00 00 00
  can0  3E5   [8]  0E 0A 0A 14 04 FF FF 00
  can0  3F2   [8]  00 23 00 0A 00 00 3F FD
  can0  1C1   [4]  00 00 00 00
  can0  3E7   [8]  5A FD 18 66 29 CF 94 D2
  can0  073   [8]  05 00 93 63 00 80 80 C6
  can0  75E   [8]  00 81 00 2D 18 18 18 18
  can0  375   [8]  13 10 34 3F 3F 07 00 00
  can0  003   [8]  0F FB 10 06 04 FF F0 E5
  can0  3E9   [8]  07 E9 0B 03 02 01 13 24
  can0  105   [8]  0A 1B 7F FA FA 8B F4 C4
  can0  328   [2]  07 60
  can0  201   [8]  B3 70 51 30 FF FF C0 F8
  can0  37D   [8]  02 00 04 D2 10 00 FF FF
  can0  203   [8]  41 68 41 69 C1 7A C1 79
  can0  336   [8]  6E 42 00 00 00 00 00 00
  can0  245   [8]  80 15 81 7E B3 84 C0 85
  can0  34F   [8]  10 95 00 95 03 E7 07 FF
  can0  3B8   [8]  00 00 00 60 41 05 00 00
  can0  073   [8]  05 00 93 63 00 80 90 0B
  can0  3EB   [8]  00 03 06 4B 0D 29 0D 86
  can0  75E   [8]  00 81 00 2D 18 18 18 18
  can0  39F   [8]  12 01 32 02 0B 19 0A FF
  can0  3B7   [8]  A9 09 0A CF 02 01 61 D1
  can0  003   [8]  0F FB 10 06 04 FF 00 9A
  can0  005   [8]  00 00 00 00 0D 00 D8 9F
  can0  3D3   [4]  C0 00 00 00
  can0  766   [8]  00 00 00 00 00 00 0E 08
  can0  249   [8]  04 70 00 0A B4 00 FF FF
  can0  073   [8]  05 00 93 63 00 80 A0 41
  can0  75E   [8]  00 81 00 2D 18 18 18 18
  can0  76E   [8]  00 00 00 00 00 00 00 00
  can0  003   [8]  0F FB 10 06 04 FF 10 57
  can0  105   [8]  0A 4D 7F FA FA 8B 04 76
  can0  201   [8]  B9 76 57 36 FF FF D0 DC
  can0  247   [8]  00 00 00 06 00 18 00 00
  can0  203   [8]  41 6D 41 6E C1 79 C1 7A
  can0  388   [8]  35 FF 1F CF FF 0F 07 FF
  can0  245   [8]  80 13 81 7E B5 83 D0 85
  can0  2C4   [8]  00 00 FC 3F 7F FF 3F FF
  can0  073   [8]  05 00 93 63 00 80 B0 8C
  can0  04B   [6]  01 00 0C 06 FF 04
  can0  75E   [8]  00 81 00 2D 18 18 18 18
  can0  003   [8]  0F FB 10 06 04 FF 20 1D
  can0  005   [8]  00 00 00 00 0D 00 E8 D5
  can0  007   [8]  F0 05 38 00 3F FC AF 79
  can0  283   [8]  F5 0D 08 03 C0 6E 3F FF
  can0  766   [8]  00 00 00 00 00 00 0E 08
  can0  073   [8]  05 00 93 63 00 80 C0 D5
  can0  75E   [8]  00 81 00 2D 18 18 18 18
  can0  003   [8]  0F FB 10 05 04 FF 30 6A
  can0  105   [8]  0A 92 7F FA FA 8A 14 D6
  can0  201   [8]  BF 7C 5D 3C FF FF E0 DB
  can0  205   [8]  06 93 0C 00 00 00 00 00
  can0  203   [8]  41 71 41 74 C1 7E C1 7D
  can0  245   [8]  80 15 81 7E B8 83 E0 85
  can0  073   [8]  05 00 93 63 00 80 D0 18
  can0  003   [8]  0F FB 10 04 04 FF 40 AE
  can0  75E   [8]  00 81 00 2D 18 18 18 18
  can0  005   [8]  00 00 00 00 0D 00 F8 18
  can0  073   [8]  05 00 93 63 00 80 E0 52
  can0  766   [8]  00 00 00 00 00 00 0E 08
  can0  39D   [8]  1E 02 00 FA FF 0E 00 4F
  can0  003   [8]  0F FB 10 03 04 FF 50 97
  can0  75E   [8]  00 81 00 2D 18 18 18 18
  can0  105   [8]  0A D7 7F FA FA 8A 24 8F
  can0  201   [8]  C5 82 64 42 FF FF F0 05
  can0  203   [8]  41 76 41 77 C1 86 C1 83
  can0  245   [8]  80 15 81 7E B2 82 F0 85
  can0  34E   [8]  00 00 AD 00 00 AD 11 31
  can0  073   [8]  05 00 93 63 00 80 F0 9F
  can0  003   [8]  0F FB 10 03 04 FF 60 DD
  can0  75E   [8]  00 81 00 2D 18 18 18 18
  can0  005   [8]  00 00 00 00 0D 00 08 67
  can0  30D   [8]  7F 4F 79 FF FF 20 66 81
  can0  073   [8]  05 00 93 63 00 80 00 E0
  can0  766   [8]  00 00 00 00 00 00 0E 08
  can0  19F   [8]  00 D9 74 F0 49 22 61 F7
  can0  003   [8]  0F FB 10 02 04 FF 70 8D
  can0  001   [8]  CC 81 1F 9E 55 03 41 74
  can0  045   [8]  00 FF 00 00 00 00 40 10
  can0  105   [8]  0B 20 7F FA FA 8A 34 1C
  can0  75E   [8]  00 81 00 2D 18 18 18 18
  can0  201   [8]  CB 88 6A 48 FF FF 00 50
  can0  203   [8]  41 7A 41 7B C1 89 C1 87
  can0  245   [8]  80 16 81 7E B1 80 00 85
  can0  073   [8]  05 00 93 63 00 80 10 2D
  can0  12D   [8]  01 0F 00 00 50 53 56 79
  can0  413   [8]  FD 00 04 0F 10 00 00 05
  can0  003   [8]  0F FB 10 01 04 FF 80 48
  can0  75E   [8]  00 81 00 2D 18 18 18 18
  can0  005   [8]  00 00 00 00 0D 00 18 AA
  can0  33D   [8]  00 42 00 00 64 00 00 00
  can0  073   [8]  05 00 93 63 00 80 20 67
  can0  766   [8]  00 00 00 00 00 00 0E 08
  can0  375   [8]  13 10 34 3F 3F 07 00 00
  can0  003   [8]  0F FB 10 00 04 FF 90 18
  can0  105   [8]  0B 55 7F FA FA 8A 44 6A
  can0  75E   [8]  00 81 00 2D 18 18 18 18
  can0  201   [8]  D1 8F 70 4F FF FF 10 3A
  can0  203   [8]  41 80 41 81 C1 8C C1 8C
  can0  34F   [8]  10 95 00 95 03 E7 07 FF
  can0  245   [8]  80 17 81 7E B2 7F 10 85
  can0  073   [8]  05 00 93 63 00 80 30 AA
  can0  003   [8]  0F FB 10 01 04 FF A0 CF
  can0  75E   [8]  00 81 00 2D 18 18 18 18
  can0  005   [8]  00 00 00 00 0D 00 28 E0
  can0  249   [8]  0C B6 00 13 E8 00 FF FF
  can0  073   [8]  05 00 93 63 00 80 40 F3
  can0  766   [8]  00 00 00 00 00 00 0E 08
  can0  003   [8]  0F FB 10 01 04 FF B0 02
  can0  75E   [8]  00 81 00 2D 18 18 18 18
  can0  105   [8]  0B A7 7F FA FA 8A 54 E7
  can0  76E   [8]  00 00 00 00 00 00 00 00
  can0  201   [8]  D7 95 77 55 FF FF 20 A4
  can0  203   [8]  41 84 41 85 C1 99 C1 98
  can0  245   [8]  80 1D 81 7E B0 81 20 85
  can0  247   [8]  00 00 00 06 00 18 00 00
  can0  073   [8]  05 00 93 63 00 80 50 3E
  can0  388   [8]  35 FF 1F CF FF 0F 07 FF
  can0  003   [8]  0F FC 10 01 04 FF C0 94
  can0  04B   [6]  01 00 0C 06 FF 04
  can0  75E   [8]  00 81 00 2D 18 18 18 18
  can0  005   [8]  00 00 00 00 0D 00 38 2D
  can0  007   [8]  F0 05 38 00 3F FC AF 79
  can0  073   [8]  05 00 93 63 00 80 60 74
  can0  283   [8]  F5 0D 08 03 C0 6E 3F FF
  can0  766   [8]  00 00 00 00 00 00 0E 08
  can0  003   [8]  0F FC 10 01 04 FF D0 59
  can0  105   [8]  0B EA 7F FA FA 8A 64 B4
  can0  3D1   [4]  C6 0B 00 00
  can0  068   [1]  01
  can0  75E   [8]  00 81 00 2D 18 18 18 18
  can0  201   [8]  DE 9B 7E 5C FF FF 30 79
  can0  203   [8]  41 88 41 89 C1 9A C1 9A
  can0  205   [8]  06 93 0C 00 00 00 00 00
  can0  245   [8]  80 26 81 7E B5 83 30 85
  can0  073   [8]  05 00 93 63 00 80 70 B9
  can0  10C   [8]  3B 7F FF 07 03 FF C3 67
  can0  003   [8]  0F FC 10 01 04 FF E0 13
  can0  005   [8]  00 00 00 00 0D 00 48 74
  can0  004   [5]  01 00 00 7D 07
  can0  20E   [8]  3F 00 01 F0 FF FF 3F 68
  can0  75E   [8]  00 81 00 2D 18 18 18 18
  can0  073   [8]  05 00 93 63 00 80 80 C6
  can0  351   [8]  00 00 00 00 00 00 00 00
  can0  766   [8]  00 00 00 00 00 00 0E 08
  can0  39D   [8]  1E 02 00 FA FF 0E 00 57
  can0  3F6   [5]  02 00 00 00 00
  can0  003   [8]  0F FC 10 01 04 FF F0 DE
  can0  105   [8]  0C 3A 7F FA FA 8A 74 13
  can0  201   [8]  E4 A2 84 63 FF FF 40 D9
  can0  203   [8]  41 8F 41 93 C1 9B C1 9D
  can0  245   [8]  80 26 81 7E BE 83 40 85
  can0  34E   [8]  00 00 AD 00 00 AD 11 31
  can0  75E   [8]  00 81 00 2D 18 18 18 18
  can0  776   [8]  00 00 00 00 00 00 00 00
  can0  073   [8]  05 00 93 63 00 80 90 0B
  can0  208   [8]  1F 40 11 80 00 06 40 A8
  can0  003   [8]  0F FC 10 01 04 FF 00 A1
  can0  35C   [8]  02 10 E0 00 00 FF FF 01
  can0  005   [8]  00 00 00 00 0D 00 58 B9
  can0  30D   [8]  7F 4F 79 FF FF 24 3D 81
  can0  2EF   [8]  F7 00 FF 0F FF FF FF 00
  can0  073   [8]  05 00 93 63 00 80 A0 41
  can0  207   [8]  10 09 3D 22 0F CB 4D AC
  can0  75E   [8]  00 81 00 2D 18 18 18 18
  can0  19F   [8]  00 E8 74 F0 49 22 61 F7
  can0  001   [8]  CC 81 1F 9E 55 03 51 B9
  can0  003   [8]  0F FC 10 01 04 FF 10 6C
  can0  206   [8]  00 00 0D 20 C1 80 D2 CC
  can0  045   [8]  00 FF 00 00 00 00 50 DD
  can0  105   [8]  0C 7E 7F FA FA 8A 84 39
  can0  766   [8]  00 00 00 00 00 00 0E 08
  can0  201   [8]  EB A8 8B 69 FF FF 50 09
  can0  203   [8]  41 95 41 93 C1 A9 C1 A8
  can0  245   [8]  80 22 81 7E B6 83 50 85
  can0  400   [8]  FD 13 04 0F E0 81 00 05
  can0  073   [8]  05 00 93 63 00 80 B0 8C
  can0  12D   [8]  01 0F 00 00 50 53 56 79
  can0  20A   [8]  FA FF 00 FC FF FF FF 7F
  can0  75E   [8]  00 81 00 2D 18 18 18 18
  can0  003   [8]  0F FC 10 01 04 FF 20 26
  can0  005   [8]  00 00 00 00 0D 00 68 F3
  can0  33D   [8]  00 42 00 00 64 00 00 00
  can0  336   [8]  6E 42 00 00 00 00 00 00
  can0  073   [8]  05 00 93 63 00 80 C0 D5
  can0  375   [8]  13 10 34 3F 3F 07 00 00
  can0  75E   [8]  00 81 00 2D 18 18 18 18
  can0  003   [8]  0F FC 10 01 04 FF 30 EB
  can0  105   [8]  0C CC 7F FA FA 8A 94 E4
  can0  328   [2]  07 60
  can0  201   [8]  F1 AF 92 70 FF FF 60 8A
  can0  203   [8]  41 97 41 96 C1 A3 C1 A6
  can0  766   [8]  00 00 00 00 00 00 0E 08
  can0  245   [8]  80 1A 81 7E BA 82 60 85
  can0  37D   [8]  02 00 04 D2 10 00 FF FF
  can0  34F   [8]  10 95 00 95 03 E7 07 FF
  can0  073   [8]  05 00 93 63 00 80 D0 18
  can0  75E   [8]  00 81 00 2D 18 18 18 18
  can0  003   [8]  0F FB 10 00 04 FF 40 E0
  can0  005   [8]  00 00 00 00 0D 00 78 3E
  can0  3D3   [4]  C0 00 00 00
  can0  249   [8]  17 E8 00 1B E8 00 FF FF
  can0  073   [8]  05 00 93 63 00 80 E0 52
  can0  75E   [8]  00 81 00 2D 18 18 18 18
  can0  003   [8]  0F FB 0F FF 04 FF 50 19
  can0  105   [8]  0D 16 7F FA FA 8A A4 91
  can0  201   [8]  F8 B5 99 77 FF FF 70 67
  can0  247   [8]  00 00 00 06 00 18 00 00
  can0  203   [8]  41 A0 41 9F C1 B3 C1 B1
  can0  245   [8]  80 13 81 7E B6 82 70 85
  can0  073   [8]  05 00 93 63 00 80 F0 9F
  can0  766   [8]  00 00 00 00 00 00 0E 08
  can0  003   [8]  0F FB 0F FF 04 FF 60 53
  can0  75E   [8]  00 81 00 2D 18 18 18 18
  can0  76E   [8]  00 00 00 00 00 00 00 00
  can0  005   [8]  00 00 00 00 0D 00 88 41
  can0  007   [8]  F0 05 38 00 3F FC AF 79
  can0  073   [8]  05 00 93 63 00 80 00 E0
  can0  388   [8]  35 FF 1F CF FF 0F 07 FF
  can0  003   [8]  0F FB 0F FE 04 FF 70 03
  can0  105   [8]  0D 72 7F FA FA 8A B4 21
  can0  04B   [6]  01 00 0C 06 FF 04
  can0  75E   [8]  00 81 00 2D 18 18 18 18
  can0  201   [8]  00 BC A0 7E FF FF 80 1C
  can0  205   [8]  06 93 0C 00 00 00 00 00
  can0  203   [8]  41 A4 41 A3 C1 B3 C1 B3
  can0  245   [8]  80 17 81 7E B2 81 80 85
  can0  073   [8]  05 00 93 63 00 80 10 2D
  can0  283   [8]  F5 0D 08 03 C0 6E 3F FF
  can0  766   [8]  00 00 00 00 00 00 0E 08
  can0  003   [8]  0F FB 0F FE 04 FF 80 7C
  can0  005   [8]  00 00 00 00 0D 00 98 8C
  can0  75E   [8]  00 81 00 2D 18 18 18 18
  can0  073   [8]  05 00 93 63 00 80 20 67
  can0  39D   [8]  1E 02 00 FA FF 0E 00 5F
  can0  003   [8]  0F FB 0F FE 04 FF 90 B1
  can0  105   [8]  0D BA 7F FA FA 8A C4 82
  can0  201   [8]  06 C3 A7 85 FF FF 90 48
  can0  203   [8]  41 A9 41 AA C1 BB C1 BA
  can0  75E   [8]  00 81 00 2D 18 18 18 18
  can0  245   [8]  80 22 81 7E B9 80 90 85
  can0  34E   [8]  00 00 AD 00 00 AD 11 31
  can0  073   [8]  05 00 93 63 00 80 30 AA
  can0  766   [8]  00 00 00 00 00 00 0E 08
  can0  003   [8]  0F FB 0F FE 04 FF A0 FB
  can0  005   [8]  00 00 00 00 0D 00 A8 C6
  can0  75E   [8]  00 81 00 2D 18 18 18 18
  can0  30D   [8]  7F 4F 79 FF FF 29 DD 81
  can0  073   [8]  05 00 93 63 00 80 40 F3
  can0  19F   [8]  00 F7 74 F0 49 22 61 F7
  can0  413   [8]  FD 00 04 0F 10 00 00 05
  can0  001   [8]  CC 81 1F 9E 55 03 61 F3
  can0  003   [8]  0F FB 0F FE 04 FF B0 36
  can0  105   [8]  0E 1F 7F FA FA 8A D4 63
  can0  045   [8]  00 FF 00 00 00 00 60 97
  can0  002   [5]  01 00 C3 8C 07
  can0  201   [8]  0D CA AE 8C FF FF A0 67
  can0  203   [8]  41 AF 41 B1 C1 C0 C1 BE
  can0  75E   [8]  00 81 00 2D 18 18 18 18
  can0  245   [8]  80 22 81 7E B6 7E A0 85
  can0  34D   [2]  10 00
  can0  073   [8]  05 00 93 63 00 80 50 3E
  can0  12D   [8]  01 0F 00 00 50 53 56 79
  can0  766   [8]  00 00 00 00 00 00 0E 08
  can0  003   [8]  0F FB 0F FE 04 FF C0 6F
  can0  005   [8]  00 00 00 00 0D 00 B8 0B
  can0  33D   [8]  00 42 00 00 64 00 00 00
  can0  75E   [8]  00 81 00 2D 18 18 18 18
  can0  073   [8]  05 00 93 63 00 80 60 74
  can0  375   [8]  13 10 34 3F 3F 07 00 00
  can0  003   [8]  0F FB 0F FE 04 FF D0 A2
  can0  105   [8]  0E 81 7F FA FA 8A E4 1E
  can0  201   [8]  14 D1 B5 94 FF FF B0 D6
  can0  203   [8]  41 B5 41 B7 C1 C7 C1 C7
  can0  34F   [8]  10 95 00 95 03 E7 07 FF
  can0  245   [8]  80 21 81 7E B7 7E B0 85
  can0  073   [8]  05 00 93 63 00 80 70 B9
  can0  75E   [8]  00 81 00 2D 18 18 18 18
  can0  003   [8]  0F FB 0F FE 04 FF E0 E8
  can0  766   [8]  00 00 00 00 00 00 0E 08
  can0  10E   [4]  00 C0 00 02
  can0  005   [8]  00 00 00 00 0D 00 C8 52
  can0  249   [8]  1F E8 00 23 E8 00 FF FF
  can0  073   [8]  05 00 93 63 00 80 80 C6
  can0  75E   [8]  00 81 00 2D 18 18 18 18
  can0  10D   [4]  00 A0 3E 00
  can0  003   [8]  0F FB 0F FF 04 FF F0 B8
  can0  105   [8]  0E C9 7F FA FA 8A F4 89
  can0  201   [8]  1C D8 BD 9B FF FF C0 0E
  can0  203   [8]  41 BA 41 BD C1 CE C1 C9
  can0  245   [8]  80 1A 81 7E B7 7F C0 85
  can0  247   [8]  00 00 00 06 00 18 00 00
  can0  073   [8]  05 00 93 63 00 80 90 0B
  can0  75E   [8]  00 81 00 2D 18 18 18 18
  can0  003   [8]  0F FB 0F FF 04 FF 00 C7
  can0  005   [8]  00 00 00 00 0D 00 D8 9F
  can0  766   [8]  00 00 00 00 00 00 0E 08
  can0  007   [8]  F0 05 38 00 3F FC AF 79
  can0  073   [8]  05 00 93 63 00 80 A0 41
  can0  75E   [8]  00 81 00 2D 18 18 18 18
  can0  76E   [8]  00 00 00 00 00 00 00 00
  can0  003   [8]  0F FB 10 01 04 FF 10 A3
  can0  105   [8]  0F 16 7F FA FA 8A 04 8A
  can0  3D1   [4]  C6 0B 00 00
  can0  201   [8]  23 DF C4 A2 FF FF D0 45
  can0  205   [8]  06 93 0C 00 00 00 00 00
  can0  203   [8]  41 C0 41 C1 C1 D1 C1 CF
  can0  388   [8]  35 FF 1F CF FF 0F 07 FF
  can0  245   [8]  80 21 81 7E BB 80 D0 85
  can0  073   [8]  05 00 93 63 00 80 B0 8C
  can0  04B   [6]  01 00 0C 06 FF 04
  can0  75E   [8]  00 81 00 2D 18 18 18 18
  can0  003   [8]  0F FB 10 02 04 FF 20 53
  can0  005   [8]  00 00 00 00 0D 00 E8 D5
  can0  283   [8]  F5 0D 08 03 C0 6E 3F FF
  can0  766   [8]  00 00 00 00 00 00 0E 08
  can0  073   [8]  05 00 93 63 00 80 C0 D5
  can0  068   [1]  01
  can0  75E   [8]  00 81 00 2D 18 18 18 18
  can0  39D   [8]  1E 02 00 FA FF 0E 00 67
  can0  3F6   [5]  02 00 00 00 00
  can0  003   [8]  0F FC 10 02 04 FF 30 51
  can0  105   [8]  0F 71 7F FA FA 8A 14 F0
  can0  201   [8]  2A E7 CC AA FF FF E0 5D
  can0  203   [8]  41 C5 41 C3 C1 D5 C1 D1
  can0  10C   [8]  3B 7F FF 07 03 FF C3 67
  can0  245   [8]  80 26 81 7E BC 82 E0 85
  can0  34E   [8]  00 00 AD 00 00 AD 11 31
  can0  073   [8]  05 00 93 63 00 80 D0 18
  can0  20E   [8]  3F 00 01 F0 FF FF 3F 68
  can0  75E   [8]  00 81 00 2D 18 18 18 18
  can0  003   [8]  0F FC 10 02 04 FF 40 08
  can0  35C   [8]  02 10 E0 00 00 FF FF 01
  can0  005   [8]  00 00 00 00 0D 00 F8 18
  can0  30D   [8]  7F 4E 79 FF FF 31 68 81
  can0  351   [8]  00 00 00 00 00 00 00 00
  can0  766   [8]  00 00 00 00 00 00 0E 08
  can0  400   [8]  FD 13 04 0F E0 81 00 05
  can0  2EF   [8]  F7 00 FF 0F FF FF FF 00
  can0  073   [8]  05 00 93 63 00 80 E0 52
  can0  75E   [8]  00 81 00 2D 18 18 18 18
  can0  776   [8]  00 00 00 00 00 00 00 00
  can0  19F   [8]  01 08 74 F0 49 22 61 F7
  can0  001   [8]  CC 81 1F 9E 55 03 71 3E
  can0  003   [8]  0F FC 10 02 04 FF 50 C5
  can0  105   [8]  0F C0 7F FA FA 8A 24 60
  can0  045   [8]  00 FF 00 00 00 00 70 5A
  can0  201   [8]  31 EE D4 B2 FF FF F0 70
  can0  203   [8]  41 CA 41 CA C1 DD C1 DC
  can0  245   [8]  80 22 81 7E BA 83 F0 85
  can0  12D   [8]  01 0F 00 00 50 53 56 79
  can0  073   [8]  05 00 93 63 00 80 F0 9F
  can0  75E   [8]  00 81 00 2D 18 18 18 18
  can0  003   [8]  0F FC 10 03 04 FF 60 12
  can0  005   [8]  00 00 00 00 0D 00 08 67
  can0  33D   [8]  00 42 00 00 64 00 00 00
  can0  336   [8]  6E 42 00 00 00 00 00 00
  can0  766   [8]  00 00 00 00 00 00 0E 08
  can0  073   [8]  05 00 93 63 00 80 00 E0
  can0  375   [8]  13 10 34 3F 3F 07 00 00
  can0  75E   [8]  00 81 00 2D 18 18 18 18
  can0  003   [8]  0F FC 10 03 04 FF 70 DF
  can0  328   [2]  07 60
  can0  105   [8]  10 08 7F FA FA 8A 34 B2
  can0  201   [8]  39 F5 DB B9 FF FF 00 53
  can0  37D   [8]  02 00 04 D2 10 00 FF FF
  can0  203   [8]  41 D1 41 D2 C1 E1 C1 DE
  can0  245   [8]  80 16 81 7E B9 83 00 85
  can0  34F   [8]  10 95 00 95 03 E7 07 FF
  can0  073   [8]  05 00 93 63 00 80 10 2D
  can0  003   [8]  0F FC 10 03 04 FF 80 A0
  can0  75E   [8]  00 81 00 2D 18 18 18 18
  can0  005   [8]  00 00 00 00 0D 00 18 AA
  can0  3D3   [4]  C0 00 00 00
  can0  249   [8]  27 E8 00 29 FC 00 FF FF
  can0  073   [8]  05 00 93 63 00 80 20 67
  can0  766   [8]  00 00 00 00 00 00 0E 08
  can0  003   [8]  0F FC 10 04 04 FF 90 99
  can0  75E   [8]  00 81 00 2D 18 18 18 18
  can0  105   [8]  10 5E 7F FA FA 8A 44 26
  can0  201   [8]  40 FD E3 C1 FF FF 10 2C
  can0  247   [8]  00 00 00 06 00 18 00 00
  can0  203   [8]  41 D6 41 D7 C1 E8 C1 E8
  can0  245   [8]  80 17 81 7E B9 82 10 85
  can0  073   [8]  05 00 93 63 00 80 30 AA
  can0  003   [8]  0F FC 10 04 04 FF A0 D3
  can0  75E   [8]  00 81 00 2D 18 18 18 18
  can0  005   [8]  00 00 00 00 0D 00 28 E0
  can0  007   [8]  F0 05 38 00 3F FC AF 79
  can0  073   [8]  05 00 93 63 00 80 40 F3
  can0  766   [8]  00 00 00 00 00 00 0E 08
  can0  003   [8]  0F FC 10 04 04 FF B0 1E
  can0  105   [8]  10 BC 7F FA FA 8A 54 BF
  can0  75E   [8]  00 81 00 2D 18 18 18 18
  can0  201   [8]  48 06 EB C9 FF FF 20 53
  can0  203   [8]  41 D9 41 DA C1 F4 C1 EF
  can0  205   [8]  06 93 0C 00 00 00 00 00
  can0  245   [8]  80 19 81 7E B8 83 20 85
  can0  76E   [8]  00 00 00 00 00 00 00 00
  can0  073   [8]  05 00 93 63 00 80 50 3E
  can0  388   [8]  35 FF 1F CF FF 0F 07 FF
  can0  003   [8]  0F FC 10 05 04 FF C0 DA
  can0  005   [8]  00 00 00 00 0D 00 38 2D
  can0  04B   [6]  01 00 0C 06 FF 04
  can0  75E   [8]  00 81 00 2D 18 18 18 18
  can0  073   [8]  05 00 93 63 00 80 60 74
  can0  283   [8]  F5 0D 08 03 C0 6E 3F FF
  can0  766   [8]  00 00 00 00 00 00 0E 08
  can0  39D   [8]  1E 02 00 FA FF 0E 00 6F
  can0  003   [8]  0F FC 10 06 04 FF D0 AD
  can0  105   [8]  10 FB 7F FA FA 8A 64 6A
  can0  201   [8]  50 0D F3 D1 FF FF 30 15
  can0  203   [8]  41 E0 41 E0 C1 F6 C1 F5
  can0  245   [8]  80 1D 81 7E BC 81 30 85
  can0  75E   [8]  00 81 00 2D 18 18 18 18
  can0  34E   [8]  00 00 AD 00 00 AD 11 31
  can0  073   [8]  05 00 93 63 00 80 70 B9
  can0  413   [8]  FD 00 04 0F 10 00 00 05
  can0  003   [8]  0F FC 10 07 04 FF E0 7A
  can0  005   [8]  00 00 00 00 0D 00 48 74
  can0  30D   [8]  7F 4E 79 FF FF 43 87 81
  can0  75E   [8]  00 81 00 2D 18 18 18 18
  can0  073   [8]  05 00 93 63 00 80 80 C6
  can0  766   [8]  00 00 00 00 00 00 0E 08
  can0  001   [8]  CC 81 1F 9E 55 03 81 41
  can0  19F   [8]  01 18 74 F0 49 22 61 F7
  can0  003   [8]  0F FC 10 07 04 FF F0 B7
  can0  045   [8]  00 FF 00 00 00 00 80 25
