  can0  04B   [6]  01 00 0C 06 FF 04
  can0  75E   [8]  00 81 00 2D 18 18 18 18
  can0  073   [8]  05 20 93 63 00 40 60 7F
  can0  375   [8]  13 10 34 3F 3F 07 00 00
  can0  283   [8]  F5 0D 08 03 C0 6E 3F FF
  can0  003   [8]  10 02 10 00 04 FF D0 6E
  can0  766   [8]  00 00 00 00 00 00 0E 08
  can0  201   [8]  A8 66 0E EA FF FF B0 82
  can0  203   [8]  00 00 00 00 C0 00 C0 00
  can0  245   [8]  80 00 80 7E 80 84 B0 85
  can0  105   [8]  02 6C 7F 00 00 99 E3 F5
  can0  34F   [8]  10 92 00 92 03 E7 07 FF
  can0  75E   [8]  00 81 00 2D 18 18 18 18
  can0  073   [8]  05 20 93 63 00 40 70 B2
  can0  003   [8]  10 02 10 00 04 FF E0 24
  can0  005   [8]  11 00 01 80 0D 00 C8 E9
  can0  249   [8]  1F E8 00 23 E8 00 FF FF
  can0  75E   [8]  00 81 00 2D 18 18 18 18
  can0  073   [8]  05 20 93 63 00 40 80 CD
  can0  766   [8]  00 00 00 00 00 00 0E 08
  can0  003   [8]  10 02 10 00 04 FF F0 E9
  can0  201   [8]  A8 66 0E EA FF FF C0 DB
  can0  203   [8]  00 00 00 00 C0 00 C0 00
  can0  105   [8]  02 6D 7F 00 00 99 F3 7E
  can0  245   [8]  80 05 80 7E 81 84 C0 85
  can0  247   [8]  00 00 00 06 00 18 00 00
  can0  75E   [8]  00 81 00 2D 18 18 18 18
  can0  073   [8]  05 20 93 63 00 40 90 00
  can0  003   [8]  10 02 10 00 04 FF 00 96
  can0  005   [8]  11 00 01 7F 0D 00 D8 82
  can0  007   [8]  F0 05 3A 00 3F FC AF 79
  can0  75E   [8]  00 81 00 2D 18 18 18 18
  can0  073   [8]  05 20 93 63 00 40 A0 4A
  can0  766   [8]  00 00 00 00 00 00 0E 08
  can0  003   [8]  10 02 10 00 04 FF 10 5B
  can0  201   [8]  A8 66 0E EA FF FF D0 16
  can0  203   [8]  00 00 00 00 C0 00 C0 00
  can0  245   [8]  80 06 80 7E 81 84 D0 85
  can0  105   [8]  02 6D 7F 00 00 99 03 01
  can0  205   [8]  06 93 0C 00 01 00 00 00
  can0  75E   [8]  00 81 00 2D 18 18 18 18
  can0  3D1   [4]  C6 0B 00 00
  can0  073   [8]  05 20 93 63 00 40 B0 87
  can0  39D   [8]  1E 02 01 03 FF 0E 00 67
  can0  3F6   [5]  02 00 00 00 00
  can0  003   [8]  10 02 10 00 04 FF 20 11
  can0  34E   [8]  00 00 AA 00 00 AA 11 31
  can0  005   [8]  11 00 01 81 0D 00 E8 F3
  can0  75E   [8]  00 81 00 2D 18 18 18 18
  can0  073   [8]  05 20 93 63 00 40 C0 DE
  can0  766   [8]  00 00 00 00 00 00 0E 08
  can0  003   [8]  10 02 10 00 04 FF 30 DC
  can0  400   [8]  FD 13 04 0F E0 81 00 05
  can0  201   [8]  A8 66 0E EA FF FF E0 5C
  can0  203   [8]  00 00 00 00 C0 00 C0 00
  can0  105   [8]  02 69 7F 00 00 99 13 C9
  can0  245   [8]  80 07 80 7E 81 84 E0 85
  can0  75E   [8]  00 81 00 2D 18 18 18 18
  can0  336   [8]  6E 42 00 00 00 00 00 00
  can0  073   [8]  05 20 93 63 00 40 D0 13
  can0  003   [8]  10 02 10 00 04 FF 40 85
  can0  35C   [8]  02 10 E0 00 00 FF FF 01
  can0  2EF   [8]  F7 00 FF 0F FF FF FF 00
  can0  005   [8]  11 00 01 80 0D 00 F8 A3
  can0  30D   [8]  80 51 75 FF FF 02 D7 81
  can0  75E   [8]  00 81 00 2D 18 18 18 18
  can0  073   [8]  05 20 93 63 00 40 E0 59
  can0  003   [8]  10 02 10 00 04 FF 50 48
  can0  045   [8]  00 FF 00 00 00 00 70 5A
  can0  766   [8]  00 00 00 00 00 00 0E 08
  can0  201   [8]  A8 66 0E EA FF FF F0 91
  can0  203   [8]  00 00 00 00 C0 00 C0 00
  can0  245   [8]  80 07 80 7E 81 84 F0 85
  can0  001   [8]  CC 83 1F 9E 55 03 41 F8
  can0  105   [8]  02 69 7F 00 00 99 23 83
  can0  073   [8]  05 20 93 63 00 40 F0 94
  can0  75E   [8]  00 81 00 2D 18 18 18 18
  can0  76E   [8]  00 00 00 00 00 00 00 00
  can0  12D   [8]  01 0F 00 00 50 53 56 79
  can0  003   [8]  10 02 10 00 04 FF 60 02
  can0  388   [8]  35 FF 1F CF FF 0F 07 FF
  can0  005   [8]  11 00 01 7F 0D 00 08 7A
  can0  33D   [8]  00 42 00 00 64 00 00 00
  can0  073   [8]  05 20 93 63 00 40 00 EB
  can0  04B   [6]  01 00 0C 06 FF 04
  can0  75E   [8]  00 81 00 2D 18 18 18 18
  can0  375   [8]  13 10 34 3F 3F 07 00 00
  can0  003   [8]  10 02 10 00 04 FF 70 CF
  can0  283   [8]  F5 0D 08 03 C0 6E 3F FF
  can0  766   [8]  00 00 00 00 00 00 0E 08
  can0  328   [2]  07 60
  can0  201   [8]  A8 66 0E EA FF FF 00 EE
  can0  105   [8]  02 68 7F 00 00 99 33 08
  can0  37D   [8]  02 00 04 DA 10 00 FF FF
  can0  203   [8]  00 00 00 00 C0 00 C0 00
  can0  245   [8]  80 06 80 7E 81 84 00 85
  can0  34F   [8]  10 92 00 92 03 E7 07 FF
  can0  073   [8]  05 20 93 63 00 40 10 26
  can0  068   [1]  01
  can0  75E   [8]  00 81 00 2D 18 18 18 18
  can0  003   [8]  10 02 10 00 04 FF 80 B0
  can0  10C   [8]  3B 7F FF 07 03 FF C3 67
  can0  005   [8]  11 00 01 7E 0D 00 18 2A
  can0  249   [8]  27 E8 00 29 FC 00 FF FF
  can0  073   [8]  05 20 93 63 00 40 20 6C
  can0  20E   [8]  3F 00 01 F0 FF FF 3F 68
  can0  75E   [8]  00 81 00 2D 18 18 18 18
  can0  003   [8]  10 02 10 00 04 FF 90 7D
  can0  201   [8]  A8 66 0E EA FF FF 10 23
  can0  247   [8]  00 00 00 06 00 18 00 00
  can0  203   [8]  00 00 00 00 C0 00 C0 00
  can0  351   [8]  00 00 00 00 00 00 00 00
  can0  245   [8]  80 06 80 7E 80 84 10 85
  can0  105   [8]  02 67 7F 00 00 99 43 94
  can0  766   [8]  00 00 00 00 00 00 0E 08
  can0  073   [8]  05 20 93 63 00 40 30 A1
  can0  75E   [8]  00 81 00 2D 18 18 18 18
  can0  776   [8]  00 00 00 00 00 00 00 00
  can0  3D3   [4]  C0 00 00 00
  can0  003   [8]  10 02 10 00 04 FF A0 37
  can0  005   [8]  11 00 01 7E 0D 00 28 60
  can0  007   [8]  F0 05 3A 00 3F FC AF 79
  can0  073   [8]  05 20 93 63 00 40 40 F8
  can0  75E   [8]  00 81 00 2D 18 18 18 18
  can0  003   [8]  10 02 10 00 04 FF B0 FA
  can0  766   [8]  00 00 00 00 00 00 0E 08
  can0  201   [8]  A8 66 0E EA FF FF 20 69
  can0  203   [8]  00 00 00 00 C0 00 C0 00
  can0  105   [8]  02 67 7F 00 00 98 53 15
  can0  205   [8]  06 93 0C 00 01 00 00 00
  can0  245   [8]  80 05 80 7E 80 84 20 85
  can0  073   [8]  05 20 93 63 00 40 50 35
  can0  75E   [8]  00 81 00 2D 18 18 18 18
  can0  39D   [8]  1E 02 01 03 FF 0E 00 6F
  can0  003   [8]  10 02 10 00 04 FF C0 A3
  can0  34E   [8]  00 00 AA 00 00 AA 11 31
  can0  005   [8]  11 00 01 7C 0D 00 38 8A
  can0  073   [8]  05 20 93 63 00 40 60 7F
  can0  75E   [8]  00 81 00 2D 18 18 18 18
  can0  413   [8]  FD 00 04 0F 10 00 00 05
  can0  003   [8]  10 02 10 00 04 FF D0 6E
  can0  201   [8]  A8 66 0E EA FF FF 30 A4
  can0  203   [8]  00 00 00 00 C0 00 C0 00
  can0  245   [8]  80 03 80 7E 80 84 30 85
  can0  766   [8]  00 00 00 00 00 00 0E 08
  can0  105   [8]  02 68 7F 00 00 98 63 9A
  can0  073   [8]  05 20 93 63 00 40 70 B2
  can0  75E   [8]  00 81 00 2D 18 18 18 18
  can0  004   [5]  01 00 00 7D 07
  can0  003   [8]  10 02 10 00 04 FF E0 24
  can0  005   [8]  11 00 01 75 0D 00 48 D2
  can0  30D   [8]  80 51 75 FF FF 02 DC 81
  can0  073   [8]  05 20 93 63 00 40 80 CD
  can0  75E   [8]  00 81 00 2D 18 18 18 18
  can0  003   [8]  10 02 10 00 04 FF F0 E9
  can0  045   [8]  00 FF 00 00 00 00 80 25
  can0  201   [8]  A8 66 0E EA FF FF 40 FD
  can0  766   [8]  00 00 00 00 00 00 0E 08
  can0  105   [8]  02 68 7F 00 00 98 73 57
  can0  001   [8]  CC 83 1F 9E 55 03 51 35
  can0  203   [8]  00 00 00 00 C0 00 C0 00
  can0  245   [8]  80 03 80 7E 80 84 40 85
  can0  073   [8]  05 20 93 63 00 40 90 00
  can0  12D   [8]  01 0F 00 00 50 53 56 79
  can0  75E   [8]  00 81 00 2D 18 18 18 18
  can0  76E   [8]  00 00 00 00 00 00 00 00
  can0  003   [8]  10 02 10 00 04 FF 00 96
  can0  005   [8]  11 00 01 54 0D 00 58 C8
  can0  388   [8]  35 FF 1F CF FF 0F 07 FF
  can0  33D   [8]  00 42 00 00 64 00 00 00
  can0  073   [8]  05 20 93 63 00 40 A0 4A
  can0  375   [8]  13 10 34 3F 3F 07 00 00
  can0  04B   [6]  01 00 0C 06 FF 04
  can0  75E   [8]  00 81 00 2D 18 18 18 18
  can0  003   [8]  10 02 10 00 04 FF 10 5B
  can0  201   [8]  A8 66 0E EA FF FF 50 30
  can0  203   [8]  00 00 00 00 C0 00 C0 00
  can0  245   [8]  80 03 80 7E 80 84 50 85
  can0  283   [8]  F5 0D 08 03 C0 6E 3F FF
  can0  105   [8]  02 6A 7F 00 00 98 83 A4
  can0  766   [8]  00 00 00 00 00 00 0E 08
  can0  34F   [8]  10 92 00 92 03 E7 07 FF
  can0  073   [8]  05 20 93 63 00 40 B0 87
  can0  75E   [8]  00 81 00 2D 18 18 18 18
  can0  003   [8]  10 02 10 00 04 FF 20 11
  can0  005   [8]  11 00 01 1D 0D 00 68 17
  can0  249   [8]  2C 5E 00 30 6F 00 FF FF
  can0  073   [8]  05 20 93 63 00 40 C0 DE
  can0  75E   [8]  00 81 00 2D 18 18 18 18
  can0  003   [8]  10 02 10 00 04 FF 30 DC
  can0  201   [8]  A8 66 0E EA FF FF 60 7A
  can0  766   [8]  00 00 00 00 00 00 0E 08
  can0  105   [8]  02 6B 7F 00 00 98 93 2F
  can0  203   [8]  00 00 00 00 C0 00 C0 00
  can0  245   [8]  80 05 80 7E 80 84 60 85
  can0  247   [8]  00 00 00 06 00 18 00 00
  can0  073   [8]  05 20 93 63 00 40 D0 13
  can0  34D   [2]  10 00
  can0  75E   [8]  00 81 00 2D 18 18 18 18
  can0  003   [8]  10 02 10 00 04 FF 40 85
  can0  005   [8]  11 00 00 E4 0D 00 78 7F
  can0  007   [8]  F0 05 3A 00 3F FC AF 79
  can0  073   [8]  05 20 93 63 00 40 E0 59
  can0  75E   [8]  00 81 00 2D 18 18 18 18
  can0  003   [8]  10 02 10 00 04 FF 50 48
  can0  201   [8]  A8 66 0E EA FF FF 70 B7
  can0  203   [8]  00 00 00 00 C0 00 C0 00
  can0  245   [8]  80 03 80 7E 81 84 70 85
  can0  766   [8]  00 00 00 00 00 00 0E 08
  can0  105   [8]  02 6B 7F 00 00 99 A3 29
  can0  205   [8]  06 93 0C 00 01 00 00 00
  can0  3D1   [4]  C6 0B 00 00
  can0  400   [8]  FD 13 04 0F E0 81 00 05
  can0  073   [8]  05 20 93 63 00 80 F0 B7
  can0  39D   [8]  1E 02 01 03 FF 0E 00 77
  can0  3F6   [5]  02 00 00 00 00
  can0  75E   [8]  00 81 00 2D 18 18 18 18
  can0  003   [8]  10 02 10 00 04 FF 60 02
  can0  34E   [8]  00 00 AA 00 00 AA 11 31
  can0  005   [8]  11 00 00 AF 0D 00 88 B2
  can0  073   [8]  05 20 93 63 00 80 00 C8
  can0  75E   [8]  00 81 00 2D 18 18 18 18
  can0  204   [8]  00 57 44 44 4B 4A 36 46
  can0  003   [8]  10 02 10 00 04 FF 70 CF
  can0  201   [8]  A8 66 0E EA FF FF 80 C8
  can0  203   [8]  00 00 00 00 C0 00 C0 00
  can0  105   [8]  02 6B 7F 00 00 99 B3 E4
  can0  245   [8]  80 01 80 7E 84 84 80 85
  can0  766   [8]  00 00 00 00 00 00 0E 08
  can0  073   [8]  05 20 93 63 00 80 10 05
  can0  336   [8]  6E 42 00 00 00 00 00 00
  can0  75E   [8]  00 81 00 2D 18 18 18 18
  can0  003   [8]  10 02 10 00 04 FF 80 B0
  can0  35C   [8]  02 10 E0 00 00 FF FF 01
  can0  2EF   [8]  F7 00 FF 0F FF FF FF 00
  can0  005   [8]  11 00 00 84 0D 00 98 13
  can0  30D   [8]  80 51 75 FF FF 02 E0 81
  can0  073   [8]  05 20 93 63 00 80 20 4F
  can0  75E   [8]  00 81 00 2D 18 18 18 18
  can0  204   [8]  01 42 31 47 46 33 31 34
  can0  003   [8]  10 02 10 00 04 FF 90 7D
  can0  045   [8]  00 FF 00 00 00 00 90 E8
  can0  201   [8]  A8 66 0E EB FF FF 90 98
  can0  203   [8]  00 00 00 00 C0 00 C0 00
  can0  245   [8]  7F FF 80 7E 88 84 90 85
  can0  105   [8]  02 6B 7F 00 00 99 C3 BD
  can0  001   [8]  CC 83 1F 9E 55 03 61 7F
  can0  002   [5]  01 00 C3 8C 07
  can0  1C0   [2]  00 00
  can0  766   [8]  00 00 00 00 00 00 0E 08
  can0  073   [8]  05 20 93 63 00 80 30 82
  can0  12D   [8]  01 0F 00 00 50 53 56 79
  can0  003   [8]  10 02 10 00 04 FF A0 37
  can0  75E   [8]  00 81 00 2D 18 18 18 18
  can0  76E   [8]  00 00 00 00 00 00 00 00
  can0  005   [8]  00 00 00 64 0D 00 A8 56
  can0  33D   [8]  00 42 00 00 64 00 00 00
  can0  388   [8]  35 FF 1F CF FF 0F 07 FF
  can0  073   [8]  05 20 93 63 00 80 40 DB
  can0  375   [8]  13 10 34 3F 3F 07 00 00
  can0  003   [8]  10 02 10 00 04 FF B0 FA
  can0  204   [8]  02 33 33 35 FF FF FF FF
  can0  04B   [6]  01 00 0C 06 FF 04
  can0  75E   [8]  00 81 00 2D 18 18 18 18
  can0  201   [8]  A8 66 0E EB FF FF A0 D2
  can0  001   [8]  CC 81 1F 9E 55 03 71 3E
  can0  203   [8]  00 00 00 00 C0 00 C0 00
  can0  105   [8]  02 6B 7F 00 00 99 D3 70
  can0  245   [8]  7F FF 80 7E 89 84 A0 85
  can0  34F   [8]  10 92 00 92 03 E7 07 FF
  can0  073   [8]  05 20 93 63 00 80 50 16
  can0  283   [8]  F5 0D 08 03 C0 6E 3F FF
  can0  766   [8]  00 00 00 00 00 00 0E 08
  can0  328   [2]  07 60
  can0  003   [8]  10 02 0F FF 04 FF C0 97
  can0  068   [1]  01
  can0  005   [8]  00 00 00 4C 0D 00 B8 4D
  can0  75E   [8]  00 81 00 2D 18 18 18 18
  can0  10E   [4]  00 C0 00 02
  can0  249   [8]  34 7D 00 39 0F 00 FF FF
  can0  37D   [8]  02 00 04 DB 10 00 FF FF
  can0  073   [8]  05 20 93 63 00 80 60 5C
  can0  10D   [4]  00 A0 3E 00
  can0  10C   [8]  3B 7F FF 07 03 FF C3 67
  can0  003   [8]  10 02 0F FF 04 FF D0 5A
  can0  30E   [8]  0C 00 00 00 00 05 FF 03
  can0  201   [8]  A8 67 0E EB FF FF B0 59
  can0  247   [8]  00 00 00 06 00 18 00 00
  can0  203   [8]  00 00 00 00 C0 00 C0 00
  can0  245   [8]  7F FD 80 7E 87 84 B0 85
  can0  20E   [8]  3F 00 01 F0 FF FF 3F 68
  can0  105   [8]  02 6C 7F 00 00 99 E3 F5
  can0  75E   [8]  00 81 00 2D 18 18 18 18
  can0  317   [2]  0A 00
  can0  073   [8]  05 20 93 63 00 80 70 91
  can0  351   [8]  00 00 00 00 00 00 00 00
  can0  766   [8]  00 00 00 00 00 00 0E 08
  can0  3D3   [4]  C0 00 00 00
  can0  003   [8]  10 02 0F FF 04 FF E0 10
  can0  005   [8]  00 00 00 3A 0D 00 C8 86
  can0  007   [8]  F0 05 3A 00 3F FC AF 79
  can0  75E   [8]  00 81 00 2D 18 18 18 18
  can0  776   [8]  00 00 00 00 00 00 00 00
  can0  073   [8]  05 20 93 63 00 80 80 EE
  can0  208   [8]  1F 40 11 80 00 06 40 A8
  can0  413   [8]  FD 00 04 0F 10 00 00 05
  can0  003   [8]  10 02 0F FF 04 FF F0 DD
  can0  201   [8]  A8 67 0E EB FF FF C0 00
  can0  203   [8]  00 00 00 00 C0 00 C0 00
  can0  105   [8]  02 6C 7F 00 00 98 F3 74
  can0  205   [8]  06 93 0C 00 01 00 00 00
  can0  245   [8]  7F FB 80 7E 87 84 C0 85
  can0  207   [8]  10 09 3D 22 0F CB 4D AC
  can0  75E   [8]  00 81 00 2D 18 18 18 18
  can0  073   [8]  05 20 93 63 00 80 90 23
  can0  39D   [8]  1E 02 01 03 FF 0E 00 7F
  can0  206   [8]  00 00 0D 20 C1 80 D2 CC
  can0  766   [8]  00 00 00 00 00 00 0E 08
  can0  003   [8]  10 02 0F FF 04 FF 00 A2
  can0  34E   [8]  00 00 AA 00 00 AA 11 31
  can0  005   [8]  00 00 00 2D 0D 00 D8 9A
  can0  007   [8]  F0 05 38 00 3F FC AF 79
  can0  20A   [8]  FA FF 00 FC FF FF FF 7F
  can0  75E   [8]  00 81 00 2D 18 18 18 18
  can0  073   [8]  05 20 93 63 00 80 A0 69
  can0  003   [8]  10 02 0F FF 04 FF 10 6F
  can0  201   [8]  A8 67 0E EB FF FF D0 CD
  can0  203   [8]  00 00 00 00 C0 00 C0 00
  can0  245   [8]  80 03 80 7E 87 84 D0 85
  can0  105   [8]  02 6D 7F 00 00 98 03 4D
  can0  75E   [8]  00 81 00 2D 18 18 18 18
  can0  073   [8]  05 20 93 63 00 80 B0 A4
  can0  766   [8]  00 00 00 00 00 00 0E 08
  can0  003   [8]  10 02 0F FF 04 FF 20 25
  can0  005   [8]  00 00 00 22 0D 00 E8 B8
  can0  30D   [8]  80 51 75 FF FF 02 E0 81
  can0  75E   [8]  00 81 00 2D 18 18 18 18
  can0  073   [8]  05 20 93 63 00 80 C0 FD
  can0  003   [8]  10 02 0F FF 04 FF 30 E8
  can0  045   [8]  00 FF 00 00 00 00 A0 A2
  can0  201   [8]  A8 67 0E EB FF FF E0 87
  can0  001   [8]  CC 81 1F 9E 55 03 81 41
  can0  203   [8]  00 00 00 00 C0 00 C0 00
  can0  245   [8]  80 03 80 7E 86 84 E0 85
  can0  105   [8]  02 6E 7F 00 00 98 13 4A
  can0  2FF   [8]  02 28 00 53 FF 53 61 FE
  can0  75E   [8]  00 81 00 2D 18 18 18 18
  can0  073   [8]  05 20 93 63 00 80 D0 30
  can0  12D   [8]  01 0F 00 00 50 53 56 79
  can0  766   [8]  00 00 00 00 00 00 0E 08
  can0  003   [8]  10 02 0F FF 04 FF 40 B1
  can0  005   [8]  00 00 00 1A 0D 00 F8 86
  can0  33D   [8]  00 42 00 00 64 00 00 00
  can0  75E   [8]  00 81 00 2D 18 18 18 18
  can0  76E   [8]  00 00 00 00 00 00 00 00
  can0  073   [8]  05 20 93 63 00 80 E0 7A
  can0  375   [8]  13 10 34 3F 3F 07 00 00
  can0  388   [8]  35 FF 1F CF FF 0F 07 FF
  can0  003   [8]  10 02 0F FF 04 FF 50 7C
  can0  201   [8]  A8 67 0E EB FF FF F0 4A
  can0  203   [8]  00 00 00 00 C0 00 C0 00
  can0  105   [8]  02 6E 7F 00 00 98 23 00
  can0  245   [8]  80 03 80 7E 86 84 F0 85
  can0  34F   [8]  10 92 00 92 03 E7 07 FF
  can0  04B   [6]  01 00 0C 06 FF 04
  can0  75E   [8]  00 81 00 2D 18 18 18 18
  can0  073   [8]  05 20 93 63 00 80 F0 B7
  can0  283   [8]  F5 0D 08 03 C0 6E 3F FF
  can0  003   [8]  10 02 10 00 04 FF 60 02
  can0  766   [8]  00 00 00 00 00 00 0E 08
  can0  005   [8]  00 00 00 14 0D 00 08 0C
  can0  249   [8]  3C 39 00 FF FF 00 03 FF
  can0  75E   [8]  00 81 00 2D 18 18 18 18
  can0  073   [8]  05 20 93 63 00 80 00 C8
  can0  003   [8]  10 02 10 00 04 FF 70 CF
  can0  201   [8]  A8 67 0E EB FF FF 00 35
  can0  203   [8]  00 00 00 00 C0 00 C0 00
  can0  105   [8]  02 6E 7F 00 00 98 33 CD
  can0  245   [8]  7F FD 80 7E 86 84 00 85
  can0  247   [8]  00 00 00 06 00 18 00 00
  can0  75E   [8]  00 81 00 2D 18 18 18 18
  can0  073   [8]  05 20 93 63 00 80 10 05
  can0  766   [8]  00 00 00 00 00 00 0E 08
  can0  003   [8]  10 02 10 00 04 FF 80 B0
  can0  400   [8]  FD 13 04 0F E0 81 00 05
  can0  005   [8]  00 00 00 0F 0D 00 18 C2
  can0  007   [8]  F0 05 38 00 3F FC AF 79
  can0  75E   [8]  00 81 00 2D 18 18 18 18
  can0  073   [8]  05 20 93 63 00 80 20 4F
  can0  003   [8]  10 02 10 00 04 FF 90 7D
  can0  26F   [2]  6F C0
  can0  201   [8]  A9 67 0E EB FF FF 10 A5
  can0  203   [8]  00 00 00 00 C0 00 C0 00
  can0  245   [8]  80 00 80 7E 87 84 10 85
  can0  105   [8]  02 6D 7F 00 00 98 43 5E
  can0  205   [8]  06 93 0C 00 01 00 00 00
  can0  3D1   [4]  C6 0B 00 00
  can0  75E   [8]  00 81 00 2D 18 18 18 18
  can0  073   [8]  05 20 93 63 00 80 30 82
  can0  39D   [8]  1E 02 01 03 FF 0E 00 07
  can0  3F6   [5]  02 00 00 00 00
  can0  766   [8]  00 00 00 00 00 00 0E 08
  can0  003   [8]  10 02 10 00 04 FF A0 37
  can0  34E   [8]  00 00 AA 00 00 AA 11 31
  can0  005   [8]  00 00 00 0B 0D 00 28 C6
  can0  75E   [8]  00 81 00 2D 18 18 18 18
  can0  073   [8]  05 20 93 63 00 80 40 DB
  can0  003   [8]  10 02 10 00 04 FF B0 FA
  can0  201   [8]  A9 67 0F EB FF FF 20 85
  can0  203   [8]  00 00 00 00 C0 00 C0 00
  can0  105   [8]  02 6D 7F 12 0D 98 54 47
  can0  245   [8]  80 05 80 7E 88 84 20 85
  can0  75E   [8]  00 81 00 2D 18 18 18 18
  can0  073   [8]  05 20 93 63 00 80 50 16
  can0  336   [8]  6E 42 00 00 00 00 00 00
  can0  003   [8]  10 02 10 00 04 FF C0 A3
  can0  766   [8]  00 00 00 00 00 00 0E 08
  can0  005   [8]  00 00 00 09 0D 00 38 2C
  can0  2EF   [8]  F7 00 FF 0F FF FF FF 00
  can0  30D   [8]  80 51 75 FF FF 02 E0 81
  can0  35C   [8]  02 10 E0 00 00 FF FF 01
  can0  75E   [8]  00 81 00 2D 18 18 18 18
  can0  073   [8]  05 20 93 63 00 80 60 5C
  can0  003   [8]  10 02 10 00 04 FF D0 6E
  can0  045   [8]  00 FF 00 00 00 00 B0 6F
  can0  1C1   [4]  00 00 00 00
  can0  201   [8]  A9 67 0F EC FF FF 30 BC
  can0  203   [8]  00 00 00 00 C0 00 C0 00
  can0  245   [8]  80 06 80 7E 88 84 30 85
  can0  001   [8]  CC 81 1F 9E 55 03 91 8C
  can0  105   [8]  02 6C 7F 20 16 98 64 9B
  can0  75E   [8]  00 81 00 2D 18 18 18 18
  can0  073   [8]  05 20 93 63 00 80 70 91
  can0  12D   [8]  01 0F 00 00 50 53 56 79
  can0  3E3   [8]  5A FD 96 34 29 CF 5E BC
  can0  003   [8]  10 02 10 00 04 FF E0 24
  can0  766   [8]  00 00 00 00 00 00 0E 08
  can0  3E5   [8]  0E 0A 0A 14 04 FF FF 00
  can0  005   [8]  00 00 00 06 0D 00 48 1D
  can0  33D   [8]  00 42 00 00 64 00 00 00
  can0  3F2   [8]  00 2B 00 0E 00 00 3F FD
  can0  3E7   [8]  5A FD 97 2D 29 CF 5E 0F
  can0  75E   [8]  00 81 00 2D 18 18 18 18
  can0  76E   [8]  00 00 00 00 00 00 00 00
  can0  073   [8]  05 20 93 63 00 80 80 EE
  can0  375   [8]  13 10 34 3F 3F 07 00 00
  can0  39F   [8]  12 01 0E 02 0B 19 0A FF
  can0  003   [8]  10 02 10 00 04 FF F0 E9
  can0  3E9   [8]  07 E9 0B 03 02 01 05 14
  can0  388   [8]  35 FF 1F CF FF 0F 07 FF
  can0  19F   [8]  00 00 75 F0 48 22 61 F4
  can0  3EB   [8]  00 01 06 4C 0D 29 0D 86
  can0  3B8   [8]  00 00 00 60 41 05 00 00
  can0  201   [8]  A9 67 0F EC FF FF 40 E5
  can0  105   [8]  02 6C 7F 2D 20 98 74 34
  can0  328   [2]  07 60
  can0  203   [8]  00 00 00 00 C0 00 C0 00
  can0  245   [8]  80 05 80 7E 88 84 40 85
  can0  34F   [8]  10 92 00 92 03 E7 07 FF
  can0  37D   [8]  02 00 04 DB 10 00 FF FF
  can0  073   [8]  05 20 93 63 00 80 90 23
  can0  04B   [6]  01 00 0C 06 FF 04
  can0  75E   [8]  00 81 00 2D 18 18 18 18
  can0  003   [8]  10 02 10 00 04 FF 00 96
  can0  283   [8]  F5 0D 08 03 C0 6E 3F FF
  can0  005   [8]  00 00 00 05 0D 00 58 6A
  can0  766   [8]  00 00 00 00 00 00 0E 08
  can0  249   [8]  04 70 00 0A B4 00 FF FF
  can0  073   [8]  05 20 93 63 00 80 A0 69
  can0  068   [1]  01
  can0  75E   [8]  00 81 00 2D 18 18 18 18
  can0  003   [8]  10 02 10 00 04 FF 10 5B
  can0  201   [8]  A9 68 0F EC FF FF 50 ED
  can0  10C   [8]  3B 7F FF 07 03 FF C3 67
  can0  203   [8]  00 00 00 00 C0 00 C0 00
  can0  247   [8]  00 00 00 06 00 18 00 00
  can0  105   [8]  02 77 7F 2D 21 98 84 10
  can0  245   [8]  80 03 80 7E 88 84 50 85
  can0  2C4   [8]  00 00 FC 3F 7F FF 3F FF
  can0  073   [8]  05 20 93 63 00 80 B0 A4
  can0  20E   [8]  3F 00 01 F0 FF FF 3F 68
  can0  75E   [8]  00 81 00 2D 18 18 18 18
  can0  413   [8]  FD 00 04 0F 10 00 00 05
  can0  3D3   [4]  C0 00 00 00
  can0  003   [8]  10 02 10 00 04 FF 20 11
  can0  351   [8]  00 00 00 00 00 00 00 00
  can0  005   [8]  00 00 00 03 0D 00 68 49
  can0  766   [8]  00 00 00 00 00 00 0E 08
  can0  007   [8]  F0 05 38 00 3F FC AF 79
  can0  073   [8]  05 20 93 63 00 80 C0 FD
  can0  75E   [8]  00 81 00 2D 18 18 18 18
  can0  776   [8]  00 00 00 00 00 00 00 00
  can0  003   [8]  10 02 10 00 04 FF 30 DC
  can0  201   [8]  A9 68 0F EC FF FF 60 A7
  can0  203   [8]  00 00 00 00 C0 00 C0 00
  can0  245   [8]  80 02 80 7E 88 84 60 85
  can0  105   [8]  02 7D 7F 2E 21 97 94 42
  can0  205   [8]  06 93 0C 00 01 00 00 00
  can0  073   [8]  05 20 93 63 00 80 D0 30
  can0  75E   [8]  00 81 00 2D 18 18 18 18
  can0  39D   [8]  1E 02 01 03 FF 0E 00 0F
  can0  003   [8]  10 02 10 00 04 FF 40 85
  can0  34E   [8]  00 00 AA 00 00 AA 11 31
  can0  766   [8]  00 00 00 00 00 00 0E 08
  can0  005   [8]  00 00 00 02 0D 00 78 19
  can0  073   [8]  05 20 93 63 00 80 E0 7A
  can0  75E   [8]  00 81 00 2D 18 18 18 18
  can0  003   [8]  10 02 10 00 04 FF 50 48
  can0  201   [8]  AA 68 0F EC FF FF 70 8D
  can0  203   [8]  00 00 00 00 C0 00 C0 00
  can0  245   [8]  80 01 80 7E 88 84 70 85
  can0  105   [8]  02 7D 7F 30 23 97 A4 DB
  can0  073   [8]  05 20 93 63 00 80 F0 B7
  can0  75E   [8]  00 81 00 2D 18 18 18 18
  can0  003   [8]  10 02 10 00 04 FF 60 02
  can0  766   [8]  00 00 00 00 00 00 0E 08
  can0  005   [8]  00 00 00 02 0D 00 88 66
  can0  30D   [8]  80 51 75 FF FF 02 E0 81
  can0  073   [8]  05 20 93 63 00 80 00 C8
  can0  75E   [8]  00 81 00 2D 18 18 18 18
  can0  003   [8]  10 02 10 00 04 FF 70 CF
  can0  045   [8]  00 FF 00 00 00 00 C0 36
  can0  201   [8]  AA 68 0F EC FF FF 80 F2
  can0  001   [8]  CC 81 1F 9E 55 03 A1 C6
  can0  203   [8]  00 00 00 00 C0 00 C0 00
  can0  105   [8]  02 87 7F 32 24 97 B4 F1
  can0  245   [8]  7F FF 80 7E 87 84 80 85
  can0  073   [8]  05 20 93 63 00 80 10 05
  can0  75E   [8]  00 81 00 2D 18 18 18 18
  can0  12D   [8]  01 0F 00 00 50 53 56 79
  can0  003   [8]  10 02 10 00 04 FF 80 B0
  can0  766   [8]  00 00 00 00 00 00 0E 08
  can0  005   [8]  00 00 00 01 0D 00 98 11
  can0  33D   [8]  00 42 00 00 64 00 00 00
  can0  073   [8]  05 20 93 63 00 80 20 4F
  can0  75E   [8]  00 81 00 2D 18 18 18 18
  can0  76E   [8]  00 00 00 00 00 00 00 00
  can0  375   [8]  13 10 34 3F 3F 07 00 00
  can0  003   [8]  10 02 10 00 04 FF 90 7D
  can0  201   [8]  AA 68 10 ED FF FF 90 30
  can0  388   [8]  35 FF 1F CF FF 0F 07 FF
  can0  203   [8]  00 00 00 00 C0 00 C0 00
  can0  245   [8]  7F FE 80 7E 87 84 90 85
  can0  105   [8]  02 93 7F 33 26 97 C4 27
  can0  34F   [8]  10 92 00 92 03 E7 07 FF
  can0  073   [8]  05 20 93 63 00 80 30 82
  can0  04B   [6]  01 00 0C 06 FF 04
  can0  75E   [8]  00 81 00 2D 18 18 18 18
  can0  003   [8]  10 02 10 00 04 FF A0 37
  can0  005   [8]  00 00 00 01 0D 00 A8 5B
  can0  283   [8]  F5 0D 08 03 C0 6E 3F FF
  can0  766   [8]  00 00 00 00 00 00 0E 08
  can0  400   [8]  FD 13 04 0F E0 81 00 05
  can0  249   [8]  0C B6 00 13 E8 00 FF FF
  can0  073   [8]  05 20 93 63 00 80 40 DB
  can0  75E   [8]  00 81 00 2D 18 18 18 18
  can0  003   [8]  10 02 10 00 04 FF B0 FA
  can0  201   [8]  AA 69 10 ED FF FF A0 3C
  can0  203   [8]  00 00 00 00 C0 00 C0 00
  can0  105   [8]  02 93 7F 36 29 97 D4 BF
  can0  245   [8]  80 00 80 7E 88 84 A0 85
  can0  247   [8]  00 00 00 06 00 18 00 00
  can0  073   [8]  05 20 93 63 00 80 50 16
  can0  75E   [8]  00 81 00 2D 18 18 18 18
  can0  003   [8]  10 02 10 00 04 FF C0 A3
  can0  766   [8]  00 00 00 00 00 00 0E 08
  can0  005   [8]  00 00 00 00 0D 00 B8 0B
  can0  007   [8]  F0 05 38 00 3F FC AF 79
  can0  073   [8]  05 20 93 63 00 80 60 5C
  can0  75E   [8]  00 81 00 2D 18 18 18 18
  can0  003   [8]  10 02 10 00 04 FF D0 6E
  can0  201   [8]  AA 69 10 ED FF FF B0 F1
  can0  203   [8]  00 00 00 00 C0 00 C0 00
  can0  245   [8]  80 07 80 7E 88 84 B0 85
  can0  105   [8]  02 A3 7F 39 2C 95 E4 B0
  can0  205   [8]  06 93 0C 00 01 00 00 00
  can0  3D1   [4]  C6 0B 00 00
  can0  073   [8]  05 20 93 63 00 80 70 91
  can0  75E   [8]  00 81 00 2D 18 18 18 18
  can0  39D   [8]  1E 02 01 03 FF 0E 00 17
  can0  3F6   [5]  02 00 00 00 00
  can0  003   [8]  10 02 10 00 04 FF E0 24
  can0  34E   [8]  00 00 AA 00 00 AA 11 31
  can0  766   [8]  00 00 00 00 00 00 0E 08
  can0  005   [8]  00 00 00 00 0D 00 C8 52
  can0  073   [8]  05 20 93 63 00 80 80 EE
  can0  75E   [8]  00 81 00 2D 18 18 18 18
  can0  003   [8]  10 02 10 00 04 FF F0 E9
  can0  201   [8]  AB 69 10 ED FF FF C0 F5
  can0  203   [8]  00 00 00 00 C0 00 C0 00
  can0  245   [8]  80 03 80 7E 89 84 C0 85
  can0  105   [8]  02 BA 7F 3B 2E 95 F4 01
  can0  073   [8]  05 20 93 63 00 80 90 23
  can0  336   [8]  6E 42 00 00 00 00 00 00
  can0  75E   [8]  00 81 00 2D 18 18 18 18
  can0  004   [5]  01 00 00 7D 07
  can0  003   [8]  10 02 10 00 04 FF 00 96
  can0  35C   [8]  02 10 E0 00 00 FF FF 01
  can0  005   [8]  00 00 00 00 0D 00 D8 9F
  can0  2EF   [8]  F7 00 FF 0F FF FF FF 00
  can0  766   [8]  00 00 00 00 00 00 0E 08
  can0  30D   [8]  80 51 75 FF FF 02 E5 81
  can0  073   [8]  05 20 93 63 00 80 A0 69
  can0  75E   [8]  00 81 00 2D 18 18 18 18
  can0  003   [8]  10 02 10 00 04 FF 10 5B
  can0  045   [8]  00 FF 00 00 00 00 D0 FB
  can0  201   [8]  AB 69 11 EE FF FF D0 E8
  can0  203   [8]  40 0A 00 00 C0 00 C0 00
  can0  245   [8]  7F FF 80 7E 89 84 D0 85
  can0  001   [8]  CC 81 1F 9E 55 03 B1 0B
  can0  105   [8]  02 BA 7F 3D 2F 95 04 98
  can0  073   [8]  05 20 93 63 00 80 B0 A4
  can0  12D   [8]  01 0F 00 00 50 53 56 79
  can0  75E   [8]  00 81 00 2D 18 18 18 18
  can0  003   [8]  10 02 10 00 04 FF 20 11
  can0  005   [8]  00 00 00 00 0D 00 E8 D5
  can0  33D   [8]  00 42 00 00 64 00 00 00
  can0  205   [8]  06 93 0C 00 00 00 00 00
  can0  766   [8]  00 00 00 00 00 00 0E 08
  can0  073   [8]  05 20 93 63 00 80 C0 FD
  can0  375   [8]  13 10 34 3F 3F 07 00 00
  can0  75E   [8]  00 81 00 2D 18 18 18 18
  can0  003   [8]  10 02 10 00 04 FF 30 DC
  can0  76E   [8]  00 00 00 00 00 00 00 00
  can0  328   [2]  07 60
  can0  201   [8]  AB 6A 11 EE FF FF E0 68
  can0  105   [8]  02 DE 7F 3E 30 95 14 0C
  can0  37D   [8]  02 00 04 DD 10 00 FF FF
  can0  203   [8]  40 0A 40 08 C0 0A C0 0B
  can0  245   [8]  7F FE 80 7E 8A 84 E0 85
  can0  34F   [8]  10 92 00 92 03 E7 07 FF
  can0  388   [8]  35 FF 1F CF FF 0F 07 FF
  can0  073   [8]  05 20 93 63 00 80 D0 30
  can0  413   [8]  FD 00 04 0F 10 00 00 05
  can0  003   [8]  10 02 10 00 04 FF 40 85
  can0  04B   [6]  01 00 0C 06 FF 04
  can0  75E   [8]  00 81 00 2D 18 18 18 18
  can0  005   [8]  00 00 00 00 0D 00 F8 18
  can0  249   [8]  17 E8 00 1B E8 00 FF FF
  can0  283   [8]  F5 0D 08 03 C0 6E 3F FF
  can0  766   [8]  00 00 00 00 00 00 0E 08
  can0  073   [8]  05 20 93 63 00 80 E0 7A
  can0  003   [8]  10 02 10 00 04 FF 50 48
  can0  068   [1]  01
  can0  75E   [8]  00 81 00 2D 18 18 18 18
  can0  201   [8]  AB 6A 11 EE FF FF F0 A5
  can0  247   [8]  00 00 00 06 00 18 00 00
  can0  203   [8]  40 0A 40 0C C0 0A C0 0B
  can0  245   [8]  7F FE 80 7E 8B 84 F0 85
  can0  105   [8]  03 07 7F 41 32 95 24 23
  can0  10C   [8]  3B 7F FF 07 03 FF C3 67
  can0  073   [8]  05 20 93 63 00 80 F0 B7
  can0  34D   [2]  10 00
  can0  3D3   [4]  C0 00 00 00
  can0  003   [8]  10 02 10 00 04 FF 60 02
  can0  20E   [8]  3F 00 01 F0 FF FF 3F 68
  can0  75E   [8]  00 81 00 2D 18 18 18 18
  can0  19F   [8]  00 05 75 F0 48 22 61 F4
  can0  005   [8]  00 00 00 00 0D 00 08 67
  can0  007   [8]  F0 05 38 00 3F FC AF 79
  can0  073   [8]  05 20 93 63 00 80 00 C8
  can0  351   [8]  00 00 00 00 00 00 00 00
  can0  766   [8]  00 00 00 00 00 00 0E 08
  can0  003   [8]  10 02 10 00 04 FF 70 CF
  can0  75E   [8]  00 81 00 2D 18 18 18 18
  can0  776   [8]  00 00 00 00 00 00 00 00
  can0  201   [8]  AC 6A 11 EE FF FF 00 54
  can0  203   [8]  40 0E 40 0C C0 0A C0 0B
  can0  105   [8]  03 2C 7F 40 32 92 34 62
  can0  205   [8]  06 93 0C 00 00 00 00 00
  can0  245   [8]  80 00 80 7E 8C 84 00 85
  can0  073   [8]  05 20 93 63 00 80 10 05
  can0  39D   [8]  1E 02 01 03 FF 0E 00 1F
  can0  003   [8]  10 02 10 00 04 FF 80 B0
  can0  34E   [8]  00 00 AA 00 00 AA 11 31
  can0  75E   [8]  00 81 00 2D 18 18 18 18
  can0  005   [8]  00 00 00 00 0D 00 18 AA
  can0  073   [8]  05 20 93 63 00 80 20 4F
  can0  766   [8]  00 00 00 00 00 00 0E 08
  can0  003   [8]  10 02 10 00 04 FF 90 7D
  can0  201   [8]  AC 6B 12 EF FF FF 10 FC
  can0  203   [8]  40 0E 40 0C C0 0F C0 0C
  can0  245   [8]  7F FC 80 7E 8E 84 10 85
  can0  75E   [8]  00 81 00 2D 18 18 18 18
  can0  105   [8]  03 50 7F 3F 31 92 44 47
  can0  073   [8]  05 20 93 63 00 80 30 82
  can0  003   [8]  10 02 10 00 04 FF A0 37
  can0  005   [8]  00 00 00 00 0D 00 28 E0
  can0  75E   [8]  00 81 00 2D 18 18 18 18
  can0  30D   [8]  80 51 75 FF FF 02 FE 81
  can0  073   [8]  05 20 93 63 00 80 40 DB
  can0  766   [8]  00 00 00 00 00 00 0E 08
  can0  003   [8]  10 02 10 00 04 FF B0 FA
  can0  045   [8]  00 FF 00 00 00 00 E0 B1
  can0  75E   [8]  00 81 00 2D 18 18 18 18
  can0  201   [8]  AC 6B 12 EF FF FF 20 B6
  can0  001   [8]  CC 81 1F 9E 55 03 C1 52
  can0  203   [8]  40 0E 40 10 C0 0F C0 0F
  can0  245   [8]  7F FB 80 7E 8F 84 20 85
  can0  105   [8]  03 74 7F 3F 31 92 54 A7
  can0  002   [5]  01 00 C3 8C 07
  can0  073   [8]  05 20 93 63 00 80 50 16
  can0  12D   [8]  01 0F 00 00 50 53 56 79
  can0  003   [8]  10 02 10 00 04 FF C0 A3
  can0  75E   [8]  00 81 00 2D 18 18 18 18
  can0  005   [8]  00 00 00 00 0D 00 38 2D
  can0  33D   [8]  00 42 00 00 64 00 00 00
  can0  073   [8]  05 20 93 63 00 80 60 5C
  can0  766   [8]  00 00 00 00 00 00 0E 08
  can0  375   [8]  13 10 34 3F 3F 07 00 00
  can0  400   [8]  FD 13 04 0F E0 81 00 05
  can0  003   [8]  10 02 10 00 04 FF D0 6E
  can0  201   [8]  AD 6B 13 EF FF FF 30 4C
  can0  75E   [8]  00 81 00 2D 18 18 18 18
  can0  203   [8]  40 12 40 10 C0 10 C0 0F
  can0  245   [8]  7F FE 80 7E 91 84 30 85
  can0  76E   [8]  00 00 00 00 00 00 00 00
  can0  105   [8]  03 94 7F 3F 31 92 64 35
  can0  34F   [8]  10 92 00 92 03 E7 07 FF
  can0  073   [8]  05 20 93 63 00 80 70 91
  can0  388   [8]  35 FF 1F CF FF 0F 07 FF
  can0  003   [8]  10 02 10 00 04 FF E0 24
  can0  005   [8]  00 00 00 00 0D 00 48 74
  can0  10E   [4]  00 C0 00 02
  can0  04B   [6]  01 00 0C 06 FF 04
  can0  75E   [8]  00 81 00 2D 18 18 18 18
  can0  249   [8]  1F E8 00 23 E8 00 FF FF
  can0  073   [8]  05 20 93 63 00 80 80 EE
  can0  10D   [4]  00 A0 3E 00
  can0  283   [8]  F5 0D 08 03 C0 6E 3F FF
  can0  766   [8]  00 00 00 00 00 00 0E 08
  can0  003   [8]  10 02 10 00 04 FF F0 E9
  can0  201   [8]  AD 6C 13 F0 FF FF 40 97
  can0  203   [8]  40 12 40 11 C0 15 C0 13
  can0  105   [8]  03 94 7F 3F 31 92 74 F8
  can0  75E   [8]  00 81 00 2D 18 18 18 18
  can0  245   [8]  7F FD 80 7E 93 84 40 85
  can0  247   [8]  00 00 00 06 00 18 00 00
  can0  073   [8]  05 20 93 63 00 80 90 23
  can0  003   [8]  10 02 10 00 04 FF 00 96
  can0  19F   [8]  00 0A 75 F0 48 22 61 F4
  can0  005   [8]  00 00 00 00 0D 00 58 B9
  can0  75E   [8]  00 81 00 2D 18 18 18 18
  can0  007   [8]  F0 05 38 00 3F FC AF 79
  can0  073   [8]  05 20 93 63 00 80 A0 69
  can0  766   [8]  00 00 00 00 00 00 0E 08
  can0  003   [8]  10 02 10 00 04 FF 10 5B
  can0  201   [8]  AE 6C 14 F0 FF FF 50 B6
  can0  203   [8]  40 13 40 15 C0 15 C0 13
  can0  245   [8]  7F FB 80 7E 95 84 50 85
  can0  105   [8]  03 B0 7F 3F 31 8B 84 08
  can0  75E   [8]  00 81 00 2D 18 18 18 18
  can0  205   [8]  06 93 0C 00 00 00 00 00
  can0  3D1   [4]  C6 0B 00 00
  can0  073   [8]  05 20 93 63 00 80 B0 A4
  can0  39D   [8]  1E 02 01 03 FF 0E 00 27
  can0  3F6   [5]  02 00 00 00 00
  can0  003   [8]  10 02 10 00 04 FF 20 11
  can0  34E   [8]  00 00 AA 00 00 AA 11 31
  can0  005   [8]  00 00 00 00 0D 00 68 F3
  can0  75E   [8]  00 81 00 2D 18 18 18 18
  can0  073   [8]  05 20 93 63 00 80 C0 FD
  can0  766   [8]  00 00 00 00 00 00 0E 08
  can0  003   [8]  10 02 10 00 04 FF 30 DC
  can0  201   [8]  AE 6D 14 F1 FF FF 60 27
  can0  105   [8]  03 CA 7F 3F 31 8B 94 2F
  can0  203   [8]  40 17 40 16 C0 1A C0 19
  can0  245   [8]  7F FB 80 7E 96 83 60 85
  can0  75E   [8]  00 81 00 2D 18 18 18 18
  can0  073   [8]  05 20 93 63 00 80 D0 30
  can0  336   [8]  6E 42 00 00 00 00 00 00
  can0  003   [8]  10 02 10 00 04 FF 40 85
  can0  35C   [8]  02 10 E0 00 00 FF FF 01
  can0  005   [8]  00 00 00 00 0D 00 78 3E
  can0  2EF   [8]  F7 00 FF 0F FF FF FF 00
  can0  30D   [8]  80 51 75 FF FF 04 2F 81
  can0  75E   [8]  00 81 00 2D 18 18 18 18
  can0  073   [8]  05 20 93 63 00 80 E0 7A
  can0  766   [8]  00 00 00 00 00 00 0E 08
  can0  003   [8]  10 02 10 00 04 FF 50 48
  can0  045   [8]  00 FF 00 00 00 00 F0 7C
  can0  201   [8]  AF 6D 15 F1 FF FF 70 DD
  can0  203   [8]  40 17 40 19 C0 1A C0 1A
  can0  001   [8]  CC 81 1F 9E 55 03 D1 9F
  can0  245   [8]  7F FD 80 7E 97 84 70 85
  can0  105   [8]  03 E1 7F 3F 31 8B A4 8D
  can0  75E   [8]  00 81 00 2D 18 18 18 18
  can0  073   [8]  05 20 93 63 00 80 F0 B7
  can0  12D   [8]  01 0F 00 00 50 53 56 79
  can0  413   [8]  FD 00 04 0F 10 00 00 05
  can0  003   [8]  10 02 10 00 04 FF 60 02
  can0  005   [8]  00 00 00 00 0D 00 88 41
  can0  33D   [8]  00 42 00 00 64 00 00 00
  can0  75E   [8]  00 81 00 2D 18 18 18 18
  can0  073   [8]  05 20 93 63 00 80 00 C8
  can0  375   [8]  13 10 34 3F 3F 07 00 00
  can0  766   [8]  00 00 00 00 00 00 0E 08
  can0  003   [8]  10 02 10 00 04 FF 70 CF
  can0  328   [2]  07 60
  can0  201   [8]  AF 6E 15 F2 FF FF 80 D2
  can0  203   [8]  40 1B 40 1A C0 1E C0 1E
  can0  105   [8]  03 F6 7F 40 32 8B B4 84
  can0  37D   [8]  02 00 04 E2 10 00 FF FF
  can0  245   [8]  7F FB 80 7E 98 84 80 85
  can0  34F   [8]  10 92 00 92 03 E7 07 FF
  can0  75E   [8]  00 81 00 2D 18 18 18 18
  can0  76E   [8]  00 00 00 00 00 00 00 00
  can0  073   [8]  05 20 93 63 00 80 10 05
  can0  003   [8]  10 02 10 00 04 FF 80 B0
  can0  388   [8]  35 FF 1F CF FF 0F 07 FF
  can0  005   [8]  00 00 00 00 0D 00 98 8C
  can0  249   [8]  27 E8 00 29 FC 00 FF FF
  can0  04B   [6]  01 00 0C 06 FF 04
  can0  75E   [8]  00 81 00 2D 18 18 18 18
  can0  073   [8]  05 20 93 63 00 80 20 4F
  can0  003   [8]  10 02 10 00 04 FF 90 7D
  can0  283   [8]  F5 0D 08 03 C0 6E 3F FF
  can0  766   [8]  00 00 00 00 00 00 0E 08
  can0  201   [8]  B0 6E 16 F3 FF FF 90 D9
  can0  247   [8]  00 00 00 06 00 18 00 00
  can0  203   [8]  40 1E 40 1E C0 1F C0 1E
  can0  245   [8]  7F FE 80 7E 99 84 90 85
  can0  105   [8]  04 23 7F 40 32 8B C4 F4
  can0  068   [1]  01
  can0  75E   [8]  00 81 00 2D 18 18 18 18
  can0  073   [8]  05 20 93 63 00 80 30 82
  can0  3D3   [4]  C0 00 00 00
  can0  003   [8]  10 02 10 00 04 FF A0 37
  can0  10C   [8]  3B 7F FF 07 03 FF C3 67
  can0  19F   [8]  00 0F 75 F0 48 22 61 F4
  can0  005   [8]  00 00 00 00 0D 00 A8 C6
  can0  007   [8]  F0 05 38 00 3F FC AF 79
  can0  20E   [8]  3F 00 01 F0 FF FF 3F 68
  can0  75E   [8]  00 81 00 2D 18 18 18 18
  can0  073   [8]  05 20 93 63 00 80 40 DB
  can0  003   [8]  10 02 10 00 04 FF B0 FA
  can0  351   [8]  00 00 00 00 00 00 00 00
  can0  766   [8]  00 00 00 00 00 00 0E 08
  can0  201   [8]  B0 6F 16 F3 FF FF A0 D5
  can0  203   [8]  40 20 40 20 C0 22 C0 23
  can0  105   [8]  04 38 7F 41 32 8A D4 3C
  can0  205   [8]  06 93 0C 00 00 00 00 00
  can0  245   [8]  80 00 80 7E 99 84 A0 85
  can0  75E   [8]  00 81 00 2D 18 18 18 18
  can0  776   [8]  00 00 00 00 00 00 00 00
  can0  073   [8]  05 20 93 63 00 80 50 16
  can0  39D   [8]  1E 02 01 03 FF 0E 00 2F
  can0  003   [8]  10 02 10 00 04 FF C0 A3
  can0  34E   [8]  00 00 AA 00 00 AA 11 31
  can0  005   [8]  00 00 00 00 0D 00 B8 0B
  can0  75E   [8]  00 81 00 2D 18 18 18 18
  can0  073   [8]  05 20 93 63 00 80 60 5C
  can0  003   [8]  10 02 10 00 04 FF D0 6E
  can0  766   [8]  00 00 00 00 00 00 0E 08
  can0  201   [8]  B1 70 17 F4 FF FF B0 0A
  can0  203   [8]  40 24 40 22 C0 26 C0 25
  can0  245   [8]  7F FF 81 7E 99 84 B0 85
  can0  105   [8]  04 4B 7F 42 33 8A E4 E5
  can0  75E   [8]  00 81 00 2D 18 18 18 18
  can0  073   [8]  05 20 93 63 00 80 70 91
  can0  003   [8]  10 02 10 00 04 FF E0 24
  can0  005   [8]  00 00 00 00 0D 00 C8 52
  can0  30D   [8]  80 51 75 FF FF 05 0C 81
  can0  75E   [8]  00 81 00 2D 18 18 18 18
  can0  073   [8]  05 20 93 63 00 80 80 EE
  can0  003   [8]  10 02 10 01 04 FF F0 74
  can0  045   [8]  00 FF 00 00 00 00 00 03
  can0  766   [8]  00 00 00 00 00 00 0E 08
  can0  1C1   [4]  00 00 00 00
  can0  400   [8]  FD 13 04 0F E0 81 00 05
  can0  201   [8]  B2 70 18 F5 FF FF C0 55
  can0  001   [8]  CC 81 1F 9E 55 03 E1 D5
  can0  203   [8]  40 25 40 26 C0 28 C0 27
  can0  105   [8]  04 5C 7F 43 34 8A F4 E4
  can0  245   [8]  7F FA 81 7E 9A 84 C0 85
  can0  75E   [8]  00 81 00 2D 18 18 18 18
  can0  073   [8]  05 20 93 63 00 80 90 23
  can0  12D   [8]  01 0F 00 00 50 53 56 79
  can0  003   [8]  10 02 10 01 04 FF 00 0B
  can0  005   [8]  00 00 00 00 0D 00 D8 9F
  can0  33D   [8]  00 42 00 00 64 00 00 00
  can0  75E   [8]  00 81 00 2D 18 18 18 18
  can0  073   [8]  05 20 93 63 00 80 A0 69
  can0  375   [8]  13 10 34 3F 3F 07 00 00
  can0  003   [8]  10 02 10 01 04 FF 10 C6
  can0  766   [8]  00 00 00 00 00 00 0E 08
  can0  201   [8]  B3 71 19 F6 FF FF D0 53
  can0  203   [8]  40 28 40 28 C0 2B C0 2B
  can0  245   [8]  7F F9 81 7E 9B 83 D0 85
  can0  105   [8]  04 67 7F 45 36 8A 04 0D
  can0  34F   [8]  10 92 00 92 03 E7 07 FF
  can0  75E   [8]  00 81 00 2D 18 18 18 18
  can0  76E   [8]  00 00 00 00 00 00 00 00
  can0  073   [8]  05 20 93 63 00 80 B0 A4
  can0  003   [8]  10 02 10 01 04 FF 20 8C
  can0  388   [8]  35 FF 1F CF FF 0F 07 FF
  can0  005   [8]  00 00 00 00 0D 00 E8 D5
  can0  249   [8]  2C 5E 00 30 6F 00 FF FF
  can0  04B   [6]  01 00 0C 06 FF 04
  can0  75E   [8]  00 81 00 2D 18 18 18 18
  can0  073   [8]  05 20 93 63 00 80 C0 FD
  can0  003   [8]  10 02 10 01 04 FF 30 41
  can0  283   [8]  F5 0D 08 03 C0 6E 3F FF
  can0  766   [8]  00 00 00 00 00 00 0E 08
  can0  201   [8]  B3 72 1A F6 FF FF E0 6D
  can0  203   [8]  40 2C 40 2B C0 2E C0 2E
  can0  105   [8]  04 72 7F 47 38 8A 14 B9
  can0  245   [8]  7F FB 81 7E 9D 83 E0 85
  can0  247   [8]  00 00 00 06 00 18 00 00
  can0  073   [8]  05 20 93 63 00 80 D0 30
  can0  75E   [8]  00 81 00 2D 18 18 18 18
  can0  003   [8]  10 02 10 01 04 FF 40 18
  can0  19F   [8]  00 17 75 F0 48 22 61 F4
  can0  005   [8]  00 00 00 00 0D 00 F8 18
  can0  007   [8]  F0 05 38 00 3F FC AF 79
  can0  073   [8]  05 20 93 63 00 80 E0 7A
  can0  75E   [8]  00 81 00 2D 18 18 18 18
  can0  003   [8]  10 02 10 01 04 FF 50 D5
  can0  201   [8]  B4 73 1A F7 FF FF F0 F5
  can0  203   [8]  40 2F 40 2D C0 32 C0 31
  can0  245   [8]  7F F8 81 7E 9E 83 F0 85
  can0  766   [8]  00 00 00 00 00 00 0E 08
  can0  105   [8]  04 7F 7F 4A 3A 8B 24 BA
  can0  205   [8]  06 93 0C 00 00 00 00 00
  can0  3D1   [4]  C6 0B 00 00
  can0  073   [8]  05 20 93 63 00 80 F0 B7
  can0  75E   [8]  00 81 00 2D 18 18 18 18
  can0  39D   [8]  1E 02 01 03 FF 0E 00 37
  can0  3F6   [5]  02 00 00 00 00
  can0  003   [8]  10 02 10 01 04 FF 60 9F
  can0  34E   [8]  00 00 AA 00 00 AA 11 31
  can0  005   [8]  00 00 00 00 0D 00 08 67
  can0  073   [8]  05 20 93 63 00 80 00 C8
  can0  75E   [8]  00 81 00 2D 18 18 18 18
  can0  003   [8]  10 02 10 01 04 FF 70 52
  can0  766   [8]  00 00 00 00 00 00 0E 08
  can0  201   [8]  B5 74 1B F8 FF FF 00 1A
  can0  203   [8]  40 31 40 32 C0 35 C0 34
  can0  105   [8]  04 88 7F 4C 3C 8B 34 18
  can0  245   [8]  7F F8 81 7E 9F 84 00 85
  can0  073   [8]  05 20 93 63 00 80 10 05
  can0  336   [8]  6E 42 00 00 00 00 00 00
  can0  75E   [8]  00 81 00 2D 18 18 18 18
  can0  003   [8]  10 02 10 01 04 FF 80 2D
  can0  005   [8]  00 00 00 00 0D 00 18 AA
  can0  2EF   [8]  F7 00 FF 0F FF FF FF 00
  can0  35C   [8]  02 10 E0 00 00 FF FF 01
  can0  30D   [8]  80 51 75 FF FF 06 41 81
  can0  073   [8]  05 20 93 63 00 80 20 4F
  can0  75E   [8]  00 81 00 2D 18 18 18 18
  can0  413   [8]  FD 00 04 0F 10 00 00 05
  can0  003   [8]  10 02 10 00 04 FF 90 7D
  can0  045   [8]  00 FF 00 00 00 00 10 CE
  can0  201   [8]  B6 75 1C F9 FF FF 10 E0
  can0  203   [8]  40 35 40 35 C0 38 C0 37
  can0  245   [8]  7F F6 81 7E A0 84 10 85
  can0  766   [8]  00 00 00 00 00 00 0E 08
  can0  001   [8]  CC 81 1F 9E 55 03 F1 18
  can0  105   [8]  04 9D 7F 4D 3E 8B 44 88
  can0  073   [8]  05 20 93 63 00 80 30 82
  can0  75E   [8]  00 81 00 2D 18 18 18 18
  can0  12D   [8]  01 0F 00 00 50 53 56 79
  can0  003   [8]  10 02 10 00 04 FF A0 37
  can0  005   [8]  00 00 00 00 0D 00 28 E0
  can0  33D   [8]  00 42 00 00 64 00 00 00
  can0  073   [8]  05 20 93 63 00 80 40 DB
  can0  75E   [8]  00 81 00 2D 18 18 18 18
  can0  375   [8]  13 10 34 3F 3F 07 00 00
  can0  003   [8]  10 02 10 00 04 FF B0 FA
  can0  766   [8]  00 00 00 00 00 00 0E 08
  can0  328   [2]  07 60
  can0  201   [8]  B7 76 1D FA FF FF 20 ED
  can0  203   [8]  40 39 40 38 C0 3B C0 3B
  can0  105   [8]  04 A4 7F 4F 3F 8B 54 9D
  can0  37D   [8]  02 00 04 E2 10 00 FF FF
  can0  245   [8]  7F F7 81 7E A1 84 20 85
  can0  34F   [8]  10 92 00 92 03 E7 07 FF
  can0  073   [8]  05 20 93 63 00 80 50 16
  can0  75E   [8]  00 81 00 2D 18 18 18 18
  can0  76E   [8]  00 00 00 00 00 00 00 00
  can0  003   [8]  10 02 10 00 04 FF C0 A3
  can0  005   [8]  00 00 00 00 0D 00 38 2D
  can0  388   [8]  35 FF 1F CF FF 0F 07 FF
  can0  249   [8]  34 7D 00 39 0F 00 FF FF
  can0  073   [8]  05 20 93 63 00 80 60 5C
  can0  04B   [6]  01 00 0C 06 FF 04
  can0  75E   [8]  00 81 00 2D 18 18 18 18
  can0  003   [8]  10 02 10 00 04 FF D0 6E
  can0  201   [8]  B8 77 1E FB FF FF 30 19
  can0  247   [8]  00 00 00 06 00 18 00 00
  can0  203   [8]  40 3C 40 3C C0 3E C0 3D
  can0  245   [8]  7F F7 81 7E A1 84 30 85
  can0  105   [8]  04 AE 7F 50 40 8B 64 D2
  can0  283   [8]  F5 0D 08 03 C0 6E 3F FF
  can0  766   [8]  00 00 00 00 00 00 0E 08
  can0  073   [8]  05 20 93 63 00 80 70 91
  can0  068   [1]  01
  can0  75E   [8]  00 81 00 2D 18 18 18 18
  can0  3D3   [4]  C0 00 00 00
  can0  003   [8]  10 02 10 00 04 FF E0 24
  can0  19F   [8]  00 20 75 F0 48 22 61 F4
  can0  005   [8]  00 00 00 00 0D 00 48 74
  can0  007   [8]  F0 05 38 00 3F FC AF 79
  can0  10C   [8]  3B 7F FF 07 03 FF C3 67
  can0  073   [8]  05 20 93 63 00 80 80 EE
  can0  20E   [8]  3F 00 01 F0 FF FF 3F 68
  can0  75E   [8]  00 81 00 2D 18 18 18 18
  can0  003   [8]  10 02 10 00 04 FF F0 E9
  can0  201   [8]  B9 78 20 FC FF FF 40 15
  can0  203   [8]  40 3E 40 3F C0 41 C0 41
  can0  105   [8]  04 B8 7F 52 42 8B 74 A6
  can0  205   [8]  06 94 0C 00 00 00 00 00
  can0  245   [8]  7F F9 81 7E A1 85 40 85
  can0  351   [8]  00 00 00 00 00 00 00 00
  can0  766   [8]  00 00 00 00 00 00 0E 08
  can0  073   [8]  05 20 93 63 00 80 90 23
  can0  39D   [8]  1E 02 01 03 FF 0E 00 3F
  can0  003   [8]  10 02 0F FF 04 FF 00 A2
  can0  75E   [8]  00 81 00 2D 18 18 18 18
  can0  776   [8]  00 00 00 00 00 00 00 00
  can0  34E   [8]  00 00 AA 00 00 AA 11 31
  can0  005   [8]  00 00 00 00 0D 00 58 B9
  can0  073   [8]  05 20 93 63 00 80 A0 69
  can0  75E   [8]  00 81 00 2D 18 18 18 18
  can0  003   [8]  10 02 0F FE 04 FF 10 F2
  can0  201   [8]  BA 79 21 FE FF FF 50 34
  can0  203   [8]  40 41 40 42 C0 44 C0 44
  can0  245   [8]  7F F4 81 7E A1 84 50 85
  can0  105   [8]  04 C4 7F 53 43 8B 84 A8
  can0  766   [8]  00 00 00 00 00 00 0E 08
  can0  400   [8]  FD 13 04 0F E0 81 00 05
  can0  073   [8]  05 20 93 63 00 80 B0 A4
  can0  004   [5]  01 00 00 7D 07
  can0  003   [8]  10 02 0F FE 04 FF 20 B8
  can0  75E   [8]  00 81 00 2D 18 18 18 18
  can0  005   [8]  00 00 00 00 0D 00 68 F3
  can0  30D   [8]  81 51 75 FF FF 07 6D 81
  can0  073   [8]  05 20 93 63 00 80 C0 FD
  can0  003   [8]  10 02 0F FD 04 FF 30 CF
  can0  045   [8]  00 FF 00 00 00 00 20 84
  can0  75E   [8]  00 81 00 2D 18 18 18 18
  can0  201   [8]  BC 7A 22 00 FF FF 60 E2
  can0  001   [8]  CC 81 1F 9E 55 03 01 67
  can0  203   [8]  40 45 40 45 C0 48 C0 47
  can0  105   [8]  04 E0 7F 55 45 8B 94 24
  can0  245   [8]  7F F6 81 7E A1 83 60 85
  can0  073   [8]  05 20 93 63 00 80 D0 30
  can0  766   [8]  00 00 00 00 00 00 0E 08
  can0  12D   [8]  01 0F 00 00 50 53 56 79
  can0  003   [8]  10 02 0F FC 04 FF 40 0B
  can0  005   [8]  00 00 00 00 0D 00 78 3E
  can0  75E   [8]  00 81 00 2D 18 18 18 18
  can0  33D   [8]  00 42 00 00 64 00 00 00
  can0  073   [8]  05 20 93 63 00 80 E0 7A
  can0  375   [8]  13 10 34 3F 3F 07 00 00
  can0  003   [8]  10 02 0F FB 04 FF 50 32
  can0  201   [8]  BD 7B 23 01 FF FF 70 C3
  can0  75E   [8]  00 81 00 2D 18 18 18 18
  can0  203   [8]  40 48 40 49 C0 4B C0 4B
  can0  245   [8]  7F FA 81 7E A1 83 70 85
  can0  105   [8]  04 EB 7F 56 46 8B A4 98
  can0  34F   [8]  10 92 00 92 03 E7 07 FF
  can0  073   [8]  05 20 93 63 00 80 F0 B7
  can0  766   [8]  00 00 00 00 00 00 0E 08
  can0  003   [8]  10 02 0F F9 04 FF 60 5F
  can0  005   [8]  00 00 00 00 0D 00 88 41
  can0  75E   [8]  00 81 00 2D 18 18 18 18
  can0  76E   [8]  00 00 00 00 00 00 00 00
  can0  249   [8]  3C 39 00 FF FF 00 03 FF
  can0  073   [8]  05 20 93 63 00 80 00 C8
  can0  388   [8]  35 FF 1F CF FF 0F 07 FF
  can0  003   [8]  10 01 0F F8 04 FF 70 C5
  can0  04B   [6]  01 00 0C 06 FF 04
  can0  75E   [8]  00 81 00 2D 18 18 18 18
  can0  201   [8]  BE 7C 25 02 FF FF 80 4F
  can0  203   [8]  40 4B 40 4C C0 4F C0 4F
  can0  105   [8]  04 FA 7F 57 47 8B B4 15
  can0  245   [8]  7F FB 81 7E A2 83 80 85
  can0  247   [8]  00 00 00 06 00 18 00 00
  can0  073   [8]  05 20 93 63 00 80 10 05
  can0  283   [8]  F5 0D 08 03 C0 6E 3F FF
  can0  766   [8]  00 00 00 00 00 00 0E 08
  can0  34D   [2]  10 00
  can0  003   [8]  10 01 0F F6 04 FF 80 4F
  can0  19F   [8]  00 29 75 F0 48 22 61 F4
  can0  005   [8]  00 00 00 00 0D 00 98 8C
  can0  75E   [8]  00 81 00 2D 18 18 18 18
  can0  007   [8]  F0 05 38 00 3F FC AF 79
  can0  073   [8]  05 20 93 63 00 80 20 4F
  can0  003   [8]  10 01 0F F4 04 FF 90 A5
  can0  201   [8]  BF 7E 26 04 FF FF 90 84
  can0  203   [8]  40 4F 40 4F C0 53 C0 53
  can0  245   [8]  7F FE 81 7E A4 84 90 85
  can0  75E   [8]  00 81 00 2D 18 18 18 18
  can0  105   [8]  05 10 7F 58 48 8C C4 58
  can0  205   [8]  06 94 0C 00 00 00 00 00
  can0  3D1   [4]  C6 0B 00 00
  can0  073   [8]  05 20 93 63 00 80 30 82
  can0  766   [8]  00 00 00 00 00 00 0E 08
  can0  39D   [8]  1E 02 01 03 FF 0E 00 47
  can0  3F6   [5]  02 00 00 00 00
  can0  003   [8]  10 01 0F F3 04 FF A0 1B
  can0  34E   [8]  00 00 AA 00 00 AA 11 31
  can0  005   [8]  00 00 00 00 0D 00 A8 C6
  can0  75E   [8]  00 81 00 2D 18 18 18 18
  can0  073   [8]  05 20 93 63 00 80 40 DB
  can0  413   [8]  FD 00 04 0F 10 00 00 05
  can0  204   [8]  00 57 44 44 4B 4A 36 46
  can0  003   [8]  10 01 0F F2 04 FF B0 4B
  can0  75E   [8]  00 81 00 2D 18 18 18 18
  can0  201   [8]  C1 7F 28 05 FF FF A0 0A
  can0  203   [8]  40 53 40 53 C0 57 C0 57
  can0  245   [8]  7F FD 81 7E A5 84 A0 85
  can0  105   [8]  05 1C 7F 59 49 8C D4 88
  can0  336   [8]  6E 42 00 00 00 00 00 00
  can0  073   [8]  05 20 93 63 00 80 50 16
  can0  766   [8]  00 00 00 00 00 00 0E 08
  can0  003   [8]  10 00 0F F0 04 FF C0 73
  can0  005   [8]  00 00 00 00 0D 00 B8 0B
  can0  2EF   [8]  F7 00 FF 0F FF FF FF 00
  can0  75E   [8]  00 81 00 2D 18 18 18 18
  can0  35C   [8]  02 10 E0 00 00 FF FF 01
  can0  30D   [8]  81 51 75 FF FF 08 31 81
  can0  073   [8]  05 20 93 63 00 80 60 5C
  can0  204   [8]  01 42 31 47 46 33 31 34
  can0  003   [8]  10 00 0F EF 04 FF D0 F3
  can0  045   [8]  00 FF 00 00 00 00 30 49
  can0  201   [8]  C2 81 29 07 FF FF B0 22
  can0  203   [8]  40 57 40 57 C0 5B C0 5A
  can0  245   [8]  7F F8 81 7E A6 84 B0 85
  can0  001   [8]  CC 81 1F 9E 55 03 11 AA
  can0  105   [8]  05 2B 7F 5A 4A 8C E4 07
  can0  75E   [8]  00 81 00 2D 18 18 18 18
  can0  002   [5]  01 00 C3 8C 07
  can0  1C0   [2]  00 00
  can0  073   [8]  05 20 93 63 00 80 70 91
  can0  12D   [8]  01 0F 00 00 50 53 56 79
  can0  766   [8]  00 00 00 00 00 00 0E 08
  can0  003   [8]  10 00 0F ED 04 FF E0 9E
  can0  005   [8]  00 00 00 00 0D 00 C8 52
  can0  33D   [8]  00 42 00 00 64 00 00 00
  can0  75E   [8]  00 81 00 2D 18 18 18 18
  can0  073   [8]  05 20 93 63 00 80 80 EE
  can0  375   [8]  13 10 34 3F 3F 07 00 00
  can0  204   [8]  02 33 33 35 FF FF FF FF
  can0  003   [8]  10 00 0F EC 04 FF F0 CE
  can0  328   [2]  07 60
  can0  201   [8]  C4 82 2B 08 FF FF C0 DE
  can0  105   [8]  05 3E 7F 5A 4A 8C F4 9D
  can0  203   [8]  40 5A 40 5A C0 5E C0 5E
  can0  37D   [8]  02 00 04 DD 10 00 FF FF
  can0  245   [8]  7F FA 81 7E A7 85 C0 85
  can0  34F   [8]  10 92 00 92 03 E7 07 FF
  can0  75E   [8]  00 81 00 2D 18 18 18 18
  can0  073   [8]  05 20 93 63 00 80 90 23
  can0  003   [8]  0F FF 0F EA 04 FF 00 34
  can0  766   [8]  00 00 00 00 00 00 0E 08
  can0  005   [8]  00 00 00 00 0D 00 D8 9F
  can0  10E   [4]  00 C0 00 02
  can0  249   [8]  04 70 00 0A B4 00 FF FF
  can0  75E   [8]  00 81 00 2D 18 18 18 18
  can0  073   [8]  05 20 93 63 00 80 A0 69
  can0  76E   [8]  00 00 00 00 00 00 00 00
  can0  30E   [8]  0C 00 00 00 00 05 FF 03
  can0  10D   [4]  00 A0 3E 00
  can0  003   [8]  0F FF 0F E9 04 FF 10 43
  can0  388   [8]  35 FF 1F CF FF 0F 07 FF
  can0  201   [8]  C5 84 2C 0A FF FF D0 EB
  can0  247   [8]  00 00 00 06 00 18 00 00
  can0  203   [8]  40 5F 40 5E C0 62 C0 62
  can0  245   [8]  7F FA 81 7E A8 84 D0 85
  can0  105   [8]  05 4B 7F 5B 4A 8C 04 50
  can0  317   [2]  0A 00
  can0  04B   [6]  01 00 0C 06 FF 04
  can0  75E   [8]  00 81 00 2D 18 18 18 18
  can0  073   [8]  05 20 93 63 00 80 B0 A4
  can0  3D3   [4]  C0 00 00 00
  can0  003   [8]  0F FF 0F E8 04 FF 20 94
  can0  283   [8]  F5 0D 08 03 C0 6E 3F FF
  can0  766   [8]  00 00 00 00 00 00 0E 08
  can0  19F   [8]  00 33 75 F0 48 22 61 F4
  can0  005   [8]  00 00 00 00 0D 00 E8 D5
  can0  007   [8]  F0 05 38 00 3F FC AF 79
  can0  068   [1]  01
  can0  75E   [8]  00 81 00 2D 18 18 18 18
  can0  073   [8]  05 20 93 63 00 80 C0 FD
  can0  003   [8]  0F FF 0F E7 04 FF 30 31
  can0  10C   [8]  3B 7F FF 07 03 FF C3 67
  can0  201   [8]  C7 85 2E 0C FF FF E0 E0
  can0  203   [8]  40 62 40 62 C0 66 C0 65
  can0  105   [8]  05 55 7F 5B 4B 8C 14 85
  can0  205   [8]  06 94 0C 00 00 00 00 00
  can0  245   [8]  7F F8 81 7E A8 83 E0 85
  can0  20E   [8]  3F 00 01 F0 FF FF 3F 68
  can0  75E   [8]  00 81 00 2D 18 18 18 18
  can0  073   [8]  05 20 93 63 00 80 D0 30
  can0  39D   [8]  1E 02 01 03 FF 0E 00 4F
  can0  003   [8]  0F FE 0F E7 04 FF 40 2E
  can0  351   [8]  00 00 00 00 00 00 00 00
  can0  766   [8]  00 00 00 00 00 00 0E 08
  can0  34E   [8]  00 00 AA 00 00 AA 11 31
  can0  400   [8]  FD 13 04 0F E0 81 00 05
  can0  005   [8]  00 00 00 00 0D 00 F8 18
  can0  75E   [8]  00 81 00 2D 18 18 18 18
  can0  073   [8]  05 20 93 63 00 80 E0 7A
  can0  776   [8]  00 00 00 00 00 00 00 00
  can0  003   [8]  0F FE 0F E6 04 FF 50 7E
  can0  208   [8]  1F 40 11 80 00 06 40 A8
  can0  201   [8]  C9 87 30 0E FF FF F0 7F
  can0  203   [8]  40 66 40 67 C0 6A C0 6A
  can0  245   [8]  7F F8 81 7E A9 83 F0 85
  can0  105   [8]  05 6C 7F 5B 4B 8C 24 BF
  can0  207   [8]  10 09 3D 22 0F CB 4D AC
  can0  75E   [8]  00 81 00 2D 18 18 18 18
  can0  073   [8]  05 20 93 63 00 80 F0 B7
  can0  003   [8]  0F FE 0F E5 04 FF 60 8E
  can0  206   [8]  00 00 0D 20 C1 80 D2 CC
  can0  766   [8]  00 00 00 00 00 00 0E 08
  can0  005   [8]  00 00 00 00 0D 00 08 67
  can0  30D   [8]  81 51 75 FF FF 08 EC 81
  can0  2FF   [8]  02 28 00 53 FF 53 62 FE
  can0  20A   [8]  FA FF 00 FC FF FF FF 7F
  can0  75E   [8]  00 81 00 2D 18 18 18 18
  can0  073   [8]  05 20 93 63 00 80 00 C8
  can0  003   [8]  0F FE 0F E6 04 FF 70 F9
  can0  045   [8]  00 FF 00 00 00 00 40 10
  can0  201   [8]  CB 89 32 0F FF FF 00 70
  can0  001   [8]  CC 81 1F 9E 55 03 21 E0
  can0  203   [8]  40 6A 40 6A C0 6F C0 6E
  can0  105   [8]  05 73 7F 5C 4C 8C 34 DD
  can0  245   [8]  7F F8 81 7E A9 84 00 85
  can0  2FF   [8]  02 28 00 53 FF 53 62 FE
  can0  073   [8]  05 20 93 63 00 80 10 05
  can0  75E   [8]  00 81 00 2D 18 18 18 18
  can0  12D   [8]  01 0F 00 00 50 53 56 79
  can0  003   [8]  0F FD 0F E6 04 FF 80 4C
  can0  005   [8]  00 00 00 00 0D 00 18 AA
  can0  766   [8]  00 00 00 00 00 00 0E 08
  can0  33D   [8]  00 42 00 00 64 00 00 00
  can0  073   [8]  05 20 93 63 00 80 20 4F
  can0  75E   [8]  00 81 00 2D 18 18 18 18
  can0  375   [8]  13 10 34 3F 3F 07 00 00
  can0  003   [8]  0F FD 0F E6 04 FF 90 81
  can0  201   [8]  CC 8B 34 11 FF FF 10 0E
  can0  203   [8]  40 6E 40 6E C0 73 C0 72
  can0  245   [8]  7F F9 81 7E A9 84 10 85
  can0  105   [8]  05 7D 7F 5D 4C 8C 44 9A
  can0  34F   [8]  10 92 00 92 03 E7 07 FF
  can0  073   [8]  05 20 93 63 00 80 30 82
  can0  75E   [8]  00 81 00 2D 18 18 18 18
  can0  003   [8]  0F FD 0F E7 04 FF A0 56
  can0  005   [8]  00 00 00 00 0D 00 28 E0
  can0  766   [8]  00 00 00 00 00 00 0E 08
  can0  249   [8]  0C B6 00 13 E8 00 FF FF
  can0  073   [8]  05 20 93 63 00 80 40 DB
  can0  75E   [8]  00 81 00 2D 18 18 18 18
  can0  76E   [8]  00 00 00 00 00 00 00 00
  can0  003   [8]  0F FD 0F E7 04 FF B0 9B
  can0  388   [8]  35 FF 1F CF FF 0F 07 FF
  can0  201   [8]  CE 8D 36 13 FF FF 20 84
  can0  203   [8]  40 72 40 73 C0 77 C0 77
  can0  105   [8]  05 91 7F 5D 4D 8C 54 0F
  can0  245   [8]  7F F8 81 7E A9 84 20 85
  can0  319   [1]  80
  can0  247   [8]  00 00 00 06 00 18 00 00
  can0  073   [8]  05 20 93 63 00 80 50 16
  can0  04B   [6]  01 00 0C 06 FF 04
  can0  75E   [8]  00 81 00 2D 18 18 18 18
  can0  003   [8]  0F FC 0F E7 04 FF C0 84
  can0  19F   [8]  00 3F 75 F0 48 22 61 F4
  can0  283   [8]  F5 0D 08 03 C0 6E 3F FF
  can0  005   [8]  00 00 00 00 0D 00 38 2D
  can0  766   [8]  00 00 00 00 00 00 0E 08
  can0  007   [8]  F0 05 38 00 3F FC AF 79
  can0  073   [8]  05 20 93 63 00 80 60 5C
  can0  75E   [8]  00 81 00 2D 18 18 18 18
  can0  003   [8]  0F FC 0F E8 04 FF D0 21
  can0  26F   [2]  6F C0
  can0  201   [8]  D0 8F 38 15 FF FF 30 02
  can0  203   [8]  40 76 40 77 C0 7B C0 7B
  can0  245   [8]  7F FC 81 7E AA 85 30 85
  can0  105   [8]  05 9B 7F 5E 4E 8B 64 0C
  can0  205   [8]  06 94 0C 00 00 00 00 00
  can0  3D1   [4]  C6 0B 00 00
  can0  073   [8]  05 20 93 63 00 80 70 91
  can0  39D   [8]  1E 02 01 03 FF 0E 00 57
  can0  75E   [8]  00 81 00 2D 18 18 18 18
  can0  3F6   [5]  02 00 00 00 00
  can0  413   [8]  FD 00 04 0F 10 00 00 05
  can0  003   [8]  0F FC 0F E8 04 FF E0 6B
  can0  34E   [8]  00 00 AA 00 00 AA 11 31
  can0  766   [8]  00 00 00 00 00 00 0E 08
  can0  005   [8]  00 00 00 00 0D 00 48 74
  can0  073   [8]  05 20 93 63 00 80 80 EE
  can0  75E   [8]  00 81 00 2D 18 18 18 18
  can0  003   [8]  0F FC 0F E9 04 FF F0 3B
  can0  201   [8]  D2 91 3A 17 FF FF 40 85
  can0  203   [8]  40 7A 40 7B C0 80 C0 7F
  can0  245   [8]  80 02 81 7E AA 85 40 85
  can0  105   [8]  05 AB 7F 5F 4F 8B 74 EF
  can0  073   [8]  05 20 93 63 00 80 90 23
  can0  336   [8]  6E 42 00 00 00 00 00 00
  can0  75E   [8]  00 81 00 2D 18 18 18 18
  can0  003   [8]  0F FC 0F EA 04 FF 00 FE
  can0  35C   [8]  02 10 E0 00 00 FF FF 01
  can0  766   [8]  00 00 00 00 00 00 0E 08
  can0  005   [8]  00 00 00 00 0D 00 58 B9
  can0  2EF   [8]  F7 00 FF 0F FF FF FF 00
  can0  30D   [8]  81 51 75 FF FF 0A 2B 81
  can0  073   [8]  05 20 93 63 00 80 A0 69
  can0  75E   [8]  00 81 00 2D 18 18 18 18
  can0  003   [8]  0F FB 0F EA 04 FF 10 FC
  can0  3E3   [8]  5A FD 96 31 29 CF 5E B5
  can0  045   [8]  00 FF 00 00 00 00 50 DD
  can0  1C1   [4]  00 00 00 00
  can0  201   [8]  D4 93 3C 19 FF FF 50 83
  can0  203   [8]  40 7F 40 7F C0 84 C0 83
  can0  245   [8]  80 07 81 7E AB 85 50 85
  can0  105   [8]  05 B2 7F 60 50 8B 84 51
  can0  001   [8]  CC 81 1F 9E 55 03 31 2D
  can0  073   [8]  05 20 93 63 00 80 B0 A4
  can0  75E   [8]  00 81 00 2D 18 18 18 18
  can0  12D   [8]  01 0F 00 00 50 53 56 79
  can0  003   [8]  0F FB 0F EC 04 FF 20 DF
  can0  3E5   [8]  0E 0A 0A 14 04 FF FF 00
  can0  005   [8]  00 00 00 00 0D 00 68 F3
  can0  766   [8]  00 00 00 00 00 00 0E 08
  can0  33D   [8]  00 42 00 00 64 00 00 00
  can0  3F2   [8]  00 2B 00 0E 00 00 3F FD
  can0  3E7   [8]  5A FD 97 15 29 CF 5E 19
  can0  073   [8]  05 20 93 63 00 80 C0 FD
  can0  39F   [8]  12 01 0F 02 0B 19 0A FF
  can0  3B7   [8]  A9 09 0A CF 02 01 61 D1
  can0  375   [8]  13 10 34 3F 3F 07 00 00
  can0  75E   [8]  00 81 00 2D 18 18 18 18
  can0  003   [8]  0F FB 0F ED 04 FF 30 8F
  can0  3E9   [8]  07 E9 0B 03 02 01 05 78
  can0  3EB   [8]  00 01 06 4C 0D 29 0D 86
  can0  201   [8]  D7 95 3E 1C FF FF 60 A0
  can0  328   [2]  07 60
  can0  203   [8]  40 83 40 82 C0 88 C0 87
  can0  245   [8]  80 07 81 7E AC 85 60 85
  can0  105   [8]  05 C2 7F 61 51 8B 94 E2
  can0  37D   [8]  02 00 04 DB 10 00 FF FF
  can0  34F   [8]  10 92 00 92 03 E7 07 FF
  can0  073   [8]  05 20 93 63 00 80 D0 30
  can0  75E   [8]  00 81 00 2D 18 18 18 18
  can0  003   [8]  0F FB 0F EE 04 FF 40 6C
  can0  005   [8]  00 00 00 00 0D 00 78 3E
  can0  249   [8]  17 E8 00 1B E8 00 FF FF
  can0  766   [8]  00 00 00 00 00 00 0E 08
  can0  073   [8]  05 20 93 63 00 80 E0 7A
  can0  003   [8]  0F FB 0F EE 04 FF 50 A1
  can0  75E   [8]  00 81 00 2D 18 18 18 18
  can0  76E   [8]  00 00 00 00 00 00 00 00
  can0  201   [8]  D9 97 40 1E FF FF 70 61
  can0  247   [8]  00 00 00 06 00 18 00 00
  can0  203   [8]  40 87 40 87 C0 8D C0 8C
  can0  245   [8]  80 01 81 7E AC 85 70 85
  can0  105   [8]  05 CB 7F 62 51 8B A4 5E
  can0  2C4   [8]  00 00 FC 3F 7F FF 3F FF
  can0  388   [8]  35 FF 1F CF FF 0F 07 FF
  can0  073   [8]  05 20 93 63 00 80 F0 B7
  can0  3D3   [4]  C0 00 00 00
  can0  003   [8]  0F FB 0F F0 04 FF 60 3B
  can0  04B   [6]  01 00 0C 06 FF 04
  can0  75E   [8]  00 81 00 2D 18 18 18 18
  can0  19F   [8]  00 4D 75 F0 48 22 61 F4
  can0  005   [8]  00 00 00 00 0D 00 88 41
  can0  007   [8]  F0 05 38 00 3F FC AF 79
  can0  073   [8]  05 00 93 63 00 80 00 E0
  can0  283   [8]  F5 0D 08 03 C0 6E 3F FF
  can0  766   [8]  00 00 00 00 00 00 0E 08
  can0  400   [8]  FD 13 04 0F E0 81 00 05
  can0  003   [8]  0F FB 0F F1 04 FF 70 6B
  can0  068   [1]  01
  can0  75E   [8]  00 81 00 2D 18 18 18 18
  can0  201   [8]  DB 99 43 20 FF FF 80 03
  can0  203   [8]  40 8B 40 8B C0 91 C0 90
  can0  245   [8]  80 06 81 7E AC 84 80 85
  can0  105   [8]  05 D3 7F 62 52 8C B4 F8
  can0  205   [8]  06 94 0C 00 00 00 00 00
  can0  073   [8]  05 00 93 63 00 80 10 2D
  can0  10C   [8]  3B 7F FF 07 03 FF C3 67
  can0  39D   [8]  1E 02 01 02 FF 0E 00 5F
  can0  003   [8]  0F FB 0F F2 04 FF 80 AE
  can0  34E   [8]  00 00 AA 00 00 AA 11 31
  can0  20E   [8]  3F 00 01 F0 FF FF 3F 68
  can0  005   [8]  00 00 00 00 0D 00 98 8C
  can0  75E   [8]  00 81 00 2D 18 18 18 18
  can0  073   [8]  05 00 93 63 00 80 20 67
  can0  351   [8]  00 00 00 00 00 00 00 00
  can0  766   [8]  00 00 00 00 00 00 0E 08
  can0  003   [8]  0F FA 0F F3 04 FF 90 B8
  can0  201   [8]  DD 9C 45 23 FF FF 90 85
  can0  203   [8]  40 90 40 90 C0 95 C0 95
  can0  245   [8]  80 09 81 7E AD 84 90 85
  can0  75E   [8]  00 81 00 2D 18 18 18 18
  can0  105   [8]  05 D8 7F 62 52 8C C4 61
  can0  776   [8]  00 00 00 00 00 00 00 00
  can0  073   [8]  05 00 93 63 00 80 30 AA
  can0  003   [8]  0F FA 0F F4 04 FF A0 06
  can0  005   [8]  00 00 00 00 0D 00 A8 C6
  can0  75E   [8]  00 81 00 2D 18 18 18 18
  can0  30D   [8]  81 51 75 FF FF 0B 7F 81
  can0  073   [8]  05 00 93 63 00 80 40 F3
  can0  766   [8]  00 00 00 00 00 00 0E 08
  can0  003   [8]  0F FA 0F F5 04 FF B0 56
  can0  045   [8]  00 FF 00 00 00 00 60 97
  can0  75E   [8]  00 81 00 2D 18 18 18 18
  can0  201   [8]  E0 9E 48 25 FF FF A0 B2
  can0  001   [8]  CC 81 1F 9E 55 03 41 74
  can0  203   [8]  40 94 40 94 C0 99 C0 99
  can0  245   [8]  80 0A 81 7E AD 84 A0 85
  can0  105   [8]  05 E3 7F 63 52 8C D4 CD
  can0  073   [8]  05 00 93 63 00 80 50 3E
  can0  12D   [8]  01 0F 00 00 50 53 56 79
  can0  003   [8]  0F FA 0F F6 04 FF C0 B5
  can0  005   [8]  00 00 00 00 0D 00 B8 0B
  can0  75E   [8]  00 81 00 2D 18 18 18 18
  can0  33D   [8]  00 42 00 00 64 00 00 00
  can0  073   [8]  05 00 93 63 00 80 60 74
  can0  766   [8]  00 00 00 00 00 00 0E 08
  can0  375   [8]  13 10 34 3F 3F 07 00 00
  can0  003   [8]  0F FA 0F F7 04 FF D0 E5
  can0  201   [8]  E2 A1 4A 28 FF FF B0 A7
  can0  75E   [8]  00 81 00 2D 18 18 18 18
  can0  203   [8]  40 98 40 98 C0 9E C0 9D
  can0  245   [8]  80 0A 81 7E AE 84 B0 85
  can0  105   [8]  05 E9 7F 63 52 8C E4 01
  can0  34F   [8]  10 92 00 92 03 E7 07 FF
  can0  073   [8]  05 00 93 63 00 80 70 B9
  can0  003   [8]  0F FA 0F F8 04 FF E0 C7
  can0  005   [8]  00 00 00 00 0D 00 C8 52
  can0  75E   [8]  00 81 00 2D 18 18 18 18
  can0  249   [8]  1F E8 00 23 E8 00 FF FF
  can0  073   [8]  05 00 93 63 00 80 80 C6
  can0  766   [8]  00 00 00 00 00 00 0E 08
  can0  003   [8]  0F FA 0F F9 04 FF F0 97
  can0  75E   [8]  00 81 00 2D 18 18 18 18
  can0  201   [8]  E5 A3 4D 2B FF FF C0 4D
  can0  76E   [8]  00 00 00 00 00 00 00 00
  can0  203   [8]  40 9D 40 9D C0 A3 C0 A2
  can0  247   [8]  00 00 00 06 00 18 00 00
  can0  105   [8]  05 F2 7F 63 53 8C F4 97
  can0  245   [8]  80 09 81 7E AD 84 C0 85
  can0  073   [8]  05 00 93 63 00 80 90 0B
  can0  388   [8]  35 FF 1F CF FF 0F 07 FF
  can0  413   [8]  FD 00 04 0F 10 00 00 05
  can0  003   [8]  0F FA 0F FA 04 FF 00 52
  can0  19F   [8]  00 57 75 F0 48 22 61 F4
  can0  04B   [6]  01 00 0C 06 FF 04
  can0  005   [8]  00 00 00 00 0D 00 D8 9F
  can0  75E   [8]  00 81 00 2D 18 18 18 18
  can0  007   [8]  F0 05 38 00 3F FC AF 79
  can0  073   [8]  05 00 93 63 00 80 A0 41
  can0  283   [8]  F5 0D 08 03 C0 6E 3F FF
  can0  766   [8]  00 00 00 00 00 00 0E 08
  can0  003   [8]  0F FA 0F FC 04 FF 10 F6
  can0  201   [8]  E7 A6 50 2D FF FF D0 56
  can0  203   [8]  40 A1 40 A2 C0 A6 C0 A6
  can0  245   [8]  80 09 81 7E AD 84 D0 85
  can0  75E   [8]  00 81 00 2D 18 18 18 18
  can0  105   [8]  05 F9 7F 63 53 8B 04 D1
  can0  205   [8]  06 94 0C 00 00 00 00 00
  can0  3D1   [4]  C6 0B 00 00
  can0  073   [8]  05 00 93 63 00 80 B0 8C
  can0  39D   [8]  1E 02 01 02 FF 0E 00 67
  can0  3F6   [5]  02 00 00 00 00
  can0  003   [8]  0F FA 0F FD 04 FF 20 21
  can0  34E   [8]  00 00 AA 00 00 AA 11 31
  can0  75E   [8]  00 81 00 2D 18 18 18 18
  can0  005   [8]  00 00 00 00 0D 00 E8 D5
  can0  073   [8]  05 00 93 63 00 80 C0 D5
  can0  766   [8]  00 00 00 00 00 00 0E 08
  can0  003   [8]  0F FA 0F FD 04 FF 30 EC
  can0  75E   [8]  00 81 00 2D 18 18 18 18
  can0  201   [8]  EA A9 52 30 FF FF E0 81
  can0  105   [8]  06 00 7F 63 53 8B 14 7B
  can0  203   [8]  40 A5 40 A5 C0 AA C0 AA
  can0  245   [8]  80 0B 81 7E AC 84 E0 85
  can0  073   [8]  05 00 93 63 00 80 D0 18
  can0  336   [8]  6E 42 00 00 00 00 00 00
  can0  004   [5]  01 00 00 7D 07
  can0  003   [8]  0F FA 0F FD 04 FF 40 B5
  can0  35C   [8]  02 10 E0 00 00 FF FF 01
  can0  005   [8]  00 00 00 00 0D 00 F8 18
  can0  2EF   [8]  F7 00 FF 0F FF FF FF 00
  can0  75E   [8]  00 81 00 2D 18 18 18 18
  can0  30D   [8]  81 51 75 FF FF 0C A5 81
  can0  073   [8]  05 00 93 63 00 80 E0 52
  can0  766   [8]  00 00 00 00 00 00 0E 08
  can0  003   [8]  0F FA 0F FE 04 FF 50 C2
  can0  045   [8]  00 FF 00 00 00 00 70 5A
  can0  201   [8]  ED AB 55 33 FF FF F0 FF
  can0  203   [8]  40 AA 40 A9 C0 AF C0 AE
  can0  245   [8]  80 0B 81 7E AC 84 F0 85
  can0  001   [8]  CC 81 1F 9E 55 03 51 B9
  can0  75E   [8]  00 81 00 2D 18 18 18 18
  can0  105   [8]  06 04 7F 63 53 8B 24 34
  can0  073   [8]  05 00 93 63 00 80 F0 9F
  can0  12D   [8]  01 0F 00 00 50 53 56 79
  can0  003   [8]  0F FA 0F FE 04 FF 60 88
  can0  005   [8]  00 00 00 00 0D 00 08 67
  can0  75E   [8]  00 81 00 2D 18 18 18 18
  can0  33D   [8]  00 42 00 00 64 00 00 00
  can0  073   [8]  05 00 93 63 00 80 00 E0
  can0  375   [8]  13 10 34 3F 3F 07 00 00
  can0  766   [8]  00 00 00 00 00 00 0E 08
  can0  003   [8]  0F FA 0F FF 04 FF 70 D8
  can0  201   [8]  F0 AE 58 36 FF FF 00 E7
  can0  328   [2]  07 60
  can0  105   [8]  06 13 7F 64 53 8B 34 D6
  can0  37D   [8]  02 00 04 DB 10 00 FF FF
  can0  203   [8]  40 AD 40 AD C0 B3 C0 B3
  can0  75E   [8]  00 81 00 2D 18 18 18 18
  can0  245   [8]  80 0B 81 7E AC 85 00 85
  can0  34F   [8]  10 92 00 92 03 E7 07 FF
  can0  073   [8]  05 00 93 63 00 80 10 2D
  can0  003   [8]  0F FA 0F FF 04 FF 80 A7
  can0  005   [8]  00 00 00 00 0D 00 18 AA
  can0  249   [8]  27 E8 00 29 FC 00 FF FF
  can0  75E   [8]  00 81 00 2D 18 18 18 18
  can0  073   [8]  05 00 93 63 00 80 20 67
  can0  766   [8]  00 00 00 00 00 00 0E 08
  can0  400   [8]  FD 13 04 0F E0 81 00 05
  can0  003   [8]  0F FA 0F FF 04 FF 90 6A
  can0  201   [8]  F3 B1 5B 39 FF FF 10 CA
  can0  247   [8]  00 00 00 06 00 18 00 00
  can0  203   [8]  40 B1 40 B2 C0 B8 C0 B8
  can0  245   [8]  80 0A 81 7E AC 85 10 85
  can0  105   [8]  06 1C 7F 64 54 8B 44 C0
  can0  75E   [8]  00 81 00 2D 18 18 18 18
  can0  76E   [8]  00 00 00 00 00 00 00 00
  can0  073   [8]  05 00 93 63 00 80 30 AA
  can0  3D3   [4]  C0 00 00 00
  can0  34D   [2]  10 00
  can0  388   [8]  35 FF 1F CF FF 0F 07 FF
  can0  003   [8]  0F FA 0F FF 04 FF A0 20
  can0  19F   [8]  00 63 75 F0 48 22 61 F4
  can0  005   [8]  00 00 00 00 0D 00 28 E0
  can0  007   [8]  F0 05 38 00 3F FC AF 79
  can0  04B   [6]  01 00 0C 06 FF 04
  can0  75E   [8]  00 81 00 2D 18 18 18 18
  can0  073   [8]  05 00 93 63 00 80 40 F3
  can0  283   [8]  F5 0D 08 03 C0 6E 3F FF
  can0  003   [8]  0F FA 0F FE 04 FF B0 70
  can0  766   [8]  00 00 00 00 00 00 0E 08
  can0  201   [8]  F6 B4 5E 3C FF FF 20 FB
  can0  203   [8]  40 B6 40 B6 C0 BC C0 BC
  can0  105   [8]  06 27 7F 64 55 8B 54 7E
  can0  205   [8]  06 93 0C 00 00 00 00 00
  can0  245   [8]  80 0A 81 7E AC 85 20 85
  can0  068   [1]  01
  can0  75E   [8]  00 81 00 2D 18 18 18 18
  can0  073   [8]  05 00 93 63 00 80 50 3E
  can0  39D   [8]  1E 02 01 02 FF 0E 00 6F
  can0  003   [8]  0F FA 0F FE 04 FF C0 29
  can0  10C   [8]  3B 7F FF 07 03 FF C3 67
  can0  34E   [8]  00 00 AA 00 00 AA 11 31
  can0  005   [8]  00 00 00 00 0D 00 38 2D
  can0  20E   [8]  3F 00 01 F0 FF FF 3F 68
  can0  75E   [8]  00 81 00 2D 18 18 18 18
  can0  073   [8]  05 00 93 63 00 80 60 74
  can0  003   [8]  0F FA 0F FF 04 FF D0 79
  can0  351   [8]  00 00 00 00 00 00 00 00
  can0  766   [8]  00 00 00 00 00 00 0E 08
  can0  201   [8]  F9 B7 61 3F FF FF 30 49
  can0  203   [8]  40 BA 40 BB C0 C1 C0 C0
  can0  245   [8]  80 09 81 7E AD 84 30 85
  can0  105   [8]  06 3A 7F 64 55 8B 64 69
  can0  75E   [8]  00 81 00 2D 18 18 18 18
  can0  776   [8]  00 00 00 00 00 00 00 00
  can0  073   [8]  05 00 93 63 00 80 70 B9
  can0  003   [8]  0F FA 0F FF 04 FF E0 33
  can0  005   [8]  00 00 00 00 0D 00 48 74
  can0  30D   [8]  81 51 75 FF FF 0D 66 81
  can0  75E   [8]  00 81 00 2D 18 18 18 18
  can0  073   [8]  05 00 93 63 00 80 80 C6
  can0  003   [8]  0F FA 0F FF 04 FF F0 FE
  can0  045   [8]  00 FF 00 00 00 00 80 25
  can0  766   [8]  00 00 00 00 00 00 0E 08
  can0  001   [8]  CC 81 1F 9E 55 03 61 F3
  can0  201   [8]  FC BA 65 42 FF FF 40 6C
  can0  203   [8]  40 BD 40 BF C0 C4 C0 C5
  can0  245   [8]  80 07 81 7E AC 83 40 85
  can0  105   [8]  06 3F 7F 65 56 8B 74 F6
  can0  002   [5]  01 00 C3 8C 07
  can0  073   [8]  05 00 93 63 00 80 90 0B
  can0  75E   [8]  00 81 00 2D 18 18 18 18
  can0  12D   [8]  01 0F 00 00 50 53 56 79
  can0  003   [8]  0F FA 0F FF 04 FF 00 81
  can0  005   [8]  00 00 00 00 0D 00 58 B9
  can0  33D   [8]  00 42 00 00 64 00 00 00
  can0  073   [8]  05 00 93 63 00 80 A0 41
  can0  75E   [8]  00 81 00 2D 18 18 18 18
  can0  375   [8]  13 10 34 3F 3F 07 00 00
  can0  003   [8]  0F FA 0F FF 04 FF 10 4C
  can0  201   [8]  00 BD 68 45 FF FF 50 20
  can0  766   [8]  00 00 00 00 00 00 0E 08
  can0  203   [8]  40 C3 40 C2 C0 C9 C0 C9
  can0  245   [8]  80 06 81 7E AB 83 50 85
  can0  105   [8]  06 50 7F 65 56 8B 84 34
  can0  34F   [8]  10 92 00 92 03 E7 07 FF
  can0  073   [8]  05 00 93 63 00 80 B0 8C
  can0  75E   [8]  00 81 00 2D 18 18 18 18
  can0  003   [8]  0F FA 0F FF 04 FF 20 06
  can0  005   [8]  00 00 00 00 0D 00 68 F3
  can0  10E   [4]  00 C0 00 02
  can0  249   [8]  2C 5E 00 30 6F 00 FF FF
  can0  073   [8]  05 00 93 63 00 80 C0 D5
  can0  10D   [4]  00 A0 3E 00
  can0  75E   [8]  00 81 00 2D 18 18 18 18
  can0  413   [8]  FD 00 04 0F 10 00 00 05
  can0  003   [8]  0F FA 0F FF 04 FF 30 CB
  can0  201   [8]  03 C1 6B 49 FF FF 60 82
  can0  203   [8]  40 C7 40 C6 C0 CD C0 CD
  can0  105   [8]  06 56 7F 66 56 8B 94 CA
  can0  245   [8]  80 07 81 7E AB 83 60 85
  can0  247   [8]  00 00 00 06 00 18 00 00
  can0  766   [8]  00 00 00 00 00 00 0E 08
  can0  073   [8]  05 00 93 63 00 80 D0 18
  can0  75E   [8]  00 81 00 2D 18 18 18 18
  can0  76E   [8]  00 00 00 00 00 00 00 00
  can0  003   [8]  0F FA 0F FF 04 FF 40 92
  can0  19F   [8]  00 70 75 F0 48 22 61 F4
  can0  005   [8]  00 00 00 00 0D 00 78 3E
  can0  007   [8]  F0 05 38 00 3F FC AF 79
  can0  388   [8]  35 FF 1F CF FF 0F 07 FF
  can0  073   [8]  05 00 93 63 00 80 E0 52
  can0  04B   [6]  01 00 0C 06 FF 04
  can0  75E   [8]  00 81 00 2D 18 18 18 18
  can0  003   [8]  0F FA 10 01 04 FF 50 F6
  can0  201   [8]  06 C4 6F 4C FF FF 70 5E
  can0  203   [8]  40 CB 40 CB C0 D2 C0 D1
  can0  245   [8]  80 0A 81 7E AB 84 70 85
  can0  105   [8]  06 6B 7F 66 56 8B A4 F5
  can0  205   [8]  06 93 0C 00 00 00 00 00
  can0  3D1   [4]  C6 0B 00 00
  can0  283   [8]  F5 0D 08 03 C0 6E 3F FF
  can0  766   [8]  00 00 00 00 00 00 0E 08
  can0  073   [8]  05 00 93 63 00 80 F0 9F
  can0  39D   [8]  1E 02 01 02 FF 0E 00 77
  can0  3F6   [5]  02 00 00 00 00
  can0  003   [8]  0F FA 10 01 04 FF 60 BC
  can0  75E   [8]  00 81 00 2D 18 18 18 18
  can0  34E   [8]  00 00 AA 00 00 AA 11 31
  can0  005   [8]  00 00 00 00 0D 00 88 41
  can0  073   [8]  05 00 93 63 00 80 00 E0
  can0  75E   [8]  00 81 00 2D 18 18 18 18
  can0  003   [8]  0F FA 10 01 04 FF 70 71
  can0  201   [8]  0A C7 72 50 FF FF 80 E1
  can0  105   [8]  06 84 7F 66 57 8B B4 AA
  can0  203   [8]  40 CF 40 D0 C0 D5 C0 D6
  can0  245   [8]  80 0A 81 7E AA 84 80 85
  can0  766   [8]  00 00 00 00 00 00 0E 08
  can0  073   [8]  05 00 93 63 00 80 10 2D
  can0  336   [8]  6E 42 00 00 00 00 00 00
  can0  003   [8]  0F FA 10 01 04 FF 80 0E
  can0  35C   [8]  02 10 E0 00 00 FF FF 01
  can0  75E   [8]  00 81 00 2D 18 18 18 18
  can0  2EF   [8]  F7 00 FF 0F FF FF FF 00
  can0  005   [8]  00 00 00 00 0D 00 98 8C
  can0  30D   [8]  81 51 75 FF FF 0E 03 81
  can0  073   [8]  05 00 93 63 00 80 20 67
  can0  003   [8]  0F FA 10 02 04 FF 90 79
  can0  045   [8]  00 FF 00 00 00 00 90 E8
  can0  75E   [8]  00 81 00 2D 18 18 18 18
  can0  201   [8]  0D CB 76 53 FF FF 90 A2
  can0  203   [8]  40 D3 40 D3 C0 DA C0 D9
  can0  245   [8]  80 0B 81 7E AB 84 90 85
  can0  001   [8]  CC 81 1F 9E 55 03 71 3E
  can0  105   [8]  06 91 7F 66 57 8B C4 A4
  can0  766   [8]  00 00 00 00 00 00 0E 08
  can0  073   [8]  05 00 93 63 00 80 30 AA
  can0  12D   [8]  01 0F 00 00 50 53 56 79
  can0  003   [8]  0F FA 10 02 04 FF A0 33
  can0  75E   [8]  00 81 00 2D 18 18 18 18
  can0  005   [8]  00 00 00 00 0D 00 A8 C6
  can0  33D   [8]  00 42 00 00 64 00 00 00
  can0  073   [8]  05 00 93 63 00 80 40 F3
  can0  375   [8]  13 10 34 3F 3F 07 00 00
  can0  003   [8]  0F FA 10 03 04 FF B0 63
  can0  75E   [8]  00 81 00 2D 18 18 18 18
  can0  328   [2]  07 60
  can0  201   [8]  11 CE 79 57 FF FF A0 9B
  can0  203   [8]  40 D6 40 D6 C0 DF C0 DE
  can0  37D   [8]  02 00 04 DC 10 00 FF FF
  can0  105   [8]  06 A9 7F 66 57 8B D4 5F
  can0  245   [8]  80 0D 81 7E AB 84 A0 85
  can0  34F   [8]  10 92 00 92 03 E7 07 FF
  can0  073   [8]  05 00 93 63 00 80 50 3E
  can0  766   [8]  00 00 00 00 00 00 0E 08
  can0  400   [8]  FD 13 04 0F E0 81 00 05
  can0  003   [8]  0F FA 10 04 04 FF C0 CE
  can0  005   [8]  00 00 00 00 0D 00 B8 0B
  can0  75E   [8]  00 81 00 2D 18 18 18 18
  can0  249   [8]  34 7D 00 39 0F 00 FF FF
  can0  073   [8]  05 00 93 63 00 80 60 74
  can0  003   [8]  0F FA 10 04 04 FF D0 03
  can0  201   [8]  14 D2 7D 5A FF FF B0 83
  can0  247   [8]  00 00 00 06 00 18 00 00
  can0  203   [8]  40 DB 40 DB C0 E1 C0 E2
  can0  245   [8]  80 0D 81 7E AB 84 B0 85
  can0  75E   [8]  00 81 00 2D 18 18 18 18
  can0  105   [8]  06 BF 7F 67 57 8B E4 15
  can0  073   [8]  05 00 93 63 00 80 70 B9
  can0  766   [8]  00 00 00 00 00 00 0E 08
  can0  3D3   [4]  C0 00 00 00
  can0  003   [8]  0F FB 10 05 04 FF E0 92
  can0  005   [8]  00 00 00 00 0D 00 C8 52
  can0  19F   [8]  00 7D 75 F0 48 22 61 F4
  can0  75E   [8]  00 81 00 2D 18 18 18 18
  can0  76E   [8]  00 00 00 00 00 00 00 00
  can0  007   [8]  F0 05 38 00 3F FC AF 79
  can0  073   [8]  05 00 93 63 00 80 80 C6
  can0  388   [8]  35 FF 1F CF FF 0F 07 FF
  can0  003   [8]  0F FB 10 05 04 FF F0 5F
  can0  201   [8]  18 D5 81 5E FF FF C0 B1
  can0  203   [8]  40 DF 40 DF C0 E8 C0 E6
  can0  105   [8]  06 D4 7F 67 58 8B F4 E6
  can0  245   [8]  80 0A 81 7E AC 84 C0 85
  can0  205   [8]  06 93 0C 00 00 00 00 00
  can0  04B   [6]  01 00 0C 06 FF 04
  can0  75E   [8]  00 81 00 2D 18 18 18 18
  can0  073   [8]  05 00 93 63 00 80 90 0B
  can0  39D   [8]  1E 02 01 02 FF 0E 00 7F
  can0  283   [8]  F5 0D 08 03 C0 6E 3F FF
  can0  766   [8]  00 00 00 00 00 00 0E 08
  can0  003   [8]  0F FB 10 06 04 FF 00 9A
  can0  34E   [8]  00 00 AA 00 00 AA 11 31
  can0  005   [8]  00 00 00 00 0D 00 D8 9F
  can0  068   [1]  01
  can0  75E   [8]  00 81 00 2D 18 18 18 18
  can0  073   [8]  05 00 93 63 00 80 A0 41
  can0  10C   [8]  3B 7F FF 07 03 FF C3 67
  can0  003   [8]  0F FB 10 06 04 FF 10 57
  can0  201   [8]  1B D9 84 62 FF FF D0 F6
  can0  203   [8]  40 E2 40 E3 C0 EB C0 EB
  can0  245   [8]  80 09 81 7E AD 84 D0 85
  can0  105   [8]  06 DE 7F 67 58 8B 04 1F
  can0  20E   [8]  3F 00 01 F0 FF FF 3F 68
  can0  75E   [8]  00 81 00 2D 18 18 18 18
  can0  073   [8]  05 00 93 63 00 80 B0 8C
  can0  351   [8]  00 00 00 00 00 00 00 00
  can0  766   [8]  00 00 00 00 00 00 0E 08
  can0  003   [8]  0F FB 10 07 04 FF 20 80
  can0  005   [8]  00 00 00 00 0D 00 E8 D5
  can0  30D   [8]  81 51 75 FF FF 0E CC 81
  can0  75E   [8]  00 81 00 2D 18 18 18 18
  can0  776   [8]  00 00 00 00 00 00 00 00
  can0  073   [8]  05 00 93 63 00 80 C0 D5
  can0  003   [8]  0F FB 10 07 04 FF 30 4D
  can0  045   [8]  00 FF 00 00 00 00 A0 A2
  can0  1C1   [4]  00 00 00 00
  can0  201   [8]  1F DD 88 66 FF FF E0 5C
  can0  001   [8]  CC 81 1F 9E 55 03 81 41
  can0  203   [8]  40 E6 40 E7 C0 F0 C0 EF
  can0  245   [8]  80 07 81 7E AD 85 E0 85
  can0  105   [8]  06 F2 7F 68 58 8B 14 9D
  can0  75E   [8]  00 81 00 2D 18 18 18 18
  can0  073   [8]  05 00 93 63 00 80 D0 18
  can0  12D   [8]  01 0F 00 00 50 53 56 79
  can0  766   [8]  00 00 00 00 00 00 0E 08
  can0  003   [8]  0F FB 10 07 04 FF 40 14
  can0  005   [8]  00 00 00 00 0D 00 F8 18
  can0  33D   [8]  00 42 00 00 64 00 00 00
  can0  75E   [8]  00 81 00 2D 18 18 18 18
  can0  073   [8]  05 00 93 63 00 80 E0 52
  can0  375   [8]  13 10 34 3F 3F 07 00 00
  can0  413   [8]  FD 00 04 0F 10 00 00 05
  can0  003   [8]  0F FB 10 07 04 FF 50 D9
  can0  201   [8]  23 E0 8C 6A FF FF F0 EE
  can0  203   [8]  40 EB 40 EC C0 F3 C0 F3
  can0  245   [8]  80 06 81 7E AE 85 F0 85
  can0  105   [8]  07 04 7F 68 59 8B 24 40
  can0  34F   [8]  10 92 00 92 03 E7 07 FF
  can0  75E   [8]  00 81 00 2D 18 18 18 18
  can0  073   [8]  05 00 93 63 00 80 F0 9F
  can0  766   [8]  00 00 00 00 00 00 0E 08
  can0  003   [8]  0F FB 10 07 04 FF 60 93
  can0  005   [8]  00 00 00 00 0D 00 08 67
  can0  249   [8]  3C 39 00 FF FF 00 03 FF
  can0  75E   [8]  00 81 00 2D 18 18 18 18
  can0  073   [8]  05 00 93 63 00 80 00 E0
  can0  003   [8]  0F FB 10 07 04 FF 70 5E
  can0  201   [8]  27 E4 90 6E FF FF 00 9F
  can0  203   [8]  40 F0 40 F0 C0 F9 C0 F8
  can0  105   [8]  07 16 7F 68 59 8B 34 15
  can0  245   [8]  80 07 81 7E AD 85 00 85
  can0  247   [8]  00 00 00 06 00 18 00 00
  can0  75E   [8]  00 81 00 2D 18 18 18 18
  can0  073   [8]  05 00 93 63 00 80 10 2D
  can0  003   [8]  0F FB 10 07 04 FF 80 21
  can0  766   [8]  00 00 00 00 00 00 0E 08
  can0  19F   [8]  00 87 75 F0 48 22 61 F4
  can0  005   [8]  00 00 00 00 0D 00 18 AA
  can0  007   [8]  F0 05 38 00 3F FC AF 79
  can0  75E   [8]  00 81 00 2D 18 18 18 18
  can0  76E   [8]  00 00 00 00 00 00 00 00
  can0  073   [8]  05 00 93 63 00 80 20 67
  can0  388   [8]  35 FF 1F CF FF 0F 07 FF
  can0  003   [8]  0F FB 10 08 04 FF 90 84
  can0  201   [8]  2B E8 94 72 FF FF 10 A4
  can0  203   [8]  40 F4 40 F4 C0 FD C0 FC
  can0  245   [8]  80 05 81 7E AD 84 10 85
  can0  105   [8]  07 28 7F 68 59 8B 44 F3
  can0  205   [8]  06 93 0C 00 00 00 00 00
  can0  3D1   [4]  C6 0B 00 00
  can0  04B   [6]  01 00 0C 06 FF 04
  can0  75E   [8]  00 81 00 2D 18 18 18 18
  can0  073   [8]  05 00 93 63 00 80 30 AA
  can0  39D   [8]  1E 02 01 02 FF 0E 00 07
  can0  3F6   [5]  02 00 00 00 00
  can0  003   [8]  0F FB 10 08 04 FF A0 CE
  can0  283   [8]  F5 0D 08 03 C0 6E 3F FF
  can0  766   [8]  00 00 00 00 00 00 0E 08
  can0  34E   [8]  00 00 AA 00 00 AA 11 31
  can0  005   [8]  00 00 00 00 0D 00 28 E0
  can0  75E   [8]  00 81 00 2D 18 18 18 18
  can0  073   [8]  05 00 93 63 00 80 40 F3
  can0  003   [8]  0F FC 10 08 04 FF B0 CC
  can0  201   [8]  2F EC 98 76 FF FF 20 0E
  can0  203   [8]  40 F8 40 F7 C1 00 C1 01
  can0  105   [8]  07 37 7F 68 59 8B 54 EF
  can0  245   [8]  80 03 81 7E AE 83 20 85
  can0  75E   [8]  00 81 00 2D 18 18 18 18
  can0  073   [8]  05 00 93 63 00 80 50 3E
  can0  336   [8]  6E 42 00 00 00 00 00 00
  can0  003   [8]  0F FC 10 08 04 FF C0 95
  can0  766   [8]  00 00 00 00 00 00 0E 08
  can0  35C   [8]  02 10 E0 00 00 FF FF 01
  can0  005   [8]  00 00 00 00 0D 00 38 2D
  can0  2EF   [8]  F7 00 FF 0F FF FF FF 00
  can0  30D   [8]  81 51 75 FF FF 0F CB 81
  can0  75E   [8]  00 81 00 2D 18 18 18 18
  can0  073   [8]  05 00 93 63 00 80 60 74
  can0  003   [8]  0F FC 10 08 04 FF D0 58
  can0  045   [8]  00 FF 00 00 00 00 B0 6F
  can0  201   [8]  33 F0 9D 7A FF FF 30 D7
  can0  203   [8]  40 FC 40 FD C1 06 C1 05
  can0  245   [8]  80 0B 81 7E AE 83 30 85
  can0  001   [8]  CC 81 1F 9E 55 03 91 8C
  can0  105   [8]  07 3E 7F 69 59 8B 64 74
  can0  75E   [8]  00 81 00 2D 18 18 18 18
  can0  073   [8]  05 00 93 63 00 80 70 B9
  can0  12D   [8]  01 0F 00 00 50 53 56 79
  can0  003   [8]  0F FC 10 08 04 FF E0 12
  can0  766   [8]  00 00 00 00 00 00 0E 08
  can0  400   [8]  FD 13 04 0F E0 81 00 05
  can0  005   [8]  00 00 00 00 0D 00 48 74
  can0  33D   [8]  00 42 00 00 64 00 00 00
  can0  75E   [8]  00 81 00 2D 18 18 18 18
  can0  073   [8]  05 00 93 63 00 80 80 C6
  can0  375   [8]  13 10 34 3F 3F 07 00 00
  can0  003   [8]  0F FC 10 07 04 FF F0 B7
  can0  201   [8]  37 F5 A1 7E FF FF 40 07
  can0  328   [2]  07 60
  can0  203   [8]  41 01 41 01 C1 0A C1 09
  can0  105   [8]  07 4B 7F 69 59 8B 74 96
  can0  245   [8]  80 0E 81 7E AD 84 40 85
  can0  37D   [8]  02 00 04 DC 10 00 FF FF
  can0  34F   [8]  10 92 00 92 03 E7 07 FF
  can0  073   [8]  05 00 93 63 00 80 90 0B
  can0  75E   [8]  00 81 00 2D 18 18 18 18
  can0  003   [8]  0F FC 10 06 04 FF 00 55
  can0  005   [8]  00 00 00 00 0D 00 58 B9
  can0  766   [8]  00 00 00 00 00 00 0E 08
  can0  249   [8]  04 70 00 0A B4 00 FF FF
  can0  073   [8]  05 00 93 63 00 80 A0 41
  can0  75E   [8]  00 81 00 2D 18 18 18 18
  can0  003   [8]  0F FC 10 05 04 FF 10 22
  can0  201   [8]  3B F9 A5 83 FF FF 50 4A
  can0  247   [8]  00 00 00 06 00 18 00 00
  can0  203   [8]  41 05 41 06 C1 0D C1 0D
  can0  245   [8]  80 13 81 7E AD 84 50 85
  can0  105   [8]  07 58 7F 69 59 8B 84 37
  can0  073   [8]  05 00 93 63 00 80 B0 8C
  can0  75E   [8]  00 81 00 2D 18 18 18 18
  can0  3D3   [4]  C0 00 00 00
  can0  003   [8]  0F FC 10 05 04 FF 20 68
  can0  19F   [8]  00 93 75 F0 48 22 61 F4
  can0  005   [8]  00 00 00 00 0D 00 68 F3
  can0  766   [8]  00 00 00 00 00 00 0E 08
  can0  007   [8]  F0 05 38 00 3F FC AF 79
  can0  073   [8]  05 00 93 63 00 80 C0 D5
  can0  75E   [8]  00 81 00 2D 18 18 18 18
  can0  76E   [8]  00 00 00 00 00 00 00 00
  can0  003   [8]  0F FC 10 04 04 FF 30 38
  can0  201   [8]  40 FD AA 87 FF FF 60 0A
  can0  203   [8]  41 09 41 09 C1 11 C1 0E
  can0  388   [8]  35 FF 1F CF FF 0F 07 FF
  can0  105   [8]  07 67 7F 69 59 8A 94 4F
  can0  205   [8]  06 93 0C 00 00 00 00 00
  can0  245   [8]  80 15 81 7E AD 84 60 85
  can0  073   [8]  05 00 93 63 00 80 D0 18
  can0  39D   [8]  1E 02 01 02 FF 0E 00 0F
  can0  04B   [6]  01 00 0C 06 FF 04
  can0  75E   [8]  00 81 00 2D 18 18 18 18
  can0  003   [8]  0F FC 10 03 04 FF 40 95
  can0  34E   [8]  00 00 AA 00 00 AA 11 31
  can0  005   [8]  00 00 00 00 0D 00 78 3E
  can0  283   [8]  F5 0D 08 03 C0 6E 3F FF
  can0  766   [8]  00 00 00 00 00 00 0E 08
  can0  073   [8]  05 00 93 63 00 80 E0 52
  can0  068   [1]  01
  can0  75E   [8]  00 81 00 2D 18 18 18 18
  can0  003   [8]  0F FC 10 02 04 FF 50 C5
  can0  201   [8]  44 02 AE 8B FF FF 70 C0
  can0  203   [8]  41 0E 41 0D C1 12 C1 11
  can0  245   [8]  80 13 81 7E AB 84 70 85
  can0  105   [8]  07 79 7F 69 59 8A A4 92
  can0  10C   [8]  3B 7F FF 07 03 FF C3 67
  can0  073   [8]  05 00 93 63 00 80 F0 9F
  can0  20E   [8]  3F 00 01 F0 FF FF 3F 68
  can0  75E   [8]  00 81 00 2D 18 18 18 18
  can0  004   [5]  01 00 00 7D 07
  can0  003   [8]  0F FC 10 01 04 FF 60 35
  can0  005   [8]  00 00 00 00 0D 00 88 41
  can0  351   [8]  00 00 00 00 00 00 00 00
  can0  30D   [8]  81 50 75 FF FF 10 FC 81
  can0  766   [8]  00 00 00 00 00 00 0E 08
  can0  073   [8]  05 00 93 63 00 80 00 E0
  can0  75E   [8]  00 81 00 2D 18 18 18 18
  can0  776   [8]  00 00 00 00 00 00 00 00
  can0  003   [8]  0F FC 10 00 04 FF 70 65
  can0  045   [8]  00 FF 00 00 00 00 C0 36
  can0  201   [8]  48 07 B3 90 FF FF 80 02
  can0  001   [8]  CC 81 1F 9E 55 03 A1 C6
  can0  105   [8]  07 8F 7F 69 59 8A B4 1A
  can0  203   [8]  41 11 41 11 C1 18 C1 17
  can0  245   [8]  80 11 81 7E A7 85 80 85
  can0  073   [8]  05 00 93 63 00 80 10 2D
  can0  12D   [8]  01 0F 00 00 50 53 56 79
  can0  75E   [8]  00 81 00 2D 18 18 18 18
  can0  413   [8]  FD 00 04 0F 10 00 00 05
  can0  003   [8]  0F FC 10 00 04 FF 80 1A
  can0  005   [8]  00 00 00 00 0D 00 98 8C
  can0  766   [8]  00 00 00 00 00 00 0E 08
  can0  33D   [8]  00 42 00 00 64 00 00 00
  can0  073   [8]  05 00 93 63 00 80 20 67
  can0  375   [8]  13 10 34 3F 3F 07 00 00
  can0  75E   [8]  00 81 00 2D 18 18 18 18
  can0  003   [8]  0F FC 10 00 04 FF 90 D7
  can0  201   [8]  4D 0B B7 94 FF FF 90 0F
  can0  203   [8]  41 12 41 12 C1 1B C1 1A
  can0  245   [8]  80 0B 81 7E A4 84 90 85
  can0  105   [8]  07 AA 7F 69 59 8A C4 28
  can0  34F   [8]  10 92 00 92 03 E7 07 FF
  can0  073   [8]  05 00 93 63 00 80 30 AA
  can0  75E   [8]  00 81 00 2D 18 18 18 18
  can0  003   [8]  0F FC 10 00 04 FF A0 9D
  can0  005   [8]  00 00 00 00 0D 00 A8 C6
  can0  766   [8]  00 00 00 00 00 00 0E 08
  can0  249   [8]  0C B6 00 13 E8 00 FF FF
  can0  073   [8]  05 00 93 63 00 80 40 F3
  can0  75E   [8]  00 81 00 2D 18 18 18 18
  can0  003   [8]  0F FC 10 00 04 FF B0 50
  can0  201   [8]  51 10 BC 99 FF FF A0 15
  can0  203   [8]  41 17 41 16 C1 1E C1 1E
  can0  105   [8]  07 C3 7F 69 59 8A D4 D1
  can0  245   [8]  80 07 81 7E A2 85 A0 85
  can0  247   [8]  00 00 00 06 00 18 00 00
  can0  073   [8]  05 00 93 63 00 80 50 3E
  can0  75E   [8]  00 81 00 2D 18 18 18 18
  can0  003   [8]  0F FC 10 00 04 FF C0 09
  can0  34D   [2]  10 00
  can0  005   [8]  00 00 00 00 0D 00 B8 0B
  can0  19F   [8]  00 A0 75 F0 48 22 61 F4
  can0  766   [8]  00 00 00 00 00 00 0E 08
  can0  007   [8]  F0 05 38 00 3F FC AF 79
  can0  073   [8]  05 00 93 63 00 80 60 74
  can0  75E   [8]  00 81 00 2D 18 18 18 18
  can0  76E   [8]  00 00 00 00 00 00 00 00
  can0  003   [8]  0F FC 10 01 04 FF D0 59
  can0  201   [8]  56 14 C0 9E FF FF B0 D5
  can0  203   [8]  41 1B 41 19 C1 22 C1 21
  can0  245   [8]  80 09 81 7E A0 86 B0 85
  can0  105   [8]  07 DD 7F 69 5A 8B E4 CC
  can0  388   [8]  35 FF 1F CF FF 0F 07 FF
  can0  205   [8]  06 93 0C 00 00 00 00 00
  can0  3D1   [4]  C6 0B 00 00
  can0  073   [8]  05 00 93 63 00 80 70 B9
  can0  39D   [8]  1E 02 01 02 FF 0E 00 17
  can0  3F6   [5]  02 00 00 00 00
  can0  04B   [6]  01 00 0C 06 FF 04
  can0  75E   [8]  00 81 00 2D 18 18 18 18
  can0  003   [8]  0F FC 10 02 04 FF E0 A9
  can0  34E   [8]  00 00 AA 00 00 AA 11 31
  can0  005   [8]  00 00 00 00 0D 00 C8 52
  can0  283   [8]  F5 0D 08 03 C0 6E 3F FF
  can0  766   [8]  00 00 00 00 00 00 0E 08
  can0  073   [8]  05 00 93 63 00 80 80 C6
  can0  75E   [8]  00 81 00 2D 18 18 18 18
  can0  204   [8]  00 57 44 44 4B 4A 36 46
  can0  003   [8]  0F FC 10 02 04 FF F0 64
  can0  201   [8]  5A 19 C5 A2 FF FF C0 1C
  can0  105   [8]  07 FB 7F 69 5A 8B F4 A0
  can0  203   [8]  41 1C 41 1D C1 24 C1 24
  can0  245   [8]  80 03 81 7E A1 86 C0 85
  can0  073   [8]  05 00 93 63 00 80 90 0B
  can0  336   [8]  6E 42 00 00 00 00 00 00
  can0  75E   [8]  00 81 00 2D 18 18 18 18
  can0  003   [8]  0F FC 10 02 04 FF 00 1B
  can0  35C   [8]  02 10 E0 00 00 FF FF 01
  can0  005   [8]  00 00 00 00 0D 00 D8 9F
  can0  2EF   [8]  F7 00 FF 0F FF FF FF 00
  can0  30D   [8]  81 50 75 FF FF 12 19 81
  can0  766   [8]  00 00 00 00 00 00 0E 08
  can0  400   [8]  FD 13 04 0F E0 81 00 05
  can0  073   [8]  05 00 93 63 00 80 A0 41
  can0  204   [8]  01 42 31 47 46 33 31 34
  can0  003   [8]  0F FC 10 03 04 FF 10 4B
  can0  75E   [8]  00 81 00 2D 18 18 18 18
  can0  045   [8]  00 FF 00 00 00 00 D0 FB
  can0  201   [8]  5F 1D CA A7 FF FF D0 4F
  can0  203   [8]  41 1F 41 21 C1 28 C1 26
  can0  245   [8]  80 00 81 7E 9E 84 D0 85
  can0  001   [8]  CC 81 1F 9E 55 03 B1 0B
  can0  105   [8]  08 1F 7F 6A 5A 8B 04 E4
  can0  002   [5]  01 00 C3 8C 07
  can0  1C0   [2]  00 00
  can0  073   [8]  05 00 93 63 00 80 B0 8C
  can0  12D   [8]  01 0F 00 00 50 53 56 79
  can0  003   [8]  0F FC 10 03 04 FF 20 01
  can0  75E   [8]  00 81 00 2D 18 18 18 18
  can0  005   [8]  00 00 00 00 0D 00 E8 D5
  can0  33D   [8]  00 42 00 00 64 00 00 00
  can0  766   [8]  00 00 00 00 00 00 0E 08
  can0  073   [8]  05 00 93 63 00 80 C0 D5
  can0  375   [8]  13 10 34 3F 3F 07 00 00
  can0  204   [8]  02 33 33 35 FF FF FF FF
  can0  003   [8]  0F FC 10 03 04 FF 30 CC
  can0  75E   [8]  00 81 00 2D 18 18 18 18
  can0  201   [8]  64 22 CF AC FF FF E0 E6
  can0  328   [2]  07 60
  can0  203   [8]  41 23 41 20 C1 2A C1 2A
  can0  245   [8]  7F FF 81 7E 9D 83 E0 85
  can0  105   [8]  08 47 7F 6A 5B 8B 14 E8
  can0  37D   [8]  02 00 04 DC 10 00 FF FF
  can0  34F   [8]  10 92 00 92 03 E7 07 FF
  can0  073   [8]  05 00 93 63 00 80 D0 18
  can0  003   [8]  0F FC 10 03 04 FF 40 95
  can0  005   [8]  00 00 00 00 0D 00 F8 18
  can0  10E   [4]  00 C0 00 02
  can0  75E   [8]  00 81 00 2D 18 18 18 18
  can0  249   [8]  17 E8 00 1B E8 00 FF FF
  can0  073   [8]  05 00 93 63 00 80 E0 52
  can0  30E   [8]  0C 00 00 00 00 05 FF 03
  can0  766   [8]  00 00 00 00 00 00 0E 08
  can0  10D   [4]  00 A0 3E 00
  can0  003   [8]  0F FC 10 04 04 FF 50 AC
  can0  201   [8]  68 27 D4 B1 FF FF F0 9E
  can0  247   [8]  00 00 00 06 00 18 00 00
  can0  203   [8]  41 26 41 24 C1 2E C1 2E
  can0  245   [8]  7F FE 81 7E 9D 82 F0 85
  can0  105   [8]  08 71 7F 6B 5B 8B 24 8A
  can0  75E   [8]  00 81 00 2D 18 18 18 18
  can0  317   [2]  0A 00
  can0  073   [8]  05 00 93 63 00 80 F0 9F
  can0  3D3   [4]  C0 00 00 00
  can0  003   [8]  0F FC 10 04 04 FF 60 E6
  can0  19F   [8]  00 A9 75 F0 48 22 61 F4
  can0  005   [8]  00 00 00 00 0D 00 08 67
  can0  75E   [8]  00 81 00 2D 18 18 18 18
  can0  007   [8]  F0 05 38 00 3F FC AF 79
  can0  073   [8]  05 00 93 63 00 80 00 E0
  can0  766   [8]  00 00 00 00 00 00 0E 08
  can0  003   [8]  0F FC 10 04 04 FF 70 2B
  can0  201   [8]  6D 2C D9 B6 FF FF 00 49
  can0  203   [8]  41 28 41 2C C1 32 C1 31
  can0  245   [8]  7F FA 81 7E 9C 82 00 85
  can0  105   [8]  08 8D 7F 6B 5C 8A 34 42
  can0  205   [8]  06 93 0C 00 00 00 00 00
  can0  75E   [8]  00 81 00 2D 18 18 18 18
  can0  76E   [8]  00 00 00 00 00 00 00 00
  can0  073   [8]  05 00 93 63 00 80 10 2D
  can0  39D   [8]  1E 02 01 02 FF 0E 00 1F
  can0  388   [8]  35 FF 1F CF FF 0F 07 FF
  can0  003   [8]  0F FC 10 04 04 FF 80 54
  can0  34E   [8]  00 00 AA 00 00 AA 11 31
  can0  005   [8]  00 00 00 00 0D 00 18 AA
  can0  04B   [6]  01 00 0C 06 FF 04
  can0  75E   [8]  00 81 00 2D 18 18 18 18
  can0  073   [8]  05 00 93 63 00 80 20 67
  can0  283   [8]  F5 0D 08 03 C0 6E 3F FF
  can0  766   [8]  00 00 00 00 00 00 0E 08
  can0  003   [8]  0F FC 10 04 04 FF 90 99
  can0  201   [8]  72 30 DD BB FF FF 10 80
  can0  203   [8]  41 2B 41 2E C1 34 C1 34
  can0  245   [8]  7F FD 81 7E 9D 82 10 85
  can0  105   [8]  08 AB 7F 6C 5C 8A 44 4E
  can0  068   [1]  01
  can0  75E   [8]  00 81 00 2D 18 18 18 18
  can0  073   [8]  05 00 93 63 00 80 30 AA
  can0  10C   [8]  3B 7F FF 07 03 FF C3 67
  can0  413   [8]  FD 00 04 0F 10 00 00 05
  can0  003   [8]  0F FC 10 05 04 FF A0 4E
  can0  005   [8]  00 00 00 00 0D 00 28 E0
  can0  30D   [8]  81 50 75 FF FF 13 27 81
  can0  20E   [8]  3F 00 01 F0 FF FF 3F 68
  can0  75E   [8]  00 81 00 2D 18 18 18 18
  can0  073   [8]  05 00 93 63 00 80 40 F3
  can0  351   [8]  00 00 00 00 00 00 00 00
  can0  766   [8]  00 00 00 00 00 00 0E 08
  can0  003   [8]  0F FD 10 06 04 FF B0 7F
  can0  045   [8]  00 FF 00 00 00 00 E0 B1
  can0  001   [8]  CC 81 1F 9E 55 03 C1 52
  can0  201   [8]  77 35 E2 C0 FF FF 20 33
  can0  105   [8]  08 B1 7F 6C 5C 8A 54 11
  can0  203   [8]  41 2E 41 2B C1 37 C1 37
  can0  245   [8]  80 06 81 7E 9F 84 20 85
  can0  2FF   [8]  02 28 00 53 FF 53 62 FE
  can0  75E   [8]  00 81 00 2D 18 18 18 18
  can0  776   [8]  00 00 00 00 00 00 00 00
  can0  073   [8]  05 00 93 63 00 80 50 3E
  can0  12D   [8]  01 0F 00 00 50 53 56 79
  can0  003   [8]  0F FD 10 07 04 FF C0 BB
  can0  208   [8]  1F 40 11 80 00 06 40 A8
  can0  005   [8]  00 00 00 00 0D 00 38 2D
  can0  33D   [8]  00 42 00 00 64 00 00 00
  can0  207   [8]  10 09 3D 22 0F CB 4D AC
  can0  75E   [8]  00 81 00 2D 18 18 18 18
  can0  073   [8]  05 00 93 63 00 80 60 74
  can0  375   [8]  13 10 34 3F 3F 07 00 00
  can0  206   [8]  00 00 0D 20 C1 80 D2 CC
  can0  003   [8]  0F FD 10 08 04 FF D0 1E
  can0  766   [8]  00 00 00 00 00 00 0E 08
  can0  201   [8]  7C 3A E8 C5 FF FF 30 7E
  can0  203   [8]  41 31 41 32 C1 39 C1 38
  can0  105   [8]  08 B2 7F 6C 5D 8A 64 1E
  can0  245   [8]  80 0E 81 7E A1 85 30 85
  can0  34F   [8]  10 92 00 92 03 E7 07 FF
  can0  20A   [8]  FA FF 00 FC FF FF FF 7F
  can0  75E   [8]  00 81 00 2D 18 18 18 18
  can0  073   [8]  05 00 93 63 00 80 70 B9
  can0  003   [8]  0F FD 10 09 04 FF E0 C9
  can0  005   [8]  00 00 00 00 0D 00 48 74
  can0  249   [8]  1F E8 00 23 E8 00 FF FF
  can0  75E   [8]  00 81 00 2D 18 18 18 18
  can0  073   [8]  05 00 93 63 00 80 80 C6
  can0  766   [8]  00 00 00 00 00 00 0E 08
  can0  003   [8]  0F FD 10 08 04 FF F0 99
  can0  201   [8]  81 3F ED CA FF FF 40 9C
  can0  203   [8]  41 33 41 35 C1 3E C1 3D
  can0  247   [8]  00 00 00 06 00 18 00 00
  can0  105   [8]  08 B1 7F 6C 5D 8A 74 19
  can0  245   [8]  80 03 81 7E A0 86 40 85
  can0  75E   [8]  00 81 00 2D 18 18 18 18
  can0  073   [8]  05 00 93 63 00 80 90 0B
  can0  003   [8]  0F FD 10 08 04 FF 00 E6
  can0  19F   [8]  00 AF 75 F0 48 22 61 F4
  can0  005   [8]  00 00 00 00 0D 00 58 B9
  can0  007   [8]  F0 05 38 00 3F FC AF 79
  can0  75E   [8]  00 81 00 2D 18 18 18 18
  can0  073   [8]  05 00 93 63 00 80 A0 41
  can0  003   [8]  0F FD 10 08 04 FF 10 2B
  can0  26F   [2]  6F C0
  can0  766   [8]  00 00 00 00 00 00 0E 08
  can0  201   [8]  86 44 F2 CF FF FF 50 32
  can0  203   [8]  41 36 41 35 C1 41 C1 3F
  can0  245   [8]  7F F7 81 7E A0 86 50 85
  can0  105   [8]  08 BB 7F 6C 5D 8A 84 E0
  can0  205   [8]  06 93 0C 00 00 00 00 00
  can0  3D1   [4]  C6 0B 00 00
  can0  75E   [8]  00 81 00 2D 18 18 18 18
  can0  073   [8]  05 00 93 63 00 80 B0 8C
  can0  76E   [8]  00 00 00 00 00 00 00 00
  can0  39D   [8]  1E 02 01 02 FF 0E 00 27
  can0  003   [8]  0F FD 10 08 04 FF 20 61
  can0  3F6   [5]  02 00 00 00 00
  can0  388   [8]  35 FF 1F CF FF 0F 07 FF
  can0  005   [8]  00 00 00 00 0D 00 68 F3
  can0  34E   [8]  00 00 AA 00 00 AA 11 31
  can0  04B   [6]  01 00 0C 06 FF 04
  can0  75E   [8]  00 81 00 2D 18 18 18 18
  can0  073   [8]  05 00 93 63 00 80 C0 D5
  can0  003   [8]  0F FD 10 08 04 FF 30 AC
  can0  283   [8]  F5 0D 08 03 C0 6E 3F FF
  can0  766   [8]  00 00 00 00 00 00 0E 08
  can0  400   [8]  FD 13 04 0F E0 81 00 05
  can0  201   [8]  8B 49 F7 D4 FF FF 60 0B
  can0  105   [8]  08 C5 7F 6D 5D 8A 94 5F
  can0  203   [8]  41 3B 41 3A C1 42 C1 40
  can0  245   [8]  7F F9 81 7E A0 85 60 85
  can0  75E   [8]  00 81 00 2D 18 18 18 18
  can0  073   [8]  05 00 93 63 00 80 D0 18
  can0  336   [8]  6E 42 00 00 00 00 00 00
  can0  003   [8]  0F FD 10 09 04 FF 40 68
  can0  35C   [8]  02 10 E0 00 00 FF FF 01
  can0  2EF   [8]  F7 00 FF 0F FF FF FF 00
  can0  005   [8]  00 00 00 00 0D 00 78 3E
  can0  30D   [8]  81 50 75 FF FF 14 A2 81
  can0  75E   [8]  00 81 00 2D 18 18 18 18
  can0  073   [8]  05 00 93 63 00 80 E0 52
  can0  003   [8]  0F FD 10 08 04 FF 50 38
  can0  045   [8]  00 FF 00 00 00 00 F0 7C
  can0  3E3   [8]  5A FD 96 23 29 CF 5E B5
  can0  766   [8]  00 00 00 00 00 00 0E 08
  can0  1C1   [4]  00 00 00 00
  can0  201   [8]  90 4E FC D9 FF FF 70 03
  can0  203   [8]  41 3D 41 40 C1 46 C1 45
  can0  245   [8]  7F F6 81 7E 9F 84 70 85
  can0  001   [8]  CC 81 1F 9E 55 03 D1 9F
  can0  105   [8]  08 D3 7F 6D 5D 8A A4 88
  can0  75E   [8]  00 81 00 2D 18 18 18 18
  can0  073   [8]  05 00 93 63 00 80 F0 9F
  can0  12D   [8]  01 0F 00 00 50 53 56 79
  can0  003   [8]  0F FD 10 08 04 FF 60 72
  can0  3E5   [8]  0E 0A 0A 14 04 FF FF 00
  can0  3E7   [8]  5A FD 96 2A 29 CF 5E 7D
  can0  005   [8]  00 00 00 00 0D 00 88 41
  can0  3B8   [8]  00 00 00 60 41 05 00 00
  can0  33D   [8]  00 42 00 00 64 00 00 00
  can0  3F2   [8]  00 2B 00 0E 00 00 3F FD
  can0  073   [8]  05 00 93 63 00 80 00 E0
  can0  75E   [8]  00 81 00 2D 18 18 18 18
  can0  375   [8]  13 10 34 3F 3F 07 00 00
  can0  39F   [8]  12 01 10 02 0B 19 0A FF
  can0  003   [8]  0F FE 10 08 04 FF 70 75
  can0  3E9   [8]  07 E9 0B 03 02 01 05 DC
  can0  201   [8]  95 53 02 DF FF FF 80 F9
  can0  766   [8]  00 00 00 00 00 00 0E 08
  can0  203   [8]  41 3F 41 40 C1 49 C1 49
  can0  3EB   [8]  00 10 06 50 0D 29 0D 86
  can0  245   [8]  7F F4 81 7E 9F 82 80 85
  can0  105   [8]  08 DC 7F 6D 5D 8A B4 80
  can0  328   [2]  07 60
  can0  34F   [8]  10 92 00 92 03 E8 07 FF
  can0  37D   [8]  02 00 04 DC 10 00 FF FF
  can0  073   [8]  05 00 93 63 00 80 10 2D
  can0  75E   [8]  00 81 00 2D 18 18 18 18
  can0  003   [8]  0F FE 10 07 04 FF 80 62
  can0  005   [8]  00 00 00 00 0D 00 98 8C
  can0  249   [8]  27 E8 00 29 FC 00 FF FF
  can0  073   [8]  05 00 93 63 00 80 20 67
  can0  75E   [8]  00 81 00 2D 18 18 18 18
  can0  003   [8]  0F FE 10 07 04 FF 90 AF
  can0  201   [8]  9A 59 08 E4 FF FF 90 04
  can0  247   [8]  00 00 00 06 00 18 00 00
  can0  203   [8]  41 43 41 41 C1 4A C1 4A
  can0  245   [8]  7F FB 81 7E A0 81 90 85
  can0  766   [8]  00 00 00 00 00 00 0E 08
  can0  105   [8]  08 DF 7F 6D 5D 8A C4 13
  can0  2C4   [8]  00 00 FC 3F 7F FF 3F FF
  can0  073   [8]  05 00 93 63 00 80 30 AA
  can0  75E   [8]  00 81 00 2D 18 18 18 18
  can0  3D3   [4]  C0 00 00 00
  can0  003   [8]  0F FE 10 07 04 FF A0 E5
  can0  005   [8]  00 00 00 00 0D 00 A8 C6
  can0  19F   [8]  00 BA 75 F0 48 22 61 F4
  can0  007   [8]  F0 05 38 00 3F FC AF 79
  can0  073   [8]  05 00 93 63 00 80 40 F3
  can0  75E   [8]  00 81 00 2D 18 18 18 18
  can0  003   [8]  0F FE 10 08 04 FF B0 40
  can0  201   [8]  9F 5E 0D E9 FF FF A0 25
  can0  203   [8]  41 45 41 46 C1 50 C1 4F
  can0  245   [8]  80 03 81 7E 9E 83 A0 85
  can0  105   [8]  08 DD 7F 6D 5D 8B D4 1E
  can0  205   [8]  06 93 0C 00 00 00 00 00
  can0  766   [8]  00 00 00 00 00 00 0E 08
  can0  073   [8]  05 00 93 63 00 80 50 3E
  can0  39D   [8]  1E 02 01 02 FF 0E 00 2F
  can0  75E   [8]  00 81 00 2D 18 18 18 18
  can0  76E   [8]  00 00 00 00 00 00 00 00
  can0  003   [8]  0F FE 10 07 04 FF C0 71
  can0  34E   [8]  00 00 AA 00 00 AA 11 31
  can0  005   [8]  00 00 00 00 0D 00 B8 0B
  can0  388   [8]  35 FF 1F CF FF 0F 07 FF
  can0  073   [8]  05 00 93 63 00 80 60 74
  can0  04B   [6]  01 00 0C 06 FF 04
  can0  413   [8]  FD 00 04 0F 10 00 00 05
  can0  75E   [8]  00 81 00 2D 18 18 18 18
  can0  003   [8]  0F FE 10 06 04 FF D0 21
  can0  201   [8]  A5 63 13 EF FF FF B0 B2
  can0  203   [8]  41 47 41 49 C1 52 C1 51
  can0  245   [8]  80 07 81 7E 9F 84 B0 85
  can0  105   [8]  08 DC 7F 6D 5E 8B E4 9E
  can0  283   [8]  F5 0D 08 03 C0 6E 3F FF
  can0  766   [8]  00 00 00 00 00 00 0E 08
  can0  073   [8]  05 00 93 63 00 80 70 B9
  can0  003   [8]  0F FE 10 04 04 FF E0 4C
  can0  068   [1]  01
  can0  75E   [8]  00 81 00 2D 18 18 18 18
  can0  005   [8]  00 00 00 00 0D 00 C8 52
  can0  30D   [8]  81 50 75 FF FF 16 F4 81
  can0  10C   [8]  3B 7F FF 07 03 FF C3 67
  can0  073   [8]  05 00 93 63 00 80 80 C6
  can0  20E   [8]  3F 00 01 F0 FF FF 3F 68
  can0  003   [8]  0F FE 10 04 04 FF F0 81
  can0  75E   [8]  00 81 00 2D 18 18 18 18
  can0  045   [8]  00 FF 00 00 00 00 00 03
  can0  001   [8]  CC 81 1F 9E 55 03 E1 D5
  can0  201   [8]  AA 69 18 F4 FF FF C0 FB
  can0  203   [8]  41 4C 41 4B C1 56 C1 55
  can0  245   [8]  80 07 81 7E A2 85 C0 85
  can0  105   [8]  08 D3 7F 6D 5E 8B F4 96
  can0  351   [8]  00 00 00 00 00 00 00 00
  can0  073   [8]  05 00 93 63 00 80 90 0B
  can0  766   [8]  00 00 00 00 00 00 0E 08
  can0  12D   [8]  01 0F 00 00 50 53 56 79
  can0  003   [8]  0F FE 10 04 04 FF 00 FE
  can0  75E   [8]  00 81 00 2D 18 18 18 18
  can0  776   [8]  00 00 00 00 00 00 00 00
  can0  005   [8]  00 00 00 00 0D 00 D8 9F
  can0  33D   [8]  00 42 00 00 64 00 00 00
  can0  073   [8]  05 00 93 63 00 80 A0 41
  can0  375   [8]  13 10 34 3F 3F 07 00 00
  can0  003   [8]  0F FE 10 03 04 FF 10 C7
  can0  75E   [8]  00 81 00 2D 18 18 18 18
  can0  201   [8]  AF 6E 1E FA FF FF D0 59
  can0  203   [8]  41 4F 41 4E C1 5B C1 59
  can0  245   [8]  80 07 81 7E A1 85 D0 85
  can0  105   [8]  08 C2 7F 6D 5E 8B 04 BB
  can0  34F   [8]  10 92 00 92 03 E8 07 FF
  can0  766   [8]  00 00 00 00 00 00 0E 08
  can0  073   [8]  05 00 93 63 00 80 B0 8C
  can0  003   [8]  0F FE 10 02 04 FF 20 10
  can0  75E   [8]  00 81 00 2D 18 18 18 18
  can0  005   [8]  00 00 00 00 0D 00 E8 D5
  can0  249   [8]  2C 5E 00 30 6F 00 FF FF
  can0  073   [8]  05 00 93 63 00 80 C0 D5
  can0  003   [8]  0F FE 10 02 04 FF 30 DD
  can0  75E   [8]  00 81 00 2D 18 18 18 18
  can0  201   [8]  B5 73 23 00 FF FF E0 6D
  can0  105   [8]  08 B3 7F 6E 5E 8B 14 E6
  can0  203   [8]  41 52 41 52 C1 5D C1 5C
  can0  247   [8]  00 00 00 06 00 18 00 00
  can0  245   [8]  80 01 81 7E A4 86 E0 85
  can0  073   [8]  05 00 93 63 00 80 D0 18
  can0  766   [8]  00 00 00 00 00 00 0E 08
  can0  003   [8]  0F FE 10 01 04 FF 40 3E
  can0  19F   [8]  00 C1 75 F0 48 22 61 F4
  can0  75E   [8]  00 81 00 2D 18 18 18 18
  can0  005   [8]  00 00 00 00 0D 00 F8 18
  can0  007   [8]  F0 05 38 00 3F FC AF 79
  can0  073   [8]  05 00 93 63 00 80 E0 52
  can0  003   [8]  0F FE 10 01 04 FF 50 F3
  can0  201   [8]  BA 79 29 06 FF FF F0 B0
  can0  203   [8]  41 56 41 55 C1 61 C1 60
  can0  245   [8]  7F FE 81 7E A6 85 F0 85
  can0  75E   [8]  00 81 00 2D 18 18 18 18
  can0  105   [8]  08 92 7F 6E 5E 8B 24 C2
  can0  205   [8]  06 93 0C 00 00 00 00 00
  can0  3D1   [4]  C6 0B 00 00
  can0  073   [8]  05 00 93 63 00 80 F0 9F
  can0  39D   [8]  1E 02 01 02 FF 0E 00 37
  can0  766   [8]  00 00 00 00 00 00 0E 08
  can0  3F6   [5]  02 00 00 00 00
  can0  400   [8]  FD 13 04 0F E0 81 00 05
  can0  003   [8]  0F FE 10 01 04 FF 60 B9
  can0  34E   [8]  00 00 AA 00 00 AA 11 31
  can0  005   [8]  00 00 00 00 0D 00 08 67
  can0  75E   [8]  00 81 00 2D 18 18 18 18
  can0  76E   [8]  00 00 00 00 00 00 00 00
  can0  073   [8]  05 00 93 63 00 80 00 E0
  can0  388   [8]  35 FF 1F CF FF 0F 07 FF
  can0  003   [8]  0F FE 10 01 04 FF 70 74
  can0  201   [8]  C0 7E 2F 0C FF FF 00 BA
  can0  105   [8]  08 6D 7F 6E 5E 8B 34 06
  can0  04B   [6]  01 00 0C 06 FF 04
  can0  75E   [8]  00 81 00 2D 18 18 18 18
  can0  203   [8]  41 59 41 59 C1 64 C1 63
  can0  245   [8]  7F FD 81 7E A4 84 00 85
