  can0  283   [8]  F5 0D 08 03 C0 6E 3F FF
  can0  30D   [8]  7C 55 72 FF FF 03 EF 81
  can0  766   [8]  00 00 00 00 00 00 0E 08
  can0  073   [8]  05 00 93 62 00 80 00 7D
  can0  003   [8]  0F FA 10 02 04 FF 70 CB
  can0  045   [8]  00 FF 00 00 00 00 A0 A2
  can0  75E   [8]  00 81 00 2D 18 18 18 18
  can0  201   [8]  59 57 51 4B FF FF 80 A9
  can0  203   [8]  42 24 42 25 C2 2F C2 2F
  can0  245   [8]  80 06 80 7E 81 81 80 85
  can0  2FF   [8]  02 28 00 52 FF 53 61 FE
  can0  105   [8]  04 02 7F 21 21 8E B4 75
  can0  001   [8]  CC 81 1F 9E 55 03 41 74
  can0  073   [8]  05 00 93 62 00 80 10 B0
  can0  003   [8]  0F FA 10 02 04 FF 80 B4
  can0  75E   [8]  00 81 00 2D 18 18 18 18
  can0  12D   [8]  01 0F 00 00 50 53 56 79
  can0  005   [8]  00 00 00 00 0D 00 98 8C
  can0  766   [8]  00 00 00 00 00 00 0E 08
  can0  33D   [8]  00 42 00 00 64 00 00 00
  can0  073   [8]  05 00 93 62 00 80 20 FA
  can0  375   [8]  13 10 34 3F 3F 07 00 00
  can0  003   [8]  0F FA 10 02 04 FF 90 79
  can0  75E   [8]  00 81 00 2D 18 18 18 18
  can0  201   [8]  62 60 5A 54 FF FF 90 F0
  can0  203   [8]  42 25 42 24 C2 2F C2 2E
  can0  245   [8]  80 0E 80 7E 81 83 90 85
  can0  105   [8]  04 02 7F 21 21 8E C4 2C
  can0  34F   [8]  10 93 00 93 00 61 07 FF
  can0  073   [8]  05 00 93 62 00 80 30 37
  can0  413   [8]  FD 00 04 0F 10 00 00 05
  can0  003   [8]  0F FA 10 02 04 FF A0 33
  can0  75E   [8]  00 81 00 2D 18 18 18 18
  can0  005   [8]  00 00 00 00 0D 00 A8 C6
  can0  766   [8]  00 00 00 00 00 00 0E 08
  can0  249   [8]  0F E8 00 13 E8 00 FF FF
  can0  073   [8]  05 00 93 62 00 80 40 6E
  can0  003   [8]  0F FA 10 02 04 FF B0 FE
  can0  75E   [8]  00 81 00 2D 18 18 18 18
  can0  319   [1]  80
  can0  201   [8]  6B 69 63 5D FF FF A0 4A
  can0  247   [8]  00 00 00 06 00 18 00 00
  can0  203   [8]  42 25 42 22 C2 2D C2 2E
  can0  245   [8]  80 0E 80 7E 81 83 A0 85
  can0  105   [8]  04 01 7F 21 21 8E D4 2B
  can0  073   [8]  05 00 93 62 00 80 50 A3
  can0  003   [8]  0F FA 10 01 04 FF C0 1D
  can0  75E   [8]  00 81 00 2D 18 18 18 18
  can0  005   [8]  00 00 00 00 0D 00 B8 0B
  can0  007   [8]  F0 05 38 00 3F FC AF 79
  can0  766   [8]  00 00 00 00 00 00 0E 08
  can0  073   [8]  05 00 93 62 00 80 60 E9
  can0  003   [8]  0F FA 10 00 04 FF D0 4D
  can0  26F   [2]  6F C0
  can0  75E   [8]  00 81 00 2D 18 18 18 18
  can0  201   [8]  74 72 6C 66 FF FF B0 83
  can0  203   [8]  42 24 42 23 C2 2E C2 2F
  can0  245   [8]  80 0D 80 7E 80 81 B0 85
  can0  39D   [8]  1E 02 01 0F FF 0E 00 17
  can0  3F6   [5]  02 00 00 00 00
  can0  205   [8]  06 93 0C 00 00 00 00 00
  can0  105   [8]  04 01 7F 21 21 8E E4 61
  can0  19F   [8]  01 42 75 F0 47 22 61 F1
  can0  3D1   [4]  C6 0B 00 00
  can0  073   [8]  05 00 93 62 00 80 70 24
  can0  003   [8]  0F FA 10 00 04 FF E0 07
  can0  75E   [8]  00 81 00 2D 18 18 18 18
  can0  34E   [8]  00 00 A7 00 00 A7 11 2C
  can0  005   [8]  00 00 00 00 0D 00 C8 52
  can0  766   [8]  00 00 00 00 00 00 0E 08
  can0  073   [8]  05 00 93 62 00 80 80 5B
  can0  003   [8]  0F FA 10 00 04 FF F0 CA
  can0  75E   [8]  00 81 00 2D 18 18 18 18
  can0  76E   [8]  00 00 00 00 00 00 00 00
  can0  336   [8]  6C 42 00 00 00 00 00 00
  can0  201   [8]  7C 7A 75 6F FF FF C0 F0
  can0  203   [8]  42 20 42 28 C2 2F C2 2D
  can0  245   [8]  80 0D 80 7E 80 7E C0 85
  can0  105   [8]  04 00 7F 21 21 8E F4 EA
  can0  388   [8]  35 FF 1F CF FF 0F 07 FF
  can0  2EF   [8]  F7 00 FF 0F FF FF FF 00
  can0  073   [8]  05 00 93 62 00 80 90 96
  can0  003   [8]  0F FA 10 00 04 FF 00 B5
  can0  35C   [8]  02 10 E0 00 00 FF FF 01
  can0  04B   [6]  01 00 0C 06 FF 04
  can0  005   [8]  00 00 00 00 0D 00 D8 9F
  can0  75E   [8]  00 81 00 2D 18 18 18 18
  can0  1C1   [4]  00 00 00 00
  can0  30D   [8]  7C 55 72 FF FF 03 E5 81
  can0  283   [8]  F5 0D 08 03 C0 6E 3F FF
  can0  073   [8]  05 00 93 62 00 80 A0 DC
  can0  766   [8]  00 00 00 00 00 00 0E 08
  can0  003   [8]  0F FA 10 00 04 FF 10 78
  can0  3E3   [8]  5A FD 28 C7 29 CF 8F DC
  can0  045   [8]  00 FF 00 00 00 00 B0 6F
  can0  068   [1]  01
  can0  201   [8]  85 83 7E 78 FF FF D0 83
  can0  203   [8]  42 23 42 23 C2 2E C2 2E
  can0  245   [8]  80 07 80 7E 80 7D D0 85
  can0  75E   [8]  00 81 00 2D 18 18 18 18
  can0  105   [8]  04 02 7F 21 21 8E 04 19
  can0  001   [8]  CC 81 1F 9E 55 03 51 B9
  can0  073   [8]  05 00 93 62 00 80 B0 11
  can0  003   [8]  0F FA 10 00 04 FF 20 32
  can0  10C   [8]  3B 7F FF 07 03 FF C3 67
  can0  3E5   [8]  0E 0A 0A 14 04 FF FF 00
  can0  3E7   [8]  5A FD 2D B9 29 CF 8B 9D
  can0  12D   [8]  01 0F 00 00 50 53 56 79
  can0  005   [8]  00 00 00 00 0D 00 E8 D5
  can0  39F   [8]  12 00 0F 02 0B 19 0A FF
  can0  3B7   [8]  A9 09 0A CF 02 01 61 D1
  can0  20E   [8]  3F 00 01 F0 FF FF 3F 68
  can0  75E   [8]  00 81 00 2D 18 18 18 18
  can0  33D   [8]  00 42 00 00 64 00 00 00
  can0  3F2   [8]  00 27 00 0C 00 00 3F FD
  can0  073   [8]  05 00 93 62 00 80 C0 48
  can0  375   [8]  13 10 34 3F 3F 07 00 00
  can0  003   [8]  0F FA 10 00 04 FF 30 FF
  can0  351   [8]  00 00 00 00 00 00 00 00
  can0  766   [8]  00 00 00 00 00 00 0E 08
  can0  400   [8]  FD 13 04 0F E0 81 00 05
  can0  3E9   [8]  07 E9 0B 03 02 00 05 78
  can0  3EB   [8]  03 6C 0D 56 0D 26 0D 83
  can0  201   [8]  8E 8C 87 81 FF FF E0 78
  can0  203   [8]  42 29 42 22 C2 2E C2 2E
  can0  245   [8]  80 09 80 7E 80 81 E0 85
  can0  328   [2]  07 60
  can0  75E   [8]  00 81 00 2D 18 18 18 18
  can0  776   [8]  00 00 00 00 00 00 00 00
  can0  37D   [8]  02 00 04 EF 10 00 FF FF
  can0  105   [8]  03 FF 7F 21 21 8E 14 DF
  can0  34F   [8]  10 93 00 93 00 60 07 FF
  can0  073   [8]  05 00 93 62 00 80 D0 85
  can0  003   [8]  0F FA 10 02 04 FF 40 81
  can0  005   [8]  00 00 00 00 0D 00 F8 18
  can0  75E   [8]  00 81 00 2D 18 18 18 18
  can0  249   [8]  17 E8 00 1B E8 00 FF FF
  can0  073   [8]  05 00 93 62 00 80 E0 CF
  can0  003   [8]  0F FA 10 02 04 FF 50 4C
  can0  766   [8]  00 00 00 00 00 00 0E 08
  can0  201   [8]  97 95 90 8A FF FF F0 18
  can0  247   [8]  00 00 00 06 00 18 00 00
  can0  2C4   [8]  00 00 FC 3F 7F FF 3F FF
  can0  203   [8]  42 23 42 28 C2 2E C2 2D
  can0  245   [8]  80 0E 80 7E 80 82 F0 85
  can0  75E   [8]  00 81 00 2D 18 18 18 18
  can0  105   [8]  03 FF 7F 21 21 8E 24 95
  can0  073   [8]  05 00 93 62 00 80 F0 02
  can0  003   [8]  0F FA 10 03 04 FF 60 9B
  can0  005   [8]  00 00 00 00 0D 00 08 67
  can0  007   [8]  F0 05 38 00 3F FC AF 79
  can0  75E   [8]  00 81 00 2D 18 18 18 18
  can0  073   [8]  05 00 93 62 00 80 00 7D
  can0  003   [8]  0F FA 10 03 04 FF 70 56
  can0  766   [8]  00 00 00 00 00 00 0E 08
  can0  201   [8]  9F 9E 99 93 FF FF 00 4C
  can0  203   [8]  42 22 42 27 C2 2E C2 2D
  can0  39D   [8]  1E 02 01 0F FF 0E 00 1F
  can0  245   [8]  80 0A 80 7E 81 81 00 85
  can0  205   [8]  06 93 0C 00 00 00 00 00
  can0  75E   [8]  00 81 00 2D 18 18 18 18
  can0  105   [8]  03 FE 7F 21 21 8E 34 1E
  can0  19F   [8]  01 40 75 F0 47 22 61 F1
  can0  073   [8]  05 00 93 62 00 80 10 B0
  can0  003   [8]  0F FA 10 03 04 FF 80 29
  can0  34E   [8]  00 00 A7 00 00 A7 11 2C
  can0  005   [8]  00 00 00 00 0D 00 18 AA
  can0  75E   [8]  00 81 00 2D 18 18 18 18
  can0  073   [8]  05 00 93 62 00 80 20 FA
  can0  3D3   [4]  C0 00 00 00
  can0  003   [8]  0F FA 10 03 04 FF 90 E4
  can0  766   [8]  00 00 00 00 00 00 0E 08
  can0  201   [8]  A8 A6 A2 9B FF FF 10 95
  can0  203   [8]  42 25 42 23 C2 2F C2 2D
  can0  245   [8]  80 01 80 7E 80 82 10 85
  can0  75E   [8]  00 81 00 2D 18 18 18 18
  can0  76E   [8]  00 00 00 00 00 00 00 00
  can0  105   [8]  03 FC 7F 21 21 8E 44 CB
  can0  073   [8]  05 00 93 62 00 80 30 37
  can0  003   [8]  0F FA 10 04 04 FF A0 5A
  can0  388   [8]  35 FF 1F CF FF 0F 07 FF
  can0  005   [8]  00 00 00 00 0D 00 28 E0
  can0  04B   [6]  01 00 0C 06 FF 04
  can0  75E   [8]  00 81 00 2D 18 18 18 18
  can0  30D   [8]  7C 55 72 FF FF 03 DB 81
  can0  073   [8]  05 00 93 62 00 80 40 6E
  can0  003   [8]  0F FA 10 05 04 FF B0 0A
  can0  045   [8]  00 FF 00 00 00 00 C0 36
  can0  283   [8]  F5 0D 08 03 C0 6E 3F FF
  can0  766   [8]  00 00 00 00 00 00 0E 08
  can0  201   [8]  B1 AF AB A4 FF FF 20 BF
  can0  203   [8]  42 25 42 25 C2 2F C2 2E
  can0  245   [8]  80 05 80 7E 80 82 20 85
  can0  75E   [8]  00 81 00 2D 18 18 18 18
  can0  105   [8]  03 FD 7F 21 21 8E 54 40
  can0  001   [8]  CC 81 1F 9E 55 03 61 F3
  can0  073   [8]  05 00 93 62 00 80 50 A3
  can0  003   [8]  0F FB 10 05 04 FF C0 15
  can0  12D   [8]  01 0F 00 00 50 53 56 79
  can0  005   [8]  00 00 00 00 0D 00 38 2D
  can0  33D   [8]  00 42 00 00 64 00 00 00
  can0  75E   [8]  00 81 00 2D 18 18 18 18
  can0  073   [8]  05 00 93 62 00 80 60 E9
  can0  413   [8]  FD 00 04 0F 10 00 00 05
  can0  375   [8]  13 10 34 3F 3F 07 00 00
  can0  003   [8]  0F FB 10 05 04 FF D0 D8
  can0  766   [8]  00 00 00 00 00 00 0E 08
  can0  201   [8]  BA B8 B4 AD FF FF 30 0F
  can0  203   [8]  42 24 42 27 C2 30 C2 2F
  can0  245   [8]  80 07 80 7E 80 82 30 85
  can0  75E   [8]  00 81 00 2D 18 18 18 18
  can0  105   [8]  03 FC 7F 21 21 8E 64 4C
  can0  34F   [8]  10 93 00 93 00 5F 07 FF
  can0  073   [8]  05 00 93 62 00 80 70 24
  can0  003   [8]  0F FB 10 03 04 FF E0 FB
  can0  005   [8]  00 00 00 00 0D 00 48 74
  can0  75E   [8]  00 81 00 2D 18 18 18 18
  can0  249   [8]  1F E8 00 23 E8 00 FF FF
  can0  073   [8]  05 00 93 62 00 80 80 5B
  can0  003   [8]  0F FB 10 03 04 FF F0 36
  can0  766   [8]  00 00 00 00 00 00 0E 08
  can0  201   [8]  C3 C1 BD B6 FF FF 40 EF
  can0  247   [8]  00 00 00 06 00 18 00 00
  can0  203   [8]  42 26 42 24 C2 30 C2 30
  can0  245   [8]  80 06 80 7E 80 83 40 85
  can0  75E   [8]  00 81 00 2D 18 18 18 18
  can0  105   [8]  03 FE 7F 21 21 8E 74 0D
  can0  073   [8]  05 00 93 62 00 80 90 96
  can0  003   [8]  0F FB 10 02 04 FF 00 D4
  can0  005   [8]  00 00 00 00 0D 00 58 B9
  can0  007   [8]  F0 05 38 00 3F FC AF 79
  can0  34D   [2]  10 00
  can0  75E   [8]  00 81 00 2D 18 18 18 18
  can0  073   [8]  05 00 93 62 00 80 A0 DC
  can0  003   [8]  0F FB 10 02 04 FF 10 19
  can0  201   [8]  CB CA C5 BF FF FF 50 F6
  can0  203   [8]  42 27 42 23 C2 2E C2 30
  can0  245   [8]  80 06 80 7E 80 83 50 85
  can0  766   [8]  00 00 00 00 00 00 0E 08
  can0  39D   [8]  1E 02 01 0F FF 0E 00 27
  can0  205   [8]  06 93 0C 00 00 00 00 00
  can0  3F6   [5]  02 00 00 00 00
  can0  105   [8]  03 FD 7F 21 21 8E 84 B8
  can0  3D1   [4]  C6 0B 00 00
  can0  75E   [8]  00 81 00 2D 18 18 18 18
  can0  073   [8]  05 00 93 62 00 80 B0 11
  can0  19F   [8]  01 43 75 F0 47 22 61 F1
  can0  003   [8]  0F FB 10 02 04 FF 20 53
  can0  34E   [8]  00 00 A7 00 00 A7 11 2C
  can0  005   [8]  00 00 00 00 0D 00 68 F3
  can0  073   [8]  05 00 93 62 00 80 C0 48
  can0  75E   [8]  00 81 00 2D 18 18 18 18
  can0  003   [8]  0F FB 10 02 04 FF 30 9E
  can0  336   [8]  6C 42 00 00 00 00 00 00
  can0  201   [8]  D4 D2 CE C8 FF FF 60 81
  can0  203   [8]  42 24 42 26 C2 2F C2 30
  can0  245   [8]  80 06 80 7E 80 83 60 85
  can0  766   [8]  00 00 00 00 00 00 0E 08
  can0  105   [8]  03 FB 7F 21 21 8E 94 FC
  can0  2EF   [8]  F7 00 FF 0F FF FF FF 00
  can0  073   [8]  05 00 93 62 00 80 D0 85
  can0  75E   [8]  00 81 00 2D 18 18 18 18
  can0  76E   [8]  00 00 00 00 00 00 00 00
  can0  003   [8]  0F FB 10 01 04 FF 40 7D
  can0  35C   [8]  02 10 E0 00 00 FF FF 01
  can0  005   [8]  00 00 00 00 0D 00 78 3E
  can0  388   [8]  35 FF 1F CF FF 0F 07 FF
  can0  30D   [8]  7C 55 72 FF FF 03 D6 81
  can0  073   [8]  05 00 93 62 00 80 E0 CF
  can0  04B   [6]  01 00 0C 06 FF 04
  can0  75E   [8]  00 81 00 2D 18 18 18 18
  can0  003   [8]  0F FB 10 01 04 FF 50 B0
  can0  045   [8]  00 FF 00 00 00 00 D0 FB
  can0  201   [8]  DD DB D7 D1 FF FF 70 58
  can0  203   [8]  42 25 42 27 C2 2E C2 2F
  can0  245   [8]  80 00 80 7E 80 82 70 85
  can0  283   [8]  F5 0D 08 03 C0 6E 3F FF
  can0  766   [8]  00 00 00 00 00 00 0E 08
  can0  400   [8]  FD 13 04 0F E0 81 00 05
  can0  105   [8]  03 FA 7F 21 21 8E A4 F0
  can0  001   [8]  CC 81 1F 9E 55 03 71 3E
  can0  073   [8]  05 00 93 62 00 80 F0 02
  can0  068   [1]  01
  can0  75E   [8]  00 81 00 2D 18 18 18 18
  can0  003   [8]  0F FA 0F FF 04 FF 60 15
  can0  12D   [8]  01 0F 00 00 50 53 56 79
  can0  005   [8]  00 00 00 00 0D 00 88 41
  can0  10C   [8]  3B 7F FF 07 03 FF C3 67
  can0  33D   [8]  00 42 00 00 64 00 00 00
  can0  073   [8]  05 00 93 62 00 80 00 7D
  can0  004   [5]  01 00 00 7D 07
  can0  375   [8]  13 10 34 3F 3F 07 00 00
  can0  20E   [8]  3F 00 01 F0 FF FF 3F 68
  can0  75E   [8]  00 81 00 2D 18 18 18 18
  can0  003   [8]  0F FA 0F FE 04 FF 70 45
  can0  201   [8]  E6 E4 E0 DA FF FF 80 3F
  can0  351   [8]  00 00 00 00 00 00 00 00
  can0  203   [8]  42 27 42 25 C2 2F C2 30
  can0  245   [8]  7F FF 80 7E 80 82 80 85
  can0  328   [2]  07 60
  can0  766   [8]  00 00 00 00 00 00 0E 08
  can0  37D   [8]  02 00 04 EF 10 00 FF FF
  can0  105   [8]  03 FA 7F 21 21 8E B4 3D
  can0  34F   [8]  10 93 00 93 00 5F 07 FF
  can0  073   [8]  05 00 93 62 00 80 10 B0
  can0  75E   [8]  00 81 00 2D 18 18 18 18
  can0  776   [8]  00 00 00 00 00 00 00 00
  can0  003   [8]  0F FA 0F FE 04 FF 80 3A
  can0  005   [8]  00 00 00 00 0D 00 98 8C
  can0  249   [8]  25 FC 00 28 5E 00 FF FF
  can0  073   [8]  05 00 93 62 00 80 20 FA
  can0  75E   [8]  00 81 00 2D 18 18 18 18
  can0  003   [8]  0F FA 0F FE 04 FF 90 F7
  can0  201   [8]  EF ED E9 E3 FF FF 90 42
  can0  247   [8]  00 00 00 06 00 18 00 00
  can0  203   [8]  42 29 42 24 C2 30 C2 31
  can0  245   [8]  80 09 80 7E 81 84 90 85
  can0  766   [8]  00 00 00 00 00 00 0E 08
  can0  105   [8]  03 F9 7F 21 21 8E C4 AE
  can0  073   [8]  05 00 93 62 00 80 30 37
  can0  75E   [8]  00 81 00 2D 18 18 18 18
  can0  003   [8]  0F FA 0F FE 04 FF A0 BD
  can0  005   [8]  00 00 00 00 0D 00 A8 C6
  can0  007   [8]  F0 05 38 00 3F FC AF 79
  can0  073   [8]  05 00 93 62 00 80 40 6E
  can0  75E   [8]  00 81 00 2D 18 18 18 18
  can0  003   [8]  0F FA 0F FE 04 FF B0 70
  can0  39D   [8]  1E 02 01 0F FF 0E 00 2F
  can0  201   [8]  F7 F6 F2 EC FF FF A0 F8
  can0  203   [8]  42 27 42 29 C2 31 C2 2E
  can0  245   [8]  80 0B 80 7E 81 84 A0 85
  can0  766   [8]  00 00 00 00 00 00 0E 08
  can0  205   [8]  06 93 0C 00 00 00 00 00
  can0  105   [8]  03 FA 7F 21 21 8E D4 A9
  can0  19F   [8]  01 44 75 F0 47 22 61 F1
  can0  073   [8]  05 00 93 62 00 80 50 A3
  can0  003   [8]  0F FA 0F FD 04 FF C0 93
  can0  75E   [8]  00 81 00 2D 18 18 18 18
  can0  34E   [8]  00 00 A7 00 00 A7 11 2C
  can0  005   [8]  00 00 00 00 0D 00 B8 0B
  can0  073   [8]  05 00 93 62 00 80 60 E9
  can0  3D3   [4]  C0 00 00 00
  can0  003   [8]  0F FA 0F FD 04 FF D0 5E
  can0  75E   [8]  00 81 00 2D 18 18 18 18
  can0  201   [8]  01 FE FB F5 FF FF B0 7C
  can0  203   [8]  42 26 42 29 C2 30 C2 2E
  can0  245   [8]  80 06 80 7E 81 81 B0 85
  can0  766   [8]  00 00 00 00 00 00 0E 08
  can0  105   [8]  03 FA 7F 21 21 8E E4 E3
  can0  073   [8]  05 00 93 62 00 80 70 24
  can0  003   [8]  0F FA 0F FD 04 FF E0 14
  can0  75E   [8]  00 81 00 2D 18 18 18 18
  can0  76E   [8]  00 00 00 00 00 00 00 00
  can0  005   [8]  00 00 00 00 0D 00 C8 52
  can0  388   [8]  35 FF 1F CF FF 0F 07 FF
  can0  30D   [8]  7C 55 72 FF FF 03 D1 81
  can0  073   [8]  05 00 93 62 00 80 80 5B
  can0  413   [8]  FD 00 04 0F 10 00 00 05
  can0  04B   [6]  01 00 0C 06 FF 04
  can0  003   [8]  0F FA 0F FC 04 FF F0 44
  can0  75E   [8]  00 81 00 2D 18 18 18 18
  can0  045   [8]  00 FF 00 00 00 00 E0 B1
  can0  201   [8]  0A 08 05 FE FF FF C0 F6
  can0  203   [8]  42 25 42 27 C2 30 C2 2F
  can0  245   [8]  80 05 80 7E 82 80 C0 85
  can0  283   [8]  F5 0D 08 03 C0 6E 3F FF
  can0  766   [8]  00 00 00 00 00 00 0E 08
  can0  105   [8]  03 FB 7F 21 21 8E F4 68
  can0  002   [5]  01 00 C3 8C 07
  can0  001   [8]  CC 81 1F 9E 55 03 81 41
  can0  073   [8]  05 00 93 62 00 80 90 96
  can0  003   [8]  0F FA 0F FD 04 FF 00 A6
  can0  75E   [8]  00 81 00 2D 18 18 18 18
  can0  12D   [8]  01 0F 00 00 50 53 56 79
  can0  005   [8]  00 00 00 00 0D 00 D8 9F
  can0  33D   [8]  00 42 00 00 64 00 00 00
  can0  073   [8]  05 00 93 62 00 80 A0 DC
  can0  375   [8]  13 10 34 3F 3F 07 00 00
  can0  003   [8]  0F FA 0F FD 04 FF 10 6B
  can0  75E   [8]  00 81 00 2D 18 18 18 18
  can0  201   [8]  13 11 0E 08 FF FF D0 3B
  can0  203   [8]  42 28 42 27 C2 31 C2 30
  can0  245   [8]  80 09 80 7E 81 83 D0 85
  can0  766   [8]  00 00 00 00 00 00 0E 08
  can0  105   [8]  03 FC 7F 21 21 8E 04 D8
  can0  34F   [8]  10 93 00 93 00 5E 07 FF
  can0  073   [8]  05 00 93 62 00 80 B0 11
  can0  003   [8]  0F FA 0F FD 04 FF 20 21
  can0  75E   [8]  00 81 00 2D 18 18 18 18
  can0  005   [8]  00 00 00 00 0D 00 E8 D5
  can0  10E   [4]  00 C0 00 02
  can0  249   [8]  2C 6F 00 30 7D 00 FF FF
  can0  073   [8]  05 00 93 62 00 80 C0 48
  can0  10D   [4]  00 A0 3E 00
  can0  003   [8]  0F FA 0F FD 04 FF 30 EC
  can0  75E   [8]  00 81 00 2D 18 18 18 18
  can0  201   [8]  1C 1A 17 11 FF FF E0 3A
  can0  247   [8]  00 00 00 06 00 18 00 00
  can0  203   [8]  42 27 42 28 C2 31 C2 33
  can0  245   [8]  80 07 80 7E 81 86 E0 85
  can0  105   [8]  03 FE 7F 21 21 8E 14 99
  can0  766   [8]  00 00 00 00 00 00 0E 08
  can0  073   [8]  05 00 93 62 00 80 D0 85
  can0  003   [8]  0F FA 0F FC 04 FF 40 28
  can0  75E   [8]  00 81 00 2D 18 18 18 18
  can0  005   [8]  00 00 00 00 0D 00 F8 18
  can0  007   [8]  F0 05 38 00 3F FC AF 79
  can0  073   [8]  05 00 93 62 00 80 E0 CF
  can0  003   [8]  0F FA 0F FB 04 FF 50 11
  can0  75E   [8]  00 81 00 2D 18 18 18 18
  can0  201   [8]  25 23 20 1A FF FF F0 DC
  can0  203   [8]  42 27 42 26 C2 32 C2 33
  can0  245   [8]  80 01 80 7E 81 84 F0 85
  can0  39D   [8]  1E 02 01 0F FF 0E 00 37
  can0  3F6   [5]  02 00 00 00 00
  can0  205   [8]  06 93 0C 00 00 00 00 00
  can0  105   [8]  03 FE 7F 21 21 8E 24 D3
  can0  3D1   [4]  C6 0B 00 00
  can0  19F   [8]  01 43 75 F0 47 22 61 F1
  can0  766   [8]  00 00 00 00 00 00 0E 08
  can0  073   [8]  05 00 93 62 00 80 F0 02
  can0  003   [8]  0F FA 0F FA 04 FF 60 C6
  can0  34E   [8]  00 00 A7 00 00 A7 11 2C
  can0  75E   [8]  00 81 00 2D 18 18 18 18
  can0  005   [8]  00 00 00 00 0D 00 08 67
  can0  073   [8]  05 00 93 62 00 80 00 7D
  can0  003   [8]  0F FA 0F F9 04 FF 70 B1
  can0  336   [8]  6C 42 00 00 00 00 00 00
  can0  75E   [8]  00 81 00 2D 18 18 18 18
  can0  201   [8]  2D 2C 29 23 FF FF 00 C7
  can0  203   [8]  42 27 42 26 C2 32 C2 31
  can0  245   [8]  80 03 80 7E 80 84 00 85
  can0  105   [8]  04 00 7F 21 21 8E 34 DF
  can0  766   [8]  00 00 00 00 00 00 0E 08
  can0  073   [8]  05 00 93 62 00 80 10 B0
  can0  2EF   [8]  F7 00 FF 0F FF FF FF 00
  can0  400   [8]  FD 13 04 0F E0 81 00 05
  can0  003   [8]  0F F9 0F F9 04 FF 80 04
  can0  35C   [8]  02 10 E0 00 00 FF FF 01
  can0  75E   [8]  00 81 00 2D 18 18 18 18
  can0  005   [8]  00 00 00 00 0D 00 18 AA
  can0  76E   [8]  00 00 00 00 00 00 00 00
  can0  30D   [8]  7C 55 72 FF FF 03 D1 81
  can0  388   [8]  35 FF 1F CF FF 0F 07 FF
  can0  073   [8]  05 00 93 62 00 80 20 FA
  can0  003   [8]  0F F9 0F F8 04 FF 90 54
  can0  045   [8]  00 FF 00 00 00 00 F0 7C
  can0  201   [8]  36 34 32 2C FF FF 10 D7
  can0  203   [8]  42 26 42 29 C2 31 C2 30
  can0  04B   [6]  01 00 0C 06 FF 04
  can0  245   [8]  80 07 80 7E 80 83 10 85
  can0  75E   [8]  00 81 00 2D 18 18 18 18
  can0  105   [8]  04 00 7F 21 21 8E 44 86
  can0  001   [8]  CC 81 1F 9E 55 03 91 8C
  can0  073   [8]  05 00 93 62 00 80 30 37
  can0  003   [8]  0F F9 0F F7 04 FF A0 76
  can0  283   [8]  F5 0D 08 03 C0 6E 3F FF
  can0  766   [8]  00 00 00 00 00 00 0E 08
  can0  12D   [8]  01 0F 00 00 50 53 56 79
  can0  005   [8]  00 00 00 00 0D 00 28 E0
  can0  068   [1]  01
  can0  75E   [8]  00 81 00 2D 18 18 18 18
  can0  33D   [8]  00 42 00 00 64 00 00 00
  can0  073   [8]  05 00 93 62 00 80 40 6E
  can0  375   [8]  13 10 34 3F 3F 07 00 00
  can0  10C   [8]  3B 7F FF 07 03 FF C3 67
  can0  003   [8]  0F F9 0F F6 04 FF B0 26
  can0  201   [8]  3F 3D 3B 35 FF FF 20 67
  can0  203   [8]  42 27 42 28 C2 31 C2 31
  can0  328   [2]  07 60
  can0  245   [8]  80 03 80 7E 7F 81 20 85
  can0  20E   [8]  3F 00 01 F0 FF FF 3F 68
  can0  75E   [8]  00 81 00 2D 18 18 18 18
  can0  37D   [8]  02 00 04 EF 10 00 FF FF
  can0  105   [8]  03 FF 7F 21 21 8E 54 CC
  can0  34F   [8]  10 93 00 93 00 5E 07 FF
  can0  073   [8]  05 00 93 62 00 80 50 A3
  can0  003   [8]  0F F9 0F F5 04 FF C0 C5
  can0  351   [8]  00 00 00 00 00 00 00 00
  can0  766   [8]  00 00 00 00 00 00 0E 08
  can0  005   [8]  00 00 00 00 0D 00 38 2D
  can0  75E   [8]  00 81 00 2D 18 18 18 18
  can0  776   [8]  00 00 00 00 00 00 00 00
  can0  249   [8]  35 0F 00 38 39 00 FF FF
  can0  073   [8]  05 00 93 62 00 80 60 E9
  can0  003   [8]  0F F9 0F F3 04 FF D0 61
  can0  201   [8]  48 46 44 3E FF FF 30 6A
  can0  247   [8]  00 00 00 06 00 18 00 00
  can0  203   [8]  42 29 42 25 C2 31 C2 32
  can0  245   [8]  80 07 80 7E 81 82 30 85
  can0  75E   [8]  00 81 00 2D 18 18 18 18
  can0  105   [8]  03 FE 7F 21 21 8E 64 C0
  can0  073   [8]  05 00 93 62 00 80 70 24
  can0  003   [8]  0F F9 0F F3 04 FF E0 2B
  can0  766   [8]  00 00 00 00 00 00 0E 08
  can0  005   [8]  00 00 00 00 0D 00 48 74
  can0  75E   [8]  00 81 00 2D 18 18 18 18
  can0  007   [8]  F0 05 38 00 3F FC AF 79
  can0  073   [8]  05 00 93 62 00 80 80 5B
  can0  003   [8]  0F F9 0F F4 04 FF F0 12
  can0  201   [8]  51 4F 4D 47 FF FF 40 AE
  can0  203   [8]  42 29 42 28 C2 32 C2 32
  can0  39D   [8]  1E 02 01 0F FF 0E 00 3F
  can0  245   [8]  80 0F 80 7E 81 83 40 85
  can0  205   [8]  06 93 0C 00 00 00 00 00
  can0  75E   [8]  00 81 00 2D 18 18 18 18
  can0  105   [8]  03 FE 7F 21 21 8D 74 D9
  can0  19F   [8]  01 44 75 F0 47 22 61 F1
  can0  073   [8]  05 00 93 62 00 80 90 96
  can0  003   [8]  0F F9 0F F5 04 FF 00 F0
  can0  766   [8]  00 00 00 00 00 00 0E 08
  can0  34E   [8]  00 00 A7 00 00 A7 11 2C
  can0  005   [8]  00 00 00 00 0D 00 58 B9
  can0  75E   [8]  00 81 00 2D 18 18 18 18
  can0  073   [8]  05 00 93 62 00 80 A0 DC
  can0  3D3   [4]  C0 00 00 00
  can0  003   [8]  0F F9 0F F6 04 FF 10 87
  can0  201   [8]  5A 58 56 50 FF FF 50 7B
  can0  203   [8]  42 28 42 2B C2 32 C2 30
  can0  245   [8]  80 0A 80 7E 81 82 50 85
  can0  75E   [8]  00 81 00 2D 18 18 18 18
  can0  105   [8]  03 FE 7F 21 21 8D 84 A6
  can0  073   [8]  05 00 93 62 00 80 B0 11
  can0  413   [8]  FD 00 04 0F 10 00 00 05
  can0  003   [8]  0F F9 0F F6 04 FF 20 CD
  can0  766   [8]  00 00 00 00 00 00 0E 08
  can0  005   [8]  00 00 00 00 0D 00 68 F3
  can0  75E   [8]  00 81 00 2D 18 18 18 18
  can0  1C1   [4]  00 00 00 00
  can0  30D   [8]  7C 55 72 FF FF 03 CC 81
  can0  76E   [8]  00 00 00 00 00 00 00 00
  can0  073   [8]  05 00 93 62 00 80 C0 48
  can0  003   [8]  0F F8 0F F7 04 FF 30 DB
  can0  045   [8]  00 FF 00 00 00 00 00 03
  can0  388   [8]  35 FF 1F CF FF 0F 07 FF
  can0  201   [8]  62 61 5F 59 FF FF 60 59
  can0  203   [8]  42 2B 42 2A C2 31 C2 30
  can0  245   [8]  80 05 80 7E 80 82 60 85
  can0  04B   [6]  01 00 0C 06 FF 04
  can0  001   [8]  CC 81 1F 9E 55 03 A1 C6
  can0  105   [8]  03 FF 7F 21 21 8D 94 2D
  can0  75E   [8]  00 81 00 2D 18 18 18 18
  can0  073   [8]  05 00 93 62 00 80 D0 85
  can0  003   [8]  0F F8 0F F8 04 FF 40 EA
  can0  283   [8]  F5 0D 08 03 C0 6E 3F FF
  can0  766   [8]  00 00 00 00 00 00 0E 08
  can0  12D   [8]  01 0F 00 00 50 53 56 79
  can0  005   [8]  00 00 00 00 0D 00 78 3E
  can0  75E   [8]  00 81 00 2D 18 18 18 18
  can0  33D   [8]  00 42 00 00 64 00 00 00
  can0  073   [8]  05 00 93 62 00 80 E0 CF
  can0  375   [8]  13 10 34 3F 3F 07 00 00
  can0  003   [8]  0F F8 0F F9 04 FF 50 BA
  can0  201   [8]  6B 69 68 62 FF FF 70 7C
  can0  203   [8]  42 26 42 26 C2 31 C2 31
  can0  245   [8]  80 02 80 7E 80 84 70 85
  can0  75E   [8]  00 81 00 2D 18 18 18 18
  can0  105   [8]  04 00 7F 21 21 8D A4 E0
  can0  34F   [8]  10 93 00 93 00 5D 07 FF
  can0  073   [8]  05 00 93 62 00 80 F0 02
  can0  003   [8]  0F F8 0F FB 04 FF 60 D7
  can0  766   [8]  00 00 00 00 00 00 0E 08
  can0  005   [8]  00 00 00 00 0D 00 88 41
  can0  75E   [8]  00 81 00 2D 18 18 18 18
  can0  249   [8]  3C A1 00 FF FF 00 03 FF
  can0  073   [8]  05 00 93 62 00 80 00 7D
  can0  003   [8]  0F F8 0F FD 04 FF 70 73
  can0  201   [8]  74 72 71 6B FF FF 80 C0
  can0  247   [8]  00 00 00 06 00 18 00 00
  can0  203   [8]  42 25 42 27 C2 33 C2 33
  can0  245   [8]  80 05 80 7E 80 85 80 85
  can0  105   [8]  04 01 7F 21 21 8D B4 6B
  can0  75E   [8]  00 81 00 2D 18 18 18 18
  can0  073   [8]  05 00 93 62 00 80 10 B0
  can0  003   [8]  0F F8 0F FD 04 FF 80 0C
  can0  766   [8]  00 00 00 00 00 00 0E 08
  can0  005   [8]  00 00 00 00 0D 00 98 8C
  can0  007   [8]  F0 05 38 00 3F FC AF 79
  can0  75E   [8]  00 81 00 2D 18 18 18 18
  can0  073   [8]  05 00 93 62 00 80 20 FA
  can0  003   [8]  0F F8 0F FD 04 FF 90 C1
  can0  201   [8]  7D 7B 7A 74 FF FF 90 4A
  can0  203   [8]  42 27 42 29 C2 33 C2 33
  can0  245   [8]  80 07 80 7E 7F 85 90 85
  can0  3F6   [5]  02 00 00 00 00
  can0  39D   [8]  1E 02 01 0F FF 0E 00 47
  can0  205   [8]  06 93 0C 00 00 00 00 00
  can0  3D1   [4]  C6 0B 00 00
  can0  105   [8]  04 00 7F 21 21 8E C4 A0
  can0  19F   [8]  01 43 75 F0 47 22 61 F1
  can0  75E   [8]  00 81 00 2D 18 18 18 18
  can0  073   [8]  05 00 93 62 00 80 30 37
  can0  003   [8]  0F F8 0F FD 04 FF A0 8B
  can0  34E   [8]  00 00 A7 00 00 A7 11 2C
  can0  766   [8]  00 00 00 00 00 00 0E 08
  can0  005   [8]  00 00 00 00 0D 00 A8 C6
  can0  400   [8]  FD 13 04 0F E0 81 00 05
  can0  75E   [8]  00 81 00 2D 18 18 18 18
  can0  073   [8]  05 00 93 62 00 80 40 6E
  can0  003   [8]  0F F8 0F FD 04 FF B0 46
  can0  336   [8]  6C 42 00 00 00 00 00 00
  can0  201   [8]  86 84 83 7D FF FF A0 1A
  can0  203   [8]  42 29 42 29 C2 32 C2 32
  can0  245   [8]  80 0B 80 7E 7F 84 A0 85
  can0  105   [8]  04 02 7F 21 21 8E D4 E1
  can0  2EF   [8]  F7 00 FF 0F FF FF FF 00
  can0  75E   [8]  00 81 00 2D 18 18 18 18
  can0  073   [8]  05 00 93 62 00 80 50 A3
  can0  003   [8]  0F F8 0F FD 04 FF C0 1F
  can0  35C   [8]  02 10 E0 00 00 FF FF 01
  can0  766   [8]  00 00 00 00 00 00 0E 08
  can0  005   [8]  00 00 00 00 0D 00 B8 0B
  can0  30D   [8]  7C 55 72 FF FF 03 CC 81
  can0  75E   [8]  00 81 00 2D 18 18 18 18
  can0  073   [8]  05 00 93 62 00 80 60 E9
  can0  76E   [8]  00 00 00 00 00 00 00 00
  can0  003   [8]  0F F8 0F FD 04 FF D0 D2
  can0  045   [8]  00 FF 00 00 00 00 10 CE
  can0  201   [8]  8F 8D 8C 86 FF FF B0 80
  can0  203   [8]  42 29 42 28 C2 32 C2 33
  can0  245   [8]  80 0F 80 7E 80 83 B0 85
  can0  388   [8]  35 FF 1F CF FF 0F 07 FF
  can0  105   [8]  04 01 7F 21 21 8E E4 61
  can0  001   [8]  CC 81 1F 9E 55 03 B1 0B
  can0  073   [8]  05 00 93 62 00 80 70 24
  can0  003   [8]  0F F8 0F FD 04 FF E0 98
  can0  04B   [6]  01 00 0C 06 FF 04
  can0  75E   [8]  00 81 00 2D 18 18 18 18
  can0  12D   [8]  01 0F 00 00 50 53 56 79
  can0  005   [8]  00 00 00 00 0D 00 C8 52
  can0  283   [8]  F5 0D 08 03 C0 6E 3F FF
  can0  766   [8]  00 00 00 00 00 00 0E 08
  can0  33D   [8]  00 42 00 00 64 00 00 00
  can0  073   [8]  05 00 93 62 00 80 80 5B
  can0  375   [8]  13 10 34 3F 3F 07 00 00
  can0  068   [1]  01
  can0  003   [8]  0F F8 0F FD 04 FF F0 55
  can0  75E   [8]  00 81 00 2D 18 18 18 18
  can0  201   [8]  97 96 95 8F FF FF C0 94
  can0  203   [8]  42 27 42 27 C2 31 C2 32
  can0  245   [8]  80 0E 80 7E 80 84 C0 85
  can0  10C   [8]  3B 7F FF 07 03 FF C3 67
  can0  328   [2]  07 60
  can0  105   [8]  04 01 7F 21 21 8E F4 AC
  can0  37D   [8]  02 00 04 EF 10 00 FF FF
  can0  34F   [8]  10 93 00 93 00 5D 07 FF
  can0  073   [8]  05 00 93 62 00 80 90 96
  can0  003   [8]  0F F8 0F FD 04 FF 00 2A
  can0  20E   [8]  3F 00 01 F0 FF FF 3F 68
  can0  75E   [8]  00 81 00 2D 18 18 18 18
  can0  005   [8]  00 00 00 00 0D 00 D8 9F
  can0  351   [8]  00 00 00 00 00 00 00 00
  can0  766   [8]  00 00 00 00 00 00 0E 08
  can0  249   [8]  06 B4 00 08 B6 00 FF FF
  can0  073   [8]  05 00 93 62 00 80 A0 DC
  can0  003   [8]  0F F8 0F FD 04 FF 10 E7
  can0  75E   [8]  00 81 00 2D 18 18 18 18
  can0  776   [8]  00 00 00 00 00 00 00 00
  can0  201   [8]  A0 9E 9E 98 FF FF D0 13
  can0  247   [8]  00 00 00 06 00 18 00 00
  can0  203   [8]  42 28 42 27 C2 32 C2 33
  can0  245   [8]  80 0B 80 7E 80 83 D0 85
  can0  105   [8]  04 01 7F 21 21 8E 04 D3
  can0  073   [8]  05 00 93 62 00 80 B0 11
  can0  003   [8]  0F F8 0F FD 04 FF 20 AD
  can0  75E   [8]  00 81 00 2D 18 18 18 18
  can0  005   [8]  00 00 00 00 0D 00 E8 D5
  can0  766   [8]  00 00 00 00 00 00 0E 08
  can0  007   [8]  F0 05 38 00 3F FC AF 79
  can0  34D   [2]  10 00
  can0  073   [8]  05 00 93 62 00 80 C0 48
  can0  003   [8]  0F F8 0F FD 04 FF 30 60
  can0  75E   [8]  00 81 00 2D 18 18 18 18
  can0  201   [8]  A9 A7 A7 A1 FF FF E0 FA
  can0  203   [8]  42 29 42 29 C2 33 C2 33
  can0  245   [8]  80 07 80 7E 80 82 E0 85
  can0  39D   [8]  1E 02 01 0F FF 0E 00 4F
  can0  205   [8]  06 93 0C 00 00 00 00 00
  can0  105   [8]  03 FE 7F 21 21 8E 14 99
  can0  19F   [8]  01 44 75 F0 47 22 61 F1
  can0  073   [8]  05 00 93 62 00 80 D0 85
  can0  413   [8]  FD 00 04 0F 10 00 00 05
  can0  003   [8]  0F F8 0F FD 04 FF 40 39
  can0  75E   [8]  00 81 00 2D 18 18 18 18
  can0  34E   [8]  00 00 A7 00 00 A7 11 2C
  can0  005   [8]  00 00 00 00 0D 00 F8 18
  can0  766   [8]  00 00 00 00 00 00 0E 08
  can0  073   [8]  05 00 93 62 00 80 E0 CF
  can0  3D3   [4]  C0 00 00 00
  can0  003   [8]  0F F8 0F FE 04 FF 50 4E
  can0  75E   [8]  00 81 00 2D 18 18 18 18
  can0  201   [8]  B2 B0 B0 AA FF FF F0 A3
  can0  203   [8]  42 28 42 2A C2 33 C2 31
  can0  245   [8]  80 11 80 7E 81 81 F0 85
  can0  105   [8]  03 FF 7F 21 21 8E 24 95
  can0  073   [8]  05 00 93 62 00 80 F0 02
  can0  003   [8]  0F F8 0F FF 04 FF 60 99
  can0  75E   [8]  00 81 00 2D 18 18 18 18
  can0  005   [8]  00 00 00 00 0D 00 08 67
  can0  766   [8]  00 00 00 00 00 00 0E 08
  can0  30D   [8]  7C 55 72 FF FF 03 D1 81
  can0  073   [8]  05 00 93 62 00 80 00 7D
  can0  003   [8]  0F F8 0F FF 04 FF 70 54
  can0  045   [8]  00 FF 00 00 00 00 20 84
  can0  75E   [8]  00 81 00 2D 18 18 18 18
  can0  76E   [8]  00 00 00 00 00 00 00 00
  can0  201   [8]  BB B9 B9 B3 FF FF 00 26
  can0  203   [8]  42 27 42 28 C2 33 C2 31
  can0  245   [8]  80 15 80 7E 82 81 00 85
  can0  388   [8]  35 FF 1F CF FF 0F 07 FF
  can0  105   [8]  03 FF 7F 21 21 8E 34 58
  can0  001   [8]  CC 81 1F 9E 55 03 C1 52
  can0  073   [8]  05 00 93 62 00 80 10 B0
  can0  003   [8]  0F F8 0F FF 04 FF 80 2B
  can0  04B   [6]  01 00 0C 06 FF 04
  can0  75E   [8]  00 81 00 2D 18 18 18 18
  can0  12D   [8]  01 0F 00 00 50 53 56 79
  can0  005   [8]  00 00 00 00 0D 00 18 AA
  can0  283   [8]  F5 0D 08 03 C0 6E 3F FF
  can0  766   [8]  00 00 00 00 00 00 0E 08
  can0  33D   [8]  00 42 00 00 64 00 00 00
  can0  004   [5]  01 00 00 7D 07
  can0  073   [8]  05 00 93 62 00 80 20 FA
  can0  375   [8]  13 10 34 3F 3F 07 00 00
  can0  003   [8]  0F F8 10 01 04 FF 90 4F
  can0  75E   [8]  00 81 00 2D 18 18 18 18
  can0  201   [8]  C4 C2 C2 BC FF FF 10 02
  can0  203   [8]  42 29 42 29 C2 33 C2 31
  can0  245   [8]  80 15 80 7E 80 82 10 85
  can0  105   [8]  03 FF 7F 21 21 8E 44 01
  can0  34F   [8]  10 93 00 93 00 5D 07 FF
  can0  073   [8]  05 00 93 62 00 80 30 37
  can0  003   [8]  0F F8 10 02 04 FF A0 BF
  can0  75E   [8]  00 81 00 2D 18 18 18 18
  can0  005   [8]  00 00 00 00 0D 00 28 E0
  can0  766   [8]  00 00 00 00 00 00 0E 08
  can0  249   [8]  0F E8 00 13 E8 00 FF FF
  can0  073   [8]  05 00 93 62 00 80 40 6E
  can0  003   [8]  0F F8 10 02 04 FF B0 72
  can0  75E   [8]  00 81 00 2D 18 18 18 18
  can0  201   [8]  CC CB CB C5 FF FF 20 31
  can0  247   [8]  00 00 00 06 00 18 00 00
  can0  203   [8]  42 27 42 29 C2 33 C2 33
  can0  245   [8]  80 16 80 7E 81 84 20 85
  can0  105   [8]  03 FF 7F 21 21 8E 54 CC
  can0  073   [8]  05 00 93 62 00 80 50 A3
  can0  003   [8]  0F F8 10 02 04 FF C0 2B
  can0  75E   [8]  00 81 00 2D 18 18 18 18
  can0  005   [8]  00 00 00 00 0D 00 38 2D
  can0  007   [8]  F0 05 38 00 3F FC AF 79
  can0  766   [8]  00 00 00 00 00 00 0E 08
  can0  400   [8]  FD 13 04 0F E0 81 00 05
  can0  073   [8]  05 00 93 62 00 80 60 E9
  can0  003   [8]  0F F8 10 03 04 FF D0 7B
  can0  75E   [8]  00 81 00 2D 18 18 18 18
  can0  201   [8]  D5 D4 D4 CE FF FF 30 AF
  can0  203   [8]  42 28 42 26 C2 33 C2 33
  can0  245   [8]  80 15 80 7E 82 84 30 85
  can0  39D   [8]  1E 02 01 0F FF 0E 00 57
  can0  3F6   [5]  02 00 00 00 00
  can0  205   [8]  06 93 0C 00 00 00 00 00
  can0  105   [8]  03 FF 7F 21 21 8E 64 86
  can0  3D1   [4]  C6 0B 00 00
  can0  19F   [8]  01 43 75 F0 47 22 61 F1
  can0  073   [8]  05 00 93 62 00 80 70 24
  can0  003   [8]  0F F8 10 03 04 FF E0 31
  can0  34E   [8]  00 00 A7 00 00 A7 11 2C
  can0  75E   [8]  00 81 00 2D 18 18 18 18
  can0  005   [8]  00 00 00 00 0D 00 48 74
  can0  766   [8]  00 00 00 00 00 00 0E 08
  can0  073   [8]  05 00 93 62 00 80 80 5B
  can0  003   [8]  0F F8 10 03 04 FF F0 FC
  can0  336   [8]  6C 42 00 00 00 00 00 00
  can0  75E   [8]  00 81 00 2D 18 18 18 18
  can0  201   [8]  DE DC DD D7 FF FF 40 F0
  can0  203   [8]  42 2A 42 29 C2 33 C2 33
  can0  245   [8]  80 15 80 7E 81 84 40 85
  can0  204   [8]  00 57 44 44 4B 4A 36 46
  can0  105   [8]  03 FF 7F 21 21 8E 74 4B
  can0  2EF   [8]  F7 00 FF 0F FF FF FF 00
  can0  073   [8]  05 00 93 62 00 80 90 96
  can0  003   [8]  0F F8 10 03 04 FF 00 83
  can0  35C   [8]  02 10 E0 00 00 FF FF 01
  can0  75E   [8]  00 81 00 2D 18 18 18 18
  can0  005   [8]  00 00 00 00 0D 00 58 B9
  can0  30D   [8]  7C 55 72 FF FF 03 CC 81
  can0  766   [8]  00 00 00 00 00 00 0E 08
  can0  073   [8]  05 00 93 62 00 80 A0 DC
  can0  003   [8]  0F F8 10 03 04 FF 10 4E
  can0  045   [8]  00 FF 00 00 00 00 30 49
  can0  201   [8]  E7 E5 E6 E0 FF FF 50 69
  can0  203   [8]  42 29 42 2B C2 33 C2 33
  can0  245   [8]  80 0E 80 7E 7F 83 50 85
  can0  75E   [8]  00 81 00 2D 18 18 18 18
  can0  76E   [8]  00 00 00 00 00 00 00 00
  can0  204   [8]  01 42 31 47 46 33 31 34
  can0  002   [5]  01 00 C3 8C 07
  can0  105   [8]  03 FF 7F 21 21 8E 84 34
  can0  001   [8]  CC 81 1F 9E 55 03 D1 9F
  can0  388   [8]  35 FF 1F CF FF 0F 07 FF
  can0  073   [8]  05 00 93 62 00 80 B0 11
  can0  1C0   [2]  00 00
  can0  003   [8]  0F F8 10 03 04 FF 20 04
  can0  04B   [6]  01 00 0C 06 FF 04
  can0  12D   [8]  01 0F 00 00 50 53 56 79
  can0  005   [8]  00 00 00 00 0D 00 68 F3
  can0  75E   [8]  00 81 00 2D 18 18 18 18
  can0  33D   [8]  00 42 00 00 64 00 00 00
  can0  283   [8]  F5 0D 08 03 C0 6E 3F FF
  can0  073   [8]  05 00 93 62 00 80 C0 48
  can0  766   [8]  00 00 00 00 00 00 0E 08
  can0  375   [8]  13 10 34 3F 3F 07 00 00
  can0  003   [8]  0F F8 10 02 04 FF 30 54
  can0  068   [1]  01
  can0  75E   [8]  00 81 00 2D 18 18 18 18
  can0  201   [8]  F0 EE EF E9 FF FF 60 C8
  can0  203   [8]  42 28 42 29 C2 32 C2 34
  can0  204   [8]  02 33 33 35 FF FF FF FF
  can0  245   [8]  80 06 80 7E 7F 82 60 85
  can0  328   [2]  07 60
  can0  105   [8]  04 03 7F 21 21 8E 94 B4
  can0  10C   [8]  3B 7F FF 07 03 FF C3 67
  can0  34F   [8]  10 93 00 93 00 5D 07 FF
  can0  073   [8]  05 00 93 62 00 80 D0 85
  can0  37D   [8]  02 00 04 EE 10 00 FF FF
  can0  003   [8]  0F F8 10 02 04 FF 40 0D
  can0  30E   [8]  0C 00 00 00 00 05 FF 03
  can0  005   [8]  00 00 00 00 0D 00 78 3E
  can0  20E   [8]  3F 00 01 F0 FF FF 3F 68
  can0  10E   [4]  00 C0 00 02
  can0  75E   [8]  00 81 00 2D 18 18 18 18
  can0  249   [8]  17 E8 00 1B E8 00 FF FF
  can0  073   [8]  05 00 93 62 00 80 E0 CF
  can0  351   [8]  00 00 00 00 00 00 00 00
  can0  766   [8]  00 00 00 00 00 00 0E 08
  can0  10D   [4]  00 A0 3E 00
  can0  003   [8]  0F F8 10 01 04 FF 50 7A
  can0  201   [8]  F9 F7 F8 F2 FF FF 70 34
  can0  247   [8]  00 00 00 06 00 18 00 00
  can0  317   [2]  0A 00
  can0  203   [8]  42 29 42 26 C2 33 C2 32
  can0  245   [8]  80 06 80 7E 80 82 70 85
  can0  75E   [8]  00 81 00 2D 18 18 18 18
  can0  776   [8]  00 00 00 00 00 00 00 00
  can0  105   [8]  04 01 7F 21 21 8E A4 72
  can0  073   [8]  05 00 93 62 00 80 F0 02
  can0  413   [8]  FD 00 04 0F 10 00 00 05
  can0  003   [8]  0F F9 10 02 04 FF 60 CC
  can0  208   [8]  1F 40 11 80 00 06 40 A8
  can0  005   [8]  00 00 00 00 0D 00 88 41
  can0  207   [8]  10 09 3D 22 0F CB 4D AC
  can0  75E   [8]  00 81 00 2D 18 18 18 18
  can0  007   [8]  F0 05 38 00 3F FC AF 79
  can0  073   [8]  05 00 93 62 00 80 00 7D
  can0  003   [8]  0F F9 10 03 04 FF 70 9C
  can0  206   [8]  00 00 0D 20 C1 80 D2 CC
  can0  766   [8]  00 00 00 00 00 00 0E 08
  can0  39D   [8]  1E 02 01 0F FF 0E 00 5F
  can0  201   [8]  03 01 02 FB FF FF 80 FE
  can0  203   [8]  42 2A 42 28 C2 32 C2 32
  can0  245   [8]  80 0E 80 7E 80 83 80 85
  can0  20A   [8]  FA FF 00 FC FF FF FF 7F
  can0  75E   [8]  00 81 00 2D 18 18 18 18
  can0  205   [8]  06 93 0C 00 00 00 00 00
  can0  105   [8]  04 02 7F 21 21 8E B4 75
  can0  19F   [8]  01 44 75 F0 47 22 61 F1
  can0  073   [8]  05 00 93 62 00 80 10 B0
  can0  003   [8]  0F F9 10 04 04 FF 80 17
  can0  34E   [8]  00 00 A7 00 00 A7 11 2C
  can0  005   [8]  00 00 00 00 0D 00 98 8C
  can0  75E   [8]  00 81 00 2D 18 18 18 18
  can0  073   [8]  05 00 93 62 00 80 20 FA
  can0  3D3   [4]  C0 00 00 00
  can0  003   [8]  0F F9 10 06 04 FF 90 FD
  can0  766   [8]  00 00 00 00 00 00 0E 08
  can0  201   [8]  0B 0A 0B 05 FF FF 90 07
  can0  203   [8]  42 29 42 2A C2 33 C2 33
  can0  245   [8]  80 13 80 7E 80 83 90 85
  can0  75E   [8]  00 81 00 2D 18 18 18 18
  can0  105   [8]  04 00 7F 21 21 8E C4 A0
  can0  073   [8]  05 00 93 62 00 80 30 37
  can0  003   [8]  0F F9 10 08 04 FF A0 42
  can0  005   [8]  00 00 00 00 0D 00 A8 C6
  can0  75E   [8]  00 81 00 2D 18 18 18 18
  can0  30D   [8]  7C 55 72 FF FF 03 D1 81
  can0  073   [8]  05 00 93 62 00 80 40 6E
  can0  003   [8]  0F F9 10 0A 04 FF B0 A8
  can0  045   [8]  00 FF 00 00 00 00 40 10
  can0  766   [8]  00 00 00 00 00 00 0E 08
  can0  201   [8]  14 12 14 0E FF FF A0 02
  can0  203   [8]  42 2A 42 2A C2 33 C2 31
  can0  245   [8]  80 13 80 7E 80 83 A0 85
  can0  2FF   [8]  02 28 00 52 FF 53 61 FE
  can0  75E   [8]  00 81 00 2D 18 18 18 18
  can0  76E   [8]  00 00 00 00 00 00 00 00
  can0  105   [8]  04 01 7F 21 21 8E D4 2B
  can0  001   [8]  CC 81 1F 9E 55 03 E1 D5
  can0  073   [8]  05 00 93 62 00 80 50 A3
  can0  003   [8]  0F FA 10 0D 04 FF C0 CF
  can0  388   [8]  35 FF 1F CF FF 0F 07 FF
  can0  12D   [8]  01 0F 00 00 50 53 56 79
  can0  005   [8]  00 00 00 00 0D 00 B8 0B
  can0  04B   [6]  01 00 0C 06 FF 04
  can0  75E   [8]  00 81 00 2D 18 18 18 18
  can0  33D   [8]  00 42 00 00 64 00 00 00
  can0  073   [8]  05 00 93 62 00 80 60 E9
  can0  375   [8]  13 10 34 3F 3F 07 00 00
  can0  003   [8]  0F FA 10 10 04 FF D0 68
  can0  283   [8]  F5 0D 08 03 C0 6E 3F FF
  can0  766   [8]  00 00 00 00 00 00 0E 08
  can0  201   [8]  1D 1B 1D 17 FF FF B0 35
  can0  203   [8]  42 2A 42 28 C2 33 C2 32
  can0  245   [8]  80 13 80 7E 7F 83 B0 85
  can0  75E   [8]  00 81 00 2D 18 18 18 18
  can0  105   [8]  03 FE 7F 21 21 8E E4 E6
  can0  34F   [8]  10 93 00 93 00 5D 07 FF
  can0  073   [8]  05 00 93 62 00 80 70 24
  can0  003   [8]  0F FA 10 14 04 FF E0 6C
  can0  005   [8]  00 00 00 00 0D 00 C8 52
  can0  75E   [8]  00 81 00 2D 18 18 18 18
  can0  249   [8]  1F E8 00 23 E8 00 FF FF
  can0  073   [8]  05 00 93 62 00 80 80 5B
  can0  003   [8]  0F FB 10 19 04 FF F0 A8
  can0  766   [8]  00 00 00 00 00 00 0E 08
  can0  400   [8]  FD 13 04 0F E0 81 00 05
  can0  201   [8]  26 24 26 20 FF FF C0 0B
  can0  247   [8]  00 00 00 06 00 18 00 00
  can0  203   [8]  42 27 42 2A C2 33 C2 32
  can0  245   [8]  80 0F 80 7E 80 82 C0 85
  can0  105   [8]  04 00 7F 21 21 8E F4 EA
  can0  75E   [8]  00 81 00 2D 18 18 18 18
  can0  073   [8]  05 00 93 62 00 80 90 96
  can0  003   [8]  0F FB 10 1C 04 FF 00 04
  can0  005   [8]  00 00 00 00 0D 00 D8 9F
  can0  007   [8]  F0 05 38 00 3F FC AF 79
  can0  75E   [8]  00 81 00 2D 18 18 18 18
  can0  073   [8]  05 00 93 62 00 80 A0 DC
  can0  003   [8]  0F FC 10 1F 04 FF 10 BC
  can0  766   [8]  00 00 00 00 00 00 0E 08
  can0  26F   [2]  6F C0
  can0  201   [8]  2F 2D 2F 29 FF FF D0 19
  can0  203   [8]  42 29 42 2A C2 34 C2 33
  can0  245   [8]  80 0E 80 7E 80 81 D0 85
  can0  205   [8]  06 93 0C 00 00 00 00 00
  can0  39D   [8]  1E 02 01 0F FF 0E 00 67
  can0  3D1   [4]  C6 0B 00 00
  can0  105   [8]  04 01 7F 21 21 8E 04 D3
  can0  75E   [8]  00 81 00 2D 18 18 18 18
  can0  3F6   [5]  02 00 00 00 00
  can0  34E   [8]  00 00 A7 00 00 A7 11 31
  can0  073   [8]  05 00 93 62 00 80 B0 11
  can0  003   [8]  0F FC 10 22 04 FF 20 D6
  can0  005   [8]  00 00 00 00 0D 00 E8 D5
  can0  75E   [8]  00 81 00 2D 18 18 18 18
  can0  073   [8]  05 00 93 62 00 80 C0 48
  can0  003   [8]  0F FD 10 25 04 FF 30 A9
  can0  336   [8]  6C 42 00 00 00 00 00 00
  can0  766   [8]  00 00 00 00 00 00 0E 08
  can0  201   [8]  38 36 38 32 FF FF E0 56
  can0  203   [8]  42 29 42 29 C2 33 C2 35
  can0  245   [8]  80 0F 80 7E 81 81 E0 85
  can0  105   [8]  04 01 7F 21 21 8E 14 1E
  can0  2EF   [8]  F7 00 FF 0F FF FF FF 00
  can0  073   [8]  05 00 93 62 00 80 D0 85
  can0  75E   [8]  00 81 00 2D 18 18 18 18
  can0  003   [8]  0F FD 10 26 04 FF 40 4A
  can0  35C   [8]  02 10 E0 00 00 FF FF 01
  can0  005   [8]  00 00 00 00 0D 00 F8 18
  can0  30D   [8]  7C 55 72 FF FF 03 CC 81
  can0  1C1   [4]  00 00 00 00
  can0  073   [8]  05 00 93 62 00 80 E0 CF
  can0  75E   [8]  00 81 00 2D 18 18 18 18
  can0  003   [8]  0F FD 10 28 04 FF 50 72
  can0  3E3   [8]  5A FD 2C 53 29 CF 8E 59
  can0  045   [8]  00 FF 00 00 00 00 50 DD
  can0  201   [8]  41 3F 41 3B FF FF F0 FC
  can0  203   [8]  42 28 42 2A C2 33 C2 34
  can0  245   [8]  80 0F 80 7E 81 82 F0 85
  can0  766   [8]  00 00 00 00 00 00 0E 08
  can0  001   [8]  CC 81 1F 9E 55 03 F1 18
  can0  105   [8]  04 03 7F 21 21 8E 24 D8
  can0  073   [8]  05 00 93 62 00 80 F0 02
  can0  75E   [8]  00 81 00 2D 18 18 18 18
  can0  3B8   [8]  00 00 00 60 41 05 00 00
  can0  76E   [8]  00 00 00 00 00 00 00 00
  can0  003   [8]  0F FE 10 27 04 FF 60 9A
  can0  3E5   [8]  0E 0A 0A 14 04 FF FF 00
  can0  12D   [8]  01 0F 00 00 50 53 56 79
  can0  39F   [8]  12 00 10 02 0B 19 0A FF
  can0  005   [8]  00 00 00 00 0D 00 08 67
  can0  3E7   [8]  5A FD 31 52 29 CF 8A 10
  can0  388   [8]  35 FF 1F CF FF 0F 07 FF
  can0  33D   [8]  00 42 00 00 64 00 00 00
  can0  3F2   [8]  00 27 00 0C 00 00 3F FD
  can0  19F   [8]  01 43 75 F0 47 22 61 F1
  can0  073   [8]  05 00 93 62 00 80 00 7D
  can0  375   [8]  13 10 34 3F 3F 07 00 00
  can0  003   [8]  0F FE 10 26 04 FF 70 CA
  can0  04B   [6]  01 00 0C 06 FF 04
  can0  75E   [8]  00 81 00 2D 18 18 18 18
  can0  3E9   [8]  07 E9 0B 03 02 00 05 DC
  can0  3EB   [8]  03 7E 0D 53 0D 26 0D 83
  can0  201   [8]  49 48 4A 44 FF FF 00 A8
  can0  203   [8]  42 29 42 28 C2 33 C2 33
  can0  245   [8]  80 05 80 7E 80 83 00 85
  can0  328   [2]  07 60
  can0  283   [8]  F5 0D 08 03 C0 6E 3F FF
  can0  766   [8]  00 00 00 00 00 00 0E 08
  can0  37D   [8]  02 00 04 EE 10 00 FF FF
  can0  105   [8]  04 03 7F 21 21 8E 34 15
  can0  34F   [8]  10 93 00 93 00 5D 07 FF
  can0  073   [8]  05 00 93 62 00 80 10 B0
  can0  003   [8]  0F FE 10 23 04 FF 80 66
  can0  068   [1]  01
  can0  75E   [8]  00 81 00 2D 18 18 18 18
  can0  005   [8]  00 00 00 00 0D 00 18 AA
  can0  10C   [8]  3B 7F FF 07 03 FF C3 67
  can0  249   [8]  25 FC 00 28 5E 00 FF FF
  can0  073   [8]  05 00 93 62 00 80 20 FA
  can0  413   [8]  FD 00 04 0F 10 00 00 05
  can0  003   [8]  0F FE 10 1F 04 FF 90 16
  can0  20E   [8]  3F 00 01 F0 FF FF 3F 68
  can0  75E   [8]  00 81 00 2D 18 18 18 18
  can0  201   [8]  52 50 53 4D FF FF 10 05
  can0  247   [8]  00 00 00 06 00 18 00 00
  can0  2C4   [8]  00 00 FC 3F 7F FF 3F FF
  can0  203   [8]  42 2C 42 28 C2 32 C2 34
  can0  245   [8]  7F FD 80 7E 80 82 10 85
  can0  351   [8]  00 00 00 00 00 00 00 00
  can0  766   [8]  00 00 00 00 00 00 0E 08
  can0  105   [8]  04 04 7F 21 21 8E 44 83
  can0  073   [8]  05 00 93 62 00 80 30 37
  can0  003   [8]  0F FE 10 1C 04 FF A0 E6
  can0  75E   [8]  00 81 00 2D 18 18 18 18
  can0  776   [8]  00 00 00 00 00 00 00 00
  can0  005   [8]  00 00 00 00 0D 00 28 E0
  can0  007   [8]  F0 05 38 00 3F FC AF 79
  can0  073   [8]  05 00 93 62 00 80 40 6E
  can0  003   [8]  0F FE 10 19 04 FF B0 F8
  can0  75E   [8]  00 81 00 2D 18 18 18 18
  can0  201   [8]  5B 59 5C 56 FF FF 20 F3
  can0  203   [8]  42 2B 42 2A C2 33 C2 33
  can0  39D   [8]  1E 02 01 0F FF 0E 00 6F
  can0  245   [8]  7F F9 80 7E 80 82 20 85
  can0  766   [8]  00 00 00 00 00 00 0E 08
  can0  205   [8]  06 93 0C 00 00 00 00 00
  can0  105   [8]  04 02 7F 21 21 8E 54 C7
  can0  34E   [8]  00 00 A7 00 00 A7 11 31
  can0  073   [8]  05 00 93 62 00 80 50 A3
  can0  003   [8]  0F FE 10 14 04 FF C0 EE
  can0  75E   [8]  00 81 00 2D 18 18 18 18
  can0  005   [8]  00 00 00 00 0D 00 38 2D
  can0  073   [8]  05 00 93 62 00 80 60 E9
  can0  3D3   [4]  C0 00 00 00
  can0  003   [8]  0F FE 10 10 04 FF D0 6D
  can0  75E   [8]  00 81 00 2D 18 18 18 18
  can0  201   [8]  64 62 65 5F FF FF 30 7B
  can0  203   [8]  42 29 42 29 C2 34 C2 33
  can0  245   [8]  7F F2 80 7E 81 82 30 85
  can0  766   [8]  00 00 00 00 00 00 0E 08
  can0  105   [8]  04 01 7F 21 21 8E 64 47
  can0  073   [8]  05 00 93 62 00 80 70 24
  can0  003   [8]  0F FE 10 0C 04 FF E0 D0
  can0  75E   [8]  00 81 00 2D 18 18 18 18
  can0  005   [8]  00 00 00 00 0D 00 48 74
  can0  30D   [8]  7C 55 72 FF FF 03 CC 81
  can0  073   [8]  05 00 93 62 00 80 80 5B
  can0  003   [8]  0F FE 10 00 04 FF F0 CF
  can0  045   [8]  00 FF 00 00 00 00 60 97
  can0  75E   [8]  00 81 00 2D 18 18 18 18
  can0  201   [8]  6D 6B 6E 68 FF FF 40 B3
  can0  203   [8]  42 2B 42 2A C2 35 C2 34
  can0  245   [8]  7F F2 80 7E 81 7F 40 85
  can0  766   [8]  00 00 00 00 00 00 0E 08
  can0  105   [8]  04 01 7F 21 21 8E 74 8A
  can0  001   [8]  CC 81 1F 9E 55 03 01 67
  can0  073   [8]  05 00 93 62 00 80 90 96
  can0  003   [8]  0F FE 0F FE 04 FF 00 19
  can0  75E   [8]  00 81 00 2D 18 18 18 18
  can0  76E   [8]  00 00 00 00 00 00 00 00
  can0  12D   [8]  01 0F 00 00 50 53 56 79
  can0  005   [8]  00 00 00 00 0D 00 58 B9
  can0  388   [8]  35 FF 1F CF FF 0F 07 FF
  can0  33D   [8]  00 42 00 00 64 00 00 00
  can0  19F   [8]  01 45 75 F0 47 22 61 F1
  can0  073   [8]  05 00 93 62 00 80 A0 DC
  can0  375   [8]  13 10 34 3F 3F 07 00 00
  can0  003   [8]  0F FE 0F FE 04 FF 10 D4
  can0  04B   [6]  01 00 0C 06 FF 04
  can0  75E   [8]  00 81 00 2D 18 18 18 18
  can0  201   [8]  76 74 77 71 FF FF 50 F4
  can0  203   [8]  42 2D 42 2C C2 34 C2 33
  can0  245   [8]  7F F3 80 7E 80 7F 50 85
  can0  283   [8]  F5 0D 08 03 C0 6E 3F FF
  can0  766   [8]  00 00 00 00 00 00 0E 08
  can0  105   [8]  04 01 7F 21 21 8E 84 F5
  can0  400   [8]  FD 13 04 0F E0 81 00 05
  can0  34F   [8]  10 93 00 93 00 5D 07 FF
  can0  073   [8]  05 00 93 62 00 80 B0 11
  can0  003   [8]  0F FE 0F FD 04 FF 20 24
  can0  75E   [8]  00 81 00 2D 18 18 18 18
  can0  005   [8]  00 00 00 00 0D 00 68 F3
  can0  249   [8]  2C 6F 00 30 7D 00 FF FF
  can0  073   [8]  05 00 93 62 00 80 C0 48
  can0  003   [8]  0F FE 0F FC 04 FF 30 74
  can0  75E   [8]  00 81 00 2D 18 18 18 18
  can0  201   [8]  7F 7D 80 7A FF FF 60 C3
  can0  247   [8]  00 00 00 06 00 18 00 00
  can0  203   [8]  42 2B 42 2C C2 34 C2 33
  can0  245   [8]  7F F2 80 7E 80 80 60 85
  can0  105   [8]  04 02 7F 21 21 8E 94 F2
  can0  766   [8]  00 00 00 00 00 00 0E 08
  can0  073   [8]  05 00 93 62 00 80 D0 85
  can0  003   [8]  0F FE 0F FC 04 FF 40 2D
  can0  75E   [8]  00 81 00 2D 18 18 18 18
  can0  005   [8]  00 00 00 00 0D 00 78 3E
  can0  007   [8]  F0 05 38 00 3F FC AF 79
  can0  073   [8]  05 00 93 62 00 80 E0 CF
  can0  34D   [2]  10 00
  can0  003   [8]  0F FE 0F FB 04 FF 50 14
  can0  75E   [8]  00 81 00 2D 18 18 18 18
  can0  201   [8]  88 86 8A 83 FF FF 70 49
  can0  203   [8]  42 2B 42 2A C2 35 C2 33
  can0  245   [8]  7F EA 80 7E 81 81 70 85
  can0  39D   [8]  1E 02 01 0F FF 0E 00 77
  can0  3F6   [5]  02 00 00 00 00
  can0  205   [8]  06 93 0C 00 00 00 00 00
  can0  105   [8]  04 04 7F 21 21 8E A4 31
  can0  3D1   [4]  C6 0B 00 00
  can0  766   [8]  00 00 00 00 00 00 0E 08
  can0  073   [8]  05 00 93 62 00 80 F0 02
  can0  34E   [8]  00 00 A7 00 00 A7 11 31
  can0  003   [8]  0F FE 0F FB 04 FF 60 5E
  can0  75E   [8]  00 81 00 2D 18 18 18 18
  can0  005   [8]  00 00 00 00 0D 00 88 41
  can0  073   [8]  05 00 93 62 00 80 00 7D
  can0  003   [8]  0F FE 0F FA 04 FF 70 0E
  can0  336   [8]  6C 42 00 00 00 00 00 00
  can0  75E   [8]  00 81 00 2D 18 18 18 18
  can0  201   [8]  90 8F 93 8C FF FF 80 8A
  can0  203   [8]  42 2A 42 2B C2 36 C2 35
  can0  245   [8]  7F E1 80 7E 81 82 80 85
  can0  105   [8]  04 03 7F 21 21 8E B4 33
  can0  2EF   [8]  F7 00 FF 0F FF FF FF 00
  can0  073   [8]  05 00 93 62 00 80 10 B0
  can0  766   [8]  00 00 00 00 00 00 0E 08
  can0  003   [8]  0F FE 0F FA 04 FF 80 71
  can0  35C   [8]  02 10 E0 00 00 FF FF 01
  can0  75E   [8]  00 81 00 2D 18 18 18 18
  can0  005   [8]  00 00 00 00 0D 00 98 8C
  can0  30D   [8]  7C 55 72 FF FF 03 D1 81
  can0  073   [8]  05 00 93 62 00 80 20 FA
  can0  003   [8]  0F FE 0F FA 04 FF 90 BC
  can0  045   [8]  00 FF 00 00 00 00 70 5A
  can0  201   [8]  99 98 9C 95 FF FF 90 4B
  can0  203   [8]  42 2B 42 2C C2 36 C2 36
  can0  245   [8]  7F D5 80 7E 81 83 90 85
  can0  75E   [8]  00 81 00 2D 18 18 18 18
  can0  105   [8]  04 04 7F 21 21 8E C4 A5
  can0  001   [8]  CC 81 1F 9E 55 03 11 AA
  can0  766   [8]  00 00 00 00 00 00 0E 08
  can0  073   [8]  05 00 93 62 00 80 30 37
  can0  003   [8]  0F FD 0F FB 04 FF A0 A1
  can0  12D   [8]  01 0F 00 00 50 53 56 79
  can0  005   [8]  00 00 00 00 0D 00 A8 C6
  can0  75E   [8]  00 81 00 2D 18 18 18 18
  can0  76E   [8]  00 00 00 00 00 00 00 00
  can0  33D   [8]  00 42 00 00 64 00 00 00
  can0  19F   [8]  01 45 75 F0 47 22 61 F1
  can0  004   [5]  01 00 00 7D 07
  can0  073   [8]  05 00 93 62 00 80 40 6E
  can0  388   [8]  35 FF 1F CF FF 0F 07 FF
  can0  413   [8]  FD 00 04 0F 10 00 00 05
  can0  375   [8]  13 10 34 3F 3F 07 00 00
  can0  003   [8]  0F FD 0F FB 04 FF B0 6C
  can0  04B   [6]  01 00 0C 06 FF 04
  can0  75E   [8]  00 81 00 2D 18 18 18 18
  can0  201   [8]  A2 A0 A5 9E FF FF A0 C0
  can0  203   [8]  42 2D 42 2B C2 37 C2 35
  can0  245   [8]  7F CE 80 7E 80 83 A0 85
  can0  328   [2]  07 60
  can0  37D   [8]  02 00 04 EE 10 00 FF FF
  can0  105   [8]  04 05 7F 21 21 8E D4 2E
  can0  283   [8]  F5 0D 08 03 C0 6E 3F FF
  can0  766   [8]  00 00 00 00 00 00 0E 08
  can0  073   [8]  05 00 93 62 00 80 50 A3
  can0  34F   [8]  10 93 00 93 00 5D 07 FF
  can0  003   [8]  0F FD 0F FC 04 FF C0 C1
  can0  068   [1]  01
  can0  005   [8]  00 00 00 00 0D 00 B8 0B
  can0  75E   [8]  00 81 00 2D 18 18 18 18
  can0  249   [8]  35 0F 00 38 39 00 FF FF
  can0  10C   [8]  3B 7F FF 07 03 FF C3 67
  can0  073   [8]  05 00 93 62 00 80 60 E9
  can0  003   [8]  0F FD 0F FD 04 FF D0 91
  can0  201   [8]  AB A9 AE A7 FF FF B0 69
  can0  20E   [8]  3F 00 01 F0 FF FF 3F 68
  can0  203   [8]  42 2B 42 2A C2 35 C2 35
  can0  245   [8]  7F D5 80 7E 80 83 B0 85
  can0  247   [8]  00 00 00 06 00 18 00 00
  can0  75E   [8]  00 81 00 2D 18 18 18 18
  can0  105   [8]  04 06 7F 21 21 8E E4 AE
  can0  351   [8]  00 00 00 00 00 00 00 00
  can0  766   [8]  00 00 00 00 00 00 0E 08
  can0  073   [8]  05 00 93 62 00 80 70 24
  can0  003   [8]  0F FD 0F FD 04 FF E0 DB
  can0  75E   [8]  00 81 00 2D 18 18 18 18
  can0  005   [8]  00 00 00 00 0D 00 C8 52
  can0  776   [8]  00 00 00 00 00 00 00 00
  can0  007   [8]  F0 05 38 00 3F FC AF 79
  can0  073   [8]  05 00 93 62 00 80 80 5B
  can0  003   [8]  0F FD 0F FD 04 FF F0 16
  can0  75E   [8]  00 81 00 2D 18 18 18 18
  can0  201   [8]  B4 B2 B7 B0 FF FF C0 23
  can0  203   [8]  42 2B 42 2B C2 35 C2 34
  can0  245   [8]  7F DA 80 7E 80 81 C0 85
  can0  39D   [8]  1E 02 01 0F FF 0E 00 7F
  can0  205   [8]  06 93 0C 00 00 00 00 00
  can0  105   [8]  04 05 7F 21 21 8E F4 A9
  can0  34E   [8]  00 00 A7 00 00 A7 11 31
  can0  073   [8]  05 00 93 62 00 80 90 96
  can0  766   [8]  00 00 00 00 00 00 0E 08
  can0  003   [8]  0F FD 0F FD 04 FF 00 69
  can0  005   [8]  00 00 00 00 0D 00 D8 9F
  can0  75E   [8]  00 81 00 2D 18 18 18 18
  can0  073   [8]  05 00 93 62 00 80 A0 DC
  can0  3D3   [4]  C0 00 00 00
  can0  003   [8]  0F FD 0F FE 04 FF 10 1E
  can0  201   [8]  BD BB C0 B9 FF FF D0 97
  can0  203   [8]  42 2B 42 2A C2 35 C2 35
  can0  245   [8]  7F D9 80 7E 80 80 D0 85
  can0  75E   [8]  00 81 00 2D 18 18 18 18
  can0  105   [8]  04 04 7F 21 21 8E 04 90
  can0  073   [8]  05 00 93 62 00 80 B0 11
  can0  766   [8]  00 00 00 00 00 00 0E 08
  can0  003   [8]  0F FD 0F FE 04 FF 20 54
  can0  005   [8]  00 00 00 00 0D 00 E8 D5
  can0  75E   [8]  00 81 00 2D 18 18 18 18
  can0  30D   [8]  7C 55 72 FF FF 03 D1 81
  can0  073   [8]  05 00 93 62 00 80 C0 48
  can0  003   [8]  0F FD 0F FE 04 FF 30 99
  can0  045   [8]  00 FF 00 00 00 00 80 25
  can0  201   [8]  C6 C4 C9 C2 FF FF E0 89
  can0  203   [8]  42 2B 42 2A C2 36 C2 36
  can0  245   [8]  7F E1 80 7E 80 81 E0 85
  can0  75E   [8]  00 81 00 2D 18 18 18 18
  can0  002   [5]  01 00 C3 8C 07
  can0  105   [8]  04 04 7F 21 21 8E 14 5D
  can0  001   [8]  CC 81 1F 9E 55 03 21 E0
  can0  073   [8]  05 00 93 62 00 80 D0 85
  can0  003   [8]  0F FD 0F FF 04 FF 40 5D
  can0  766   [8]  00 00 00 00 00 00 0E 08
  can0  400   [8]  FD 13 04 0F E0 81 00 05
  can0  12D   [8]  01 0F 00 00 50 53 56 79
  can0  005   [8]  00 00 00 00 0D 00 F8 18
  can0  75E   [8]  00 81 00 2D 18 18 18 18
  can0  76E   [8]  00 00 00 00 00 00 00 00
  can0  33D   [8]  00 42 00 00 64 00 00 00
  can0  19F   [8]  01 45 75 F0 47 22 61 F1
  can0  073   [8]  05 00 93 62 00 80 E0 CF
  can0  375   [8]  13 10 34 3F 3F 07 00 00
  can0  003   [8]  0F FD 10 00 04 FF 50 A4
  can0  388   [8]  35 FF 1F CF FF 0F 07 FF
  can0  201   [8]  CF CD D2 CB FF FF F0 A1
  can0  203   [8]  42 2C 42 2C C2 36 C2 34
  can0  245   [8]  7F EC 80 7E 80 81 F0 85
  can0  04B   [6]  01 00 0C 06 FF 04
  can0  75E   [8]  00 81 00 2D 18 18 18 18
  can0  105   [8]  04 03 7F 21 21 8E 24 D8
  can0  34F   [8]  10 93 00 93 00 5D 07 FF
  can0  073   [8]  05 00 93 62 00 80 F0 02
  can0  003   [8]  0F FD 10 00 04 FF 60 EE
  can0  283   [8]  F5 0D 08 03 C0 6E 3F FF
  can0  766   [8]  00 00 00 00 00 00 0E 08
  can0  005   [8]  00 00 00 00 0D 00 08 67
  can0  10E   [4]  00 C0 00 02
  can0  75E   [8]  00 81 00 2D 18 18 18 18
  can0  249   [8]  3C A1 00 FF FF 00 03 FF
  can0  073   [8]  05 00 93 62 00 80 00 7D
  can0  10D   [4]  00 A0 3E 00
  can0  003   [8]  0F FD 10 00 04 FF 70 23
  can0  201   [8]  D8 D6 DB D4 FF FF 00 6D
  can0  247   [8]  00 00 00 06 00 18 00 00
  can0  203   [8]  42 2C 42 2C C2 36 C2 33
  can0  245   [8]  7F EA 80 7E 80 82 00 85
  can0  105   [8]  04 03 7F 21 21 8E 34 15
  can0  75E   [8]  00 81 00 2D 18 18 18 18
  can0  073   [8]  05 00 93 62 00 80 10 B0
  can0  003   [8]  0F FD 10 00 04 FF 80 5C
  can0  766   [8]  00 00 00 00 00 00 0E 08
  can0  005   [8]  00 00 00 00 0D 00 18 AA
  can0  007   [8]  F0 05 38 00 3F FC AF 79
  can0  75E   [8]  00 81 00 2D 18 18 18 18
  can0  073   [8]  05 00 93 62 00 80 20 FA
  can0  003   [8]  0F FD 10 00 04 FF 90 91
  can0  201   [8]  E0 DF E4 DE FF FF 10 00
  can0  203   [8]  42 2C 42 2B C2 35 C2 33
  can0  245   [8]  7F EB 80 7E 80 82 10 85
  can0  39D   [8]  1E 02 01 0F FF 0E 00 07
  can0  3F6   [5]  02 00 00 00 00
  can0  205   [8]  06 93 0C 00 00 00 00 00
  can0  3D1   [4]  C6 0B 00 00
  can0  105   [8]  04 04 7F 21 21 8E 44 83
  can0  75E   [8]  00 81 00 2D 18 18 18 18
  can0  073   [8]  05 00 93 62 00 80 30 37
  can0  34E   [8]  00 00 A7 00 00 A7 11 31
  can0  003   [8]  0F FD 10 00 04 FF A0 DB
  can0  766   [8]  00 00 00 00 00 00 0E 08
  can0  005   [8]  00 00 00 00 0D 00 28 E0
  can0  75E   [8]  00 81 00 2D 18 18 18 18
  can0  073   [8]  05 00 93 62 00 80 40 6E
  can0  003   [8]  0F FD 10 00 04 FF B0 16
  can0  336   [8]  6C 42 00 00 00 00 00 00
  can0  201   [8]  E9 E8 ED E7 FF FF 20 45
  can0  203   [8]  42 2A 42 2C C2 36 C2 35
  can0  245   [8]  7F EA 80 7E 80 82 20 85
  can0  105   [8]  04 04 7F 21 21 8E 54 4E
  can0  2EF   [8]  F7 00 FF 0F FF FF FF 00
  can0  75E   [8]  00 81 00 2D 18 18 18 18
  can0  073   [8]  05 00 93 62 00 80 50 A3
  can0  003   [8]  0F FD 10 00 04 FF C0 4F
  can0  35C   [8]  02 10 E0 00 00 FF FF 01
  can0  766   [8]  00 00 00 00 00 00 0E 08
  can0  005   [8]  00 00 00 00 0D 00 38 2D
  can0  30D   [8]  7C 55 72 FF FF 03 D1 81
  can0  073   [8]  05 00 93 62 00 80 60 E9
  can0  75E   [8]  00 81 00 2D 18 18 18 18
  can0  003   [8]  0F FD 10 00 04 FF D0 82
  can0  045   [8]  00 FF 00 00 00 00 90 E8
  can0  201   [8]  F2 F0 F6 F0 FF FF 30 EC
  can0  203   [8]  42 2B 42 2B C2 37 C2 35
  can0  245   [8]  7F E5 80 7E 80 83 30 85
  can0  105   [8]  04 05 7F 21 21 8E 64 42
  can0  001   [8]  CC 81 1F 9E 55 03 31 2D
  can0  073   [8]  05 00 93 62 00 80 70 24
  can0  413   [8]  FD 00 04 0F 10 00 00 05
  can0  003   [8]  0F FD 10 00 04 FF E0 C8
  can0  75E   [8]  00 81 00 2D 18 18 18 18
  can0  12D   [8]  01 0F 00 00 50 53 56 79
  can0  005   [8]  00 00 00 00 0D 00 48 74
  can0  766   [8]  00 00 00 00 00 00 0E 08
  can0  33D   [8]  00 42 00 00 64 00 00 00
  can0  19F   [8]  01 45 75 F0 47 22 61 F1
  can0  073   [8]  05 00 93 62 00 80 80 5B
  can0  375   [8]  13 10 34 3F 3F 07 00 00
  can0  003   [8]  0F FD 10 00 04 FF F0 05
  can0  75E   [8]  00 81 00 2D 18 18 18 18
  can0  76E   [8]  00 00 00 00 00 00 00 00
  can0  201   [8]  FB F9 00 F9 FF FF 40 85
  can0  203   [8]  42 2A 42 2B C2 35 C2 36
  can0  328   [2]  07 60
  can0  245   [8]  7F E4 80 7E 80 83 40 85
  can0  388   [8]  35 FF 1F CF FF 0F 07 FF
  can0  37D   [8]  02 00 04 EE 10 00 FF FF
  can0  105   [8]  04 07 7F 21 21 8E 74 03
  can0  34F   [8]  10 93 00 93 00 5D 07 FF
  can0  073   [8]  05 00 93 62 00 80 90 96
  can0  003   [8]  0F FD 10 00 04 FF 00 7A
  can0  04B   [6]  01 00 0C 06 FF 04
  can0  75E   [8]  00 81 00 2D 18 18 18 18
  can0  005   [8]  00 00 00 00 0D 00 58 B9
  can0  283   [8]  F5 0D 08 03 C0 6E 3F FF
  can0  766   [8]  00 00 00 00 00 00 0E 08
  can0  249   [8]  06 B4 00 08 B6 00 FF FF
  can0  073   [8]  05 00 93 62 00 80 A0 DC
  can0  003   [8]  0F FD 0F FF 04 FF 10 83
  can0  068   [1]  01
  can0  75E   [8]  00 81 00 2D 18 18 18 18
  can0  201   [8]  05 03 09 03 FF FF 50 C2
  can0  247   [8]  00 00 00 06 00 18 00 00
  can0  203   [8]  42 2B 42 2B C2 35 C2 36
  can0  245   [8]  7F E5 80 7E 80 84 50 85
  can0  10C   [8]  3B 7F FF 07 03 FF C3 67
  can0  105   [8]  04 07 7F 21 21 8E 84 7C
  can0  073   [8]  05 00 93 62 00 80 B0 11
  can0  003   [8]  0F FD 0F FE 04 FF 20 54
  can0  20E   [8]  3F 00 01 F0 FF FF 3F 68
  can0  75E   [8]  00 81 00 2D 18 18 18 18
  can0  005   [8]  00 00 00 00 0D 00 68 F3
  can0  351   [8]  00 00 00 00 00 00 00 00
  can0  007   [8]  F0 05 38 00 3F FC AF 79
  can0  766   [8]  00 00 00 00 00 00 0E 08
  can0  073   [8]  05 00 93 62 00 80 C0 48
  can0  003   [8]  0F FD 0F FE 04 FF 30 99
  can0  75E   [8]  00 81 00 2D 18 18 18 18
  can0  776   [8]  00 00 00 00 00 00 00 00
  can0  39D   [8]  1E 02 01 0F FF 0E 00 0F
  can0  201   [8]  0E 0C 12 0C FF FF 60 37
  can0  203   [8]  42 2C 42 2B C2 35 C2 35
  can0  245   [8]  7F E4 80 7E 7F 83 60 85
  can0  205   [8]  06 93 0C 00 00 00 00 00
  can0  105   [8]  04 08 7F 21 21 8E 94 74
  can0  34E   [8]  00 00 A7 00 00 A7 11 31
  can0  073   [8]  05 00 93 62 00 80 D0 85
  can0  003   [8]  0F FD 0F FD 04 FF 40 7A
  can0  75E   [8]  00 81 00 2D 18 18 18 18
  can0  005   [8]  00 00 00 00 0D 00 78 3E
  can0  766   [8]  00 00 00 00 00 00 0E 08
  can0  073   [8]  05 00 93 62 00 80 E0 CF
  can0  3D3   [4]  C0 00 00 00
  can0  003   [8]  0F FD 0F FD 04 FF 50 B7
  can0  75E   [8]  00 81 00 2D 18 18 18 18
  can0  201   [8]  17 15 1B 15 FF FF 70 AD
  can0  203   [8]  42 2B 42 29 C2 34 C2 34
  can0  245   [8]  7F E4 80 7E 7F 81 70 85
  can0  105   [8]  04 05 7F 21 21 8E A4 77
  can0  073   [8]  05 00 93 62 00 80 F0 02
  can0  003   [8]  0F FD 0F FD 04 FF 60 FD
  can0  75E   [8]  00 81 00 2D 18 18 18 18
  can0  005   [8]  00 00 00 00 0D 00 88 41
  can0  766   [8]  00 00 00 00 00 00 0E 08
  can0  30D   [8]  7C 55 72 FF FF 03 D1 81
  can0  400   [8]  FD 13 04 0F E0 81 00 05
  can0  1C1   [4]  00 00 00 00
  can0  073   [8]  05 00 93 62 00 80 00 7D
  can0  003   [8]  0F FD 0F FC 04 FF 70 AD
  can0  045   [8]  00 FF 00 00 00 00 A0 A2
  can0  75E   [8]  00 81 00 2D 18 18 18 18
  can0  201   [8]  20 1E 24 1E FF FF 80 3F
  can0  203   [8]  42 2B 42 2B C2 35 C2 35
  can0  245   [8]  7F E9 80 7E 80 80 80 85
  can0  105   [8]  04 05 7F 21 21 8E B4 BA
  can0  001   [8]  CC 81 1F 9E 55 03 41 74
  can0  073   [8]  05 00 93 62 00 80 10 B0
  can0  003   [8]  0F FD 0F FC 04 FF 80 D2
  can0  12D   [8]  01 0F 00 00 50 53 56 79
  can0  75E   [8]  00 81 00 2D 18 18 18 18
  can0  005   [8]  00 00 00 00 0D 00 98 8C
  can0  33D   [8]  00 42 00 00 64 00 00 00
  can0  766   [8]  00 00 00 00 00 00 0E 08
  can0  19F   [8]  01 45 75 F0 47 22 61 F1
  can0  073   [8]  05 00 93 62 00 80 20 FA
  can0  375   [8]  13 10 34 3F 3F 07 00 00
  can0  003   [8]  0F FD 0F FC 04 FF 90 1F
  can0  75E   [8]  00 81 00 2D 18 18 18 18
  can0  76E   [8]  00 00 00 00 00 00 00 00
  can0  201   [8]  29 27 2D 27 FF FF 90 7E
  can0  203   [8]  42 2B 42 2B C2 35 C2 35
  can0  245   [8]  7F F0 80 7E 80 80 90 85
  can0  105   [8]  04 04 7F 21 21 8E C4 A5
  can0  388   [8]  35 FF 1F CF FF 0F 07 FF
  can0  34F   [8]  10 93 00 93 00 5D 07 FF
  can0  073   [8]  05 00 93 62 00 80 30 37
  can0  003   [8]  0F FD 0F FC 04 FF A0 55
  can0  04B   [6]  01 00 0C 06 FF 04
  can0  005   [8]  00 00 00 00 0D 00 A8 C6
  can0  75E   [8]  00 81 00 2D 18 18 18 18
  can0  249   [8]  0F E8 00 13 E8 00 FF FF
  can0  283   [8]  F5 0D 08 03 C0 6E 3F FF
  can0  073   [8]  05 00 93 62 00 80 40 6E
  can0  766   [8]  00 00 00 00 00 00 0E 08
  can0  003   [8]  0F FD 0F FC 04 FF B0 98
  can0  75E   [8]  00 81 00 2D 18 18 18 18
  can0  201   [8]  32 30 37 30 FF FF A0 FF
  can0  247   [8]  00 00 00 06 00 18 00 00
  can0  203   [8]  42 2D 42 2C C2 36 C2 33
  can0  245   [8]  7F F4 80 7E 80 81 A0 85
  can0  105   [8]  04 03 7F 21 21 8E D4 A7
  can0  073   [8]  05 00 93 62 00 80 50 A3
  can0  003   [8]  0F FD 0F FD 04 FF C0 5C
  can0  75E   [8]  00 81 00 2D 18 18 18 18
  can0  005   [8]  00 00 00 00 0D 00 B8 0B
  can0  007   [8]  F0 05 38 00 3F FC AF 79
  can0  766   [8]  00 00 00 00 00 00 0E 08
  can0  073   [8]  05 00 93 62 00 80 60 E9
  can0  003   [8]  0F FD 0F FD 04 FF D0 91
  can0  201   [8]  3A 38 40 39 FF FF B0 50
  can0  203   [8]  42 2B 42 2B C2 36 C2 33
  can0  245   [8]  7F F9 80 7E 80 80 B0 85
  can0  75E   [8]  00 81 00 2D 18 18 18 18
  can0  39D   [8]  1E 02 01 0F FF 0E 00 17
  can0  205   [8]  06 93 0C 00 00 00 00 00
  can0  3F6   [5]  02 00 00 00 00
  can0  105   [8]  04 03 7F 21 21 8D E4 39
  can0  3D1   [4]  C6 0B 00 00
  can0  073   [8]  05 00 93 62 00 80 70 24
  can0  34E   [8]  00 00 A7 00 00 A7 11 31
  can0  003   [8]  0F FD 0F FE 04 FF E0 61
  can0  75E   [8]  00 81 00 2D 18 18 18 18
  can0  005   [8]  00 00 00 00 0D 00 C8 52
  can0  073   [8]  05 00 93 62 00 80 80 5B
  can0  766   [8]  00 00 00 00 00 00 0E 08
  can0  003   [8]  0F FD 0F FE 04 FF F0 AC
  can0  336   [8]  6C 42 00 00 00 00 00 00
  can0  75E   [8]  00 81 00 2D 18 18 18 18
  can0  201   [8]  43 41 49 42 FF FF C0 6E
  can0  203   [8]  42 2B 42 2C C2 36 C2 33
  can0  245   [8]  7F F6 80 7E 80 80 C0 85
  can0  105   [8]  04 04 7F 21 21 8D F4 3B
  can0  2EF   [8]  F7 00 FF 0F FF FF FF 00
  can0  073   [8]  05 00 93 62 00 80 90 96
  can0  413   [8]  FD 00 04 0F 10 00 00 05
  can0  003   [8]  0F FD 0F FE 04 FF 00 D3
  can0  35C   [8]  02 10 E0 00 00 FF FF 01
  can0  75E   [8]  00 81 00 2D 18 18 18 18
  can0  005   [8]  00 00 00 00 0D 00 D8 9F
  can0  30D   [8]  7C 55 72 FF FF 03 D1 81
  can0  073   [8]  05 00 93 62 00 80 A0 DC
  can0  766   [8]  00 00 00 00 00 00 0E 08
  can0  003   [8]  0F FD 0F FF 04 FF 10 83
  can0  045   [8]  00 FF 00 00 00 00 B0 6F
  can0  201   [8]  4C 4A 52 4B FF FF D0 19
  can0  203   [8]  42 2B 42 2B C2 37 C2 35
  can0  245   [8]  7F F2 80 7E 81 81 D0 85
  can0  75E   [8]  00 81 00 2D 18 18 18 18
  can0  105   [8]  04 04 7F 21 21 8D 04 44
  can0  001   [8]  CC 81 1F 9E 55 03 51 B9
  can0  073   [8]  05 00 93 62 00 80 B0 11
  can0  003   [8]  0F FD 0F FF 04 FF 20 C9
  can0  12D   [8]  01 0F 00 00 50 53 56 79
  can0  005   [8]  00 00 00 00 0D 00 E8 D5
  can0  75E   [8]  00 81 00 2D 18 18 18 18
  can0  33D   [8]  00 42 00 00 64 00 00 00
  can0  073   [8]  05 00 93 62 00 80 C0 48
  can0  766   [8]  00 00 00 00 00 00 0E 08
  can0  375   [8]  13 10 34 3F 3F 07 00 00
  can0  003   [8]  0F FD 0F FF 04 FF 30 04
  can0  75E   [8]  00 81 00 2D 18 18 18 18
  can0  76E   [8]  00 00 00 00 00 00 00 00
  can0  201   [8]  55 53 5B 54 FF FF E0 6D
  can0  203   [8]  42 2B 42 2B C2 37 C2 36
  can0  245   [8]  7F ED 80 7E 81 81 E0 85
  can0  328   [2]  07 60
  can0  105   [8]  04 05 7F 21 21 8D 14 CF
  can0  37D   [8]  02 00 04 EE 10 00 FF FF
  can0  388   [8]  35 FF 1F CF FF 0F 07 FF
  can0  34F   [8]  10 93 00 93 00 5D 07 FF
  can0  073   [8]  05 00 93 62 00 80 D0 85
  can0  003   [8]  0F FD 0F FF 04 FF 40 5D
  can0  04B   [6]  01 00 0C 06 FF 04
  can0  005   [8]  00 00 00 00 0D 00 F8 18
  can0  75E   [8]  00 81 00 2D 18 18 18 18
  can0  249   [8]  17 E8 00 1B E8 00 FF FF
  can0  073   [8]  05 00 93 62 00 80 E0 CF
  can0  283   [8]  F5 0D 08 03 C0 6E 3F FF
  can0  766   [8]  00 00 00 00 00 00 0E 08
  can0  003   [8]  0F FD 0F FF 04 FF 50 90
  can0  201   [8]  5E 5C 64 5D FF FF F0 02
  can0  068   [1]  01
  can0  247   [8]  00 00 00 06 00 18 00 00
  can0  203   [8]  42 2B 42 2C C2 36 C2 36
  can0  245   [8]  7F EB 80 7E 81 82 F0 85
  can0  75E   [8]  00 81 00 2D 18 18 18 18
  can0  105   [8]  04 07 7F 21 21 8D 24 09
  can0  10C   [8]  3B 7F FF 07 03 FF C3 67
  can0  073   [8]  05 00 93 62 00 80 F0 02
  can0  003   [8]  0F FD 0F FF 04 FF 60 DA
  can0  20E   [8]  3F 00 01 F0 FF FF 3F 68
  can0  005   [8]  00 00 00 00 0D 00 08 67
  can0  75E   [8]  00 81 00 2D 18 18 18 18
  can0  007   [8]  F0 05 38 00 3F FC AF 79
  can0  351   [8]  00 00 00 00 00 00 00 00
  can0  073   [8]  05 00 93 62 00 80 00 7D
  can0  766   [8]  00 00 00 00 00 00 0E 08
  can0  003   [8]  0F FD 0F FE 04 FF 70 8A
  can0  34D   [2]  10 00
  can0  75E   [8]  00 81 00 2D 18 18 18 18
  can0  776   [8]  00 00 00 00 00 00 00 00
  can0  201   [8]  67 65 6D 66 FF FF 00 00
  can0  203   [8]  42 2E 42 2C C2 36 C2 35
  can0  39D   [8]  1E 02 01 0F FF 0E 00 1F
  can0  245   [8]  7F E3 80 7E 81 82 00 85
  can0  205   [8]  06 93 0C 00 00 00 00 00
  can0  105   [8]  04 06 7F 21 21 8E 34 56
  can0  073   [8]  05 00 93 62 00 80 10 B0
  can0  34E   [8]  00 00 A7 00 00 A7 11 31
  can0  003   [8]  0F FD 0F FD 04 FF 80 4F
  can0  005   [8]  00 00 00 00 0D 00 18 AA
  can0  75E   [8]  00 81 00 2D 18 18 18 18
  can0  073   [8]  05 00 93 62 00 80 20 FA
  can0  766   [8]  00 00 00 00 00 00 0E 08
  can0  3D3   [4]  C0 00 00 00
  can0  003   [8]  0F FD 0F FD 04 FF 90 82
  can0  400   [8]  FD 13 04 0F E0 81 00 05
  can0  201   [8]  70 6E 76 6F FF FF 10 1C
  can0  203   [8]  42 2E 42 2B C2 35 C2 36
  can0  245   [8]  7F E3 80 7E 80 82 10 85
  can0  75E   [8]  00 81 00 2D 18 18 18 18
  can0  105   [8]  04 04 7F 21 21 8E 44 83
  can0  073   [8]  05 00 93 62 00 80 30 37
  can0  003   [8]  0F FD 0F FD 04 FF A0 C8
  can0  19F   [8]  01 47 75 F0 47 22 61 F1
  can0  005   [8]  00 00 00 00 0D 00 28 E0
  can0  75E   [8]  00 81 00 2D 18 18 18 18
  can0  30D   [8]  7C 55 72 FF FF 03 D1 81
  can0  073   [8]  05 00 93 62 00 80 40 6E
  can0  766   [8]  00 00 00 00 00 00 0E 08
  can0  003   [8]  0F FD 0F FD 04 FF B0 05
  can0  045   [8]  00 FF 00 00 00 00 C0 36
  can0  201   [8]  79 77 7F 78 FF FF 20 4D
  can0  203   [8]  42 2B 42 2B C2 36 C2 35
  can0  245   [8]  7F E6 80 7E 81 82 20 85
  can0  75E   [8]  00 81 00 2D 18 18 18 18
  can0  105   [8]  04 03 7F 21 21 8E 54 81
  can0  001   [8]  CC 81 1F 9E 55 03 61 F3
  can0  073   [8]  05 00 93 62 00 80 50 A3
  can0  003   [8]  0F FD 0F FD 04 FF C0 5C
  can0  12D   [8]  01 0F 00 00 50 53 56 79
  can0  005   [8]  00 00 00 00 0D 00 38 2D
  can0  75E   [8]  00 81 00 2D 18 18 18 18
  can0  33D   [8]  00 42 00 00 64 00 00 00
  can0  004   [5]  01 00 00 7D 07
  can0  073   [8]  05 00 93 62 00 80 60 E9
  can0  375   [8]  13 10 34 3F 3F 07 00 00
  can0  003   [8]  0F FD 0F FC 04 FF D0 0C
  can0  766   [8]  00 00 00 00 00 00 0E 08
  can0  201   [8]  82 80 88 81 FF FF 30 48
  can0  203   [8]  42 2B 42 2B C2 36 C2 35
  can0  245   [8]  7F E5 80 7E 81 81 30 85
  can0  75E   [8]  00 81 00 2D 18 18 18 18
  can0  76E   [8]  00 00 00 00 00 00 00 00
  can0  105   [8]  04 02 7F 21 21 8E 64 8D
  can0  34F   [8]  10 93 00 93 00 5D 07 FF
  can0  073   [8]  05 00 93 62 00 80 70 24
  can0  003   [8]  0F FC 0F FC 04 FF E0 00
  can0  388   [8]  35 FF 1F CF FF 0F 07 FF
  can0  005   [8]  00 00 00 00 0D 00 48 74
  can0  04B   [6]  01 00 0C 06 FF 04
  can0  75E   [8]  00 81 00 2D 18 18 18 18
  can0  249   [8]  1F E8 00 23 E8 00 FF FF
  can0  073   [8]  05 00 93 62 00 80 80 5B
  can0  003   [8]  0F FC 0F FC 04 FF F0 CD
  can0  283   [8]  F5 0D 08 03 C0 6E 3F FF
  can0  766   [8]  00 00 00 00 00 00 0E 08
  can0  201   [8]  8B 89 91 8A FF FF 40 07
  can0  247   [8]  00 00 00 06 00 18 00 00
  can0  203   [8]  42 2E 42 2B C2 37 C2 35
  can0  245   [8]  7F E3 80 7E 80 81 40 85
  can0  75E   [8]  00 81 00 2D 18 18 18 18
  can0  105   [8]  04 03 7F 21 21 8E 74 06
  can0  073   [8]  05 00 93 62 00 80 90 96
  can0  003   [8]  0F FC 0F FC 04 FF 00 B2
  can0  005   [8]  00 00 00 00 0D 00 58 B9
  can0  007   [8]  F0 05 38 00 3F FC AF 79
  can0  75E   [8]  00 81 00 2D 18 18 18 18
  can0  073   [8]  05 00 93 62 00 80 A0 DC
  can0  003   [8]  0F FC 0F FD 04 FF 10 E2
  can0  766   [8]  00 00 00 00 00 00 0E 08
  can0  201   [8]  93 91 9A 93 FF FF 50 52
  can0  203   [8]  42 2E 42 2D C2 36 C2 34
  can0  245   [8]  7F E8 80 7E 80 80 50 85
  can0  3F6   [5]  02 00 00 00 00
  can0  39D   [8]  1E 02 01 0F FF 0E 00 27
  can0  205   [8]  06 93 0C 00 00 00 00 00
  can0  75E   [8]  00 81 00 2D 18 18 18 18
  can0  3D1   [4]  C6 0B 00 00
  can0  105   [8]  04 04 7F 21 21 8E 84 B6
  can0  073   [8]  05 00 93 62 00 80 B0 11
  can0  34E   [8]  00 00 A7 00 00 A7 11 31
  can0  003   [8]  0F FC 0F FD 04 FF 20 A8
  can0  005   [8]  00 00 00 00 0D 00 68 F3
  can0  75E   [8]  00 81 00 2D 18 18 18 18
  can0  073   [8]  05 00 93 62 00 80 C0 48
  can0  413   [8]  FD 00 04 0F 10 00 00 05
  can0  003   [8]  0F FC 0F FD 04 FF 30 65
  can0  766   [8]  00 00 00 00 00 00 0E 08
  can0  336   [8]  6C 42 00 00 00 00 00 00
  can0  201   [8]  9C 9A A3 9C FF FF 60 DE
  can0  203   [8]  42 2B 42 2B C2 37 C2 35
  can0  245   [8]  7F F1 80 7E 80 80 60 85
  can0  204   [8]  00 57 44 44 4B 4A 36 46
  can0  105   [8]  04 06 7F 21 21 8E 94 F7
  can0  75E   [8]  00 81 00 2D 18 18 18 18
  can0  2EF   [8]  F7 00 FF 0F FF FF FF 00
  can0  073   [8]  05 00 93 62 00 80 D0 85
  can0  003   [8]  0F FC 0F FD 04 FF 40 3C
  can0  35C   [8]  02 10 E0 00 00 FF FF 01
  can0  005   [8]  00 00 00 00 0D 00 78 3E
  can0  30D   [8]  7C 55 72 FF FF 03 D1 81
  can0  19F   [8]  01 45 75 F0 47 22 61 F1
  can0  073   [8]  05 00 93 62 00 80 E0 CF
  can0  75E   [8]  00 81 00 2D 18 18 18 18
  can0  003   [8]  0F FC 0F FD 04 FF 50 F1
  can0  045   [8]  00 FF 00 00 00 00 D0 FB
  can0  201   [8]  A5 A3 AC A6 FF FF 70 92
  can0  203   [8]  42 2B 42 2B C2 37 C2 36
  can0  245   [8]  7F F1 80 7E 80 80 70 85
  can0  766   [8]  00 00 00 00 00 00 0E 08
  can0  204   [8]  01 42 31 47 46 33 31 34
  can0  105   [8]  04 06 7F 21 21 8E A4 BD
  can0  002   [5]  01 00 C3 8C 07
  can0  001   [8]  CC 81 1F 9E 55 03 71 3E
  can0  073   [8]  05 00 93 62 00 80 F0 02
  can0  1C0   [2]  00 00
  can0  003   [8]  0F FC 0F FD 04 FF 60 BB
  can0  75E   [8]  00 81 00 2D 18 18 18 18
  can0  12D   [8]  01 0F 00 00 50 53 56 79
  can0  005   [8]  00 00 00 00 0D 00 88 41
  can0  33D   [8]  00 42 00 00 64 00 00 00
  can0  073   [8]  05 00 93 62 00 80 00 7D
  can0  375   [8]  13 10 34 3F 3F 07 00 00
  can0  003   [8]  0F FC 0F FD 04 FF 70 76
  can0  75E   [8]  00 81 00 2D 18 18 18 18
  can0  201   [8]  AE AC B6 AF FF FF 80 51
  can0  203   [8]  42 2D 42 2C C2 38 C2 37
  can0  245   [8]  7F EB 80 7E 80 81 80 85
  can0  204   [8]  02 33 33 35 FF FF FF FF
  can0  766   [8]  00 00 00 00 00 00 0E 08
  can0  328   [2]  07 60
  can0  105   [8]  04 07 7F 21 21 8E B4 36
  can0  37D   [8]  02 00 04 EE 10 00 FF FF
  can0  34F   [8]  10 93 00 93 00 5D 07 FF
  can0  073   [8]  05 00 93 62 00 80 10 B0
  can0  003   [8]  0F FC 0F FE 04 FF 80 B3
  can0  75E   [8]  00 81 00 2D 18 18 18 18
  can0  76E   [8]  00 00 00 00 00 00 00 00
  can0  30E   [8]  0C 00 00 00 00 05 FF 03
  can0  005   [8]  00 00 00 00 0D 00 98 8C
  can0  10E   [4]  00 C0 00 02
  can0  249   [8]  25 FC 00 28 5E 00 FF FF
  can0  388   [8]  35 FF 1F CF FF 0F 07 FF
  can0  073   [8]  05 00 93 62 00 80 20 FA
  can0  10D   [4]  00 A0 3E 00
  can0  003   [8]  0F FC 0F FE 04 FF 90 7E
  can0  04B   [6]  01 00 0C 06 FF 04
  can0  75E   [8]  00 81 00 2D 18 18 18 18
  can0  201   [8]  B7 B5 BF B8 FF FF 90 3E
  can0  247   [8]  00 00 00 06 00 18 00 00
  can0  317   [2]  0A 00
  can0  203   [8]  42 2B 42 2C C2 37 C2 37
  can0  245   [8]  7F E6 80 7E 80 82 90 85
  can0  105   [8]  04 08 7F 21 21 8E C4 AA
  can0  283   [8]  F5 0D 08 03 C0 6E 3F FF
  can0  766   [8]  00 00 00 00 00 00 0E 08
  can0  073   [8]  05 00 93 62 00 80 30 37
  can0  003   [8]  0F FC 0F FE 04 FF A0 34
  can0  068   [1]  01
  can0  005   [8]  00 00 00 00 0D 00 A8 C6
  can0  75E   [8]  00 81 00 2D 18 18 18 18
  can0  007   [8]  F0 05 38 00 3F FC AF 79
  can0  073   [8]  05 00 93 62 00 80 40 6E
  can0  10C   [8]  3B 7F FF 07 03 FF C3 67
  can0  003   [8]  0F FC 0F FD 04 FF B0 43
  can0  39D   [8]  1E 02 01 0F FF 0E 00 2F
  can0  201   [8]  C0 BE C8 C1 FF FF A0 73
  can0  203   [8]  42 2B 42 2C C2 37 C2 36
  can0  20E   [8]  3F 00 01 F0 FF FF 3F 68
  can0  245   [8]  7F E6 80 7E 80 83 A0 85
  can0  75E   [8]  00 81 00 2D 18 18 18 18
  can0  205   [8]  06 93 0C 00 00 00 00 00
  can0  105   [8]  04 09 7F 21 21 8D D4 F5
  can0  34E   [8]  00 00 A7 00 00 A7 11 31
  can0  073   [8]  05 00 93 62 00 80 50 A3
  can0  003   [8]  0F FC 0F FC 04 FF C0 87
  can0  351   [8]  00 00 00 00 00 00 00 00
  can0  766   [8]  00 00 00 00 00 00 0E 08
  can0  400   [8]  FD 13 04 0F E0 81 00 05
  can0  005   [8]  00 00 00 00 0D 00 B8 0B
  can0  75E   [8]  00 81 00 2D 18 18 18 18
  can0  776   [8]  00 00 00 00 00 00 00 00
  can0  3D3   [4]  C0 00 00 00
  can0  073   [8]  05 00 93 62 00 80 60 E9
  can0  003   [8]  0F FC 0F FA 04 FF D0 23
  can0  208   [8]  1F 40 11 80 00 06 40 A8
  can0  201   [8]  C9 C7 D1 CA FF FF B0 C4
  can0  203   [8]  42 2D 42 2C C2 36 C2 36
  can0  245   [8]  7F E9 80 7E 80 82 B0 85
  can0  207   [8]  10 09 3D 22 0F CB 4D AC
  can0  75E   [8]  00 81 00 2D 18 18 18 18
  can0  105   [8]  04 07 7F 21 21 8D E4 3C
  can0  073   [8]  05 00 93 62 00 80 70 24
  can0  003   [8]  0F FC 0F F9 04 FF E0 D3
  can0  206   [8]  00 00 0D 20 C1 80 D2 CC
  can0  766   [8]  00 00 00 00 00 00 0E 08
  can0  005   [8]  00 00 00 00 0D 00 C8 52
  can0  20A   [8]  FA FF 00 FC FF FF FF 7F
  can0  75E   [8]  00 81 00 2D 18 18 18 18
  can0  30D   [8]  7C 55 72 FF FF 03 D1 81
  can0  19F   [8]  01 46 75 F0 47 22 61 F1
  can0  073   [8]  05 00 93 62 00 80 80 5B
  can0  003   [8]  0F FC 0F F9 04 FF F0 1E
  can0  045   [8]  00 FF 00 00 00 00 E0 B1
  can0  201   [8]  D2 D0 DA D3 FF FF C0 27
  can0  203   [8]  42 2C 42 2C C2 36 C2 36
  can0  245   [8]  7F E9 80 7E 80 82 C0 85
  can0  2FF   [8]  02 28 00 52 FF 53 61 FE
  can0  75E   [8]  00 81 00 2D 18 18 18 18
  can0  105   [8]  04 07 7F 21 21 8D F4 F1
  can0  001   [8]  CC 81 1F 9E 55 03 81 41
  can0  073   [8]  05 00 93 62 00 80 90 96
  can0  003   [8]  0F FB 0F F8 04 FF 00 33
  can0  766   [8]  00 00 00 00 00 00 0E 08
  can0  12D   [8]  01 0F 00 00 50 53 56 79
  can0  005   [8]  00 00 00 00 0D 00 D8 9F
  can0  75E   [8]  00 81 00 2D 18 18 18 18
  can0  33D   [8]  00 42 00 00 64 00 00 00
  can0  073   [8]  05 00 93 62 00 80 A0 DC
  can0  375   [8]  13 10 34 3F 3F 07 00 00
  can0  003   [8]  0F FB 0F F7 04 FF 10 96
  can0  201   [8]  DB D9 E3 DC FF FF D0 73
  can0  203   [8]  42 2C 42 2D C2 36 C2 35
  can0  245   [8]  7F EB 80 7E 80 83 D0 85
  can0  75E   [8]  00 81 00 2D 18 18 18 18
  can0  105   [8]  04 06 7F 21 21 8D 04 C8
  can0  34F   [8]  10 93 00 93 00 5D 07 FF
  can0  073   [8]  05 00 93 62 00 80 B0 11
  can0  003   [8]  0F FB 0F F5 04 FF 20 FB
  can0  766   [8]  00 00 00 00 00 00 0E 08
  can0  005   [8]  00 00 00 00 0D 00 E8 D5
  can0  75E   [8]  00 81 00 2D 18 18 18 18
  can0  76E   [8]  00 00 00 00 00 00 00 00
  can0  249   [8]  2C 6F 00 30 7D 00 FF FF
  can0  073   [8]  05 00 93 62 00 80 C0 48
  can0  003   [8]  0F FB 0F F3 04 FF 30 5F
  can0  388   [8]  35 FF 1F CF FF 0F 07 FF
  can0  201   [8]  E4 E2 EC E5 FF FF E0 5D
  can0  247   [8]  00 00 00 06 00 18 00 00
  can0  203   [8]  42 2E 42 2B C2 35 C2 36
  can0  245   [8]  7F EB 80 7E 7F 82 E0 85
  can0  04B   [6]  01 00 0C 06 FF 04
  can0  75E   [8]  00 81 00 2D 18 18 18 18
  can0  105   [8]  04 05 7F 21 21 8D 14 CF
  can0  073   [8]  05 00 93 62 00 80 D0 85
  can0  003   [8]  0F FB 0F F3 04 FF 40 06
  can0  283   [8]  F5 0D 08 03 C0 6E 3F FF
  can0  766   [8]  00 00 00 00 00 00 0E 08
  can0  005   [8]  00 00 00 00 0D 00 F8 18
  can0  007   [8]  F0 05 38 00 3F FC AF 79
  can0  75E   [8]  00 81 00 2D 18 18 18 18
  can0  073   [8]  05 00 93 62 00 80 E0 CF
  can0  003   [8]  0F FB 0F F3 04 FF 50 CB
  can0  26F   [2]  6F C0
  can0  201   [8]  ED EA F5 EE FF FF F0 C0
  can0  203   [8]  42 2C 42 2B C2 37 C2 34
  can0  245   [8]  7F F6 80 7E 80 81 F0 85
  can0  39D   [8]  1E 02 01 0F FF 0E 00 37
  can0  3F6   [5]  02 00 00 00 00
  can0  205   [8]  06 93 0C 00 00 00 00 00
  can0  3D1   [4]  C6 0B 00 00
  can0  105   [8]  04 04 7F 21 21 8E 24 17
  can0  75E   [8]  00 81 00 2D 18 18 18 18
  can0  073   [8]  05 00 93 62 00 80 F0 02
  can0  413   [8]  FD 00 04 0F 10 00 00 05
  can0  34E   [8]  00 00 A7 00 00 A7 11 31
  can0  003   [8]  0F FB 0F F2 04 FF 60 1C
  can0  766   [8]  00 00 00 00 00 00 0E 08
  can0  005   [8]  00 00 00 00 0D 00 08 67
  can0  75E   [8]  00 81 00 2D 18 18 18 18
  can0  073   [8]  05 00 93 62 00 80 00 7D
  can0  003   [8]  0F FA 0F F2 04 FF 70 97
  can0  336   [8]  6C 42 00 00 00 00 00 00
  can0  201   [8]  F5 F3 FE F7 FF FF 00 61
  can0  203   [8]  42 2B 42 2E C2 37 C2 34
  can0  245   [8]  80 01 80 7E 7F 80 00 85
  can0  105   [8]  04 05 7F 21 21 8E 34 9C
  can0  75E   [8]  00 81 00 2D 18 18 18 18
  can0  2EF   [8]  F7 00 FF 0F FF FF FF 00
  can0  073   [8]  05 00 93 62 00 80 10 B0
  can0  003   [8]  0F FA 0F F2 04 FF 80 E8
  can0  35C   [8]  02 10 E0 00 00 FF FF 01
  can0  766   [8]  00 00 00 00 00 00 0E 08
  can0  005   [8]  00 00 00 00 0D 00 18 AA
  can0  30D   [8]  7C 55 72 FF FF 03 D1 81
  can0  19F   [8]  01 45 75 F0 47 22 61 F1
  can0  073   [8]  05 00 93 62 00 80 20 FA
  can0  75E   [8]  00 81 00 2D 18 18 18 18
  can0  003   [8]  0F FA 0F F2 04 FF 90 25
  can0  045   [8]  00 FF 00 00 00 00 F0 7C
  can0  3E3   [8]  5A FD 2F E5 29 CF 8C CB
  can0  1C1   [4]  00 00 00 00
  can0  201   [8]  FE FC 08 01 FF FF 10 09
  can0  203   [8]  42 2C 42 2F C2 37 C2 36
  can0  245   [8]  80 05 80 7E 7F 7F 10 85
  can0  105   [8]  04 06 7F 21 21 8E 44 0F
  can0  001   [8]  CC 81 1F 9E 55 03 91 8C
  can0  75E   [8]  00 81 00 2D 18 18 18 18
  can0  073   [8]  05 00 93 62 00 80 30 37
  can0  003   [8]  0F FA 0F F1 04 FF A0 D5
  can0  3E5   [8]  0E 0A 0A 14 04 FF FF 00
  can0  005   [8]  00 00 00 00 0D 00 28 E0
  can0  766   [8]  00 00 00 00 00 00 0E 08
  can0  12D   [8]  01 0F 00 00 50 53 56 79
  can0  39F   [8]  12 00 11 02 0B 19 0A FF
  can0  3E7   [8]  5A FD 34 F5 29 CF 88 7B
  can0  33D   [8]  00 42 00 00 64 00 00 00
  can0  3F2   [8]  00 27 00 0C 00 00 3F FD
  can0  073   [8]  05 00 93 62 00 80 40 6E
  can0  75E   [8]  00 81 00 2D 18 18 18 18
  can0  375   [8]  13 10 34 3F 3F 07 00 00
  can0  003   [8]  0F FA 0F F2 04 FF B0 A2
  can0  3E9   [8]  07 E9 0B 03 02 00 06 40
  can0  3EB   [8]  03 88 0D 53 0D 26 0D 83
  can0  201   [8]  08 06 11 0A FF FF 20 A6
  can0  203   [8]  42 2B 42 2B C2 37 C2 38
  can0  245   [8]  80 0A 80 7E 80 7F 20 85
  can0  328   [2]  07 60
  can0  37D   [8]  02 00 04 EE 10 00 FF FF
  can0  105   [8]  04 07 7F 21 21 8E 54 84
  can0  34F   [8]  10 93 00 93 00 5C 07 FF
  can0  073   [8]  05 00 93 62 00 80 50 A3
  can0  75E   [8]  00 81 00 2D 18 18 18 18
  can0  003   [8]  0F FA 0F F3 04 FF C0 66
  can0  005   [8]  00 00 00 00 0D 00 38 2D
  can0  766   [8]  00 00 00 00 00 00 0E 08
  can0  249   [8]  35 0F 00 38 39 00 FF FF
  can0  073   [8]  05 00 93 62 00 80 60 E9
  can0  75E   [8]  00 81 00 2D 18 18 18 18
  can0  76E   [8]  00 00 00 00 00 00 00 00
  can0  003   [8]  0F FA 0F F4 04 FF D0 5F
  can0  201   [8]  11 0F 1A 13 FF FF 30 FC
  can0  247   [8]  00 00 00 06 00 18 00 00
  can0  2C4   [8]  00 00 FC 3F 7F FF 3F FF
  can0  203   [8]  42 2C 42 2B C2 37 C2 37
  can0  245   [8]  80 0E 80 7E 81 81 30 85
  can0  388   [8]  35 FF 1F CF FF 0F 07 FF
  can0  105   [8]  04 06 7F 21 21 8E 64 88
  can0  04B   [6]  01 00 0C 06 FF 04
  can0  073   [8]  05 00 93 62 00 80 70 24
  can0  75E   [8]  00 81 00 2D 18 18 18 18
  can0  003   [8]  0F FA 0F F6 04 FF E0 32
  can0  283   [8]  F5 0D 08 03 C0 6E 3F FF
  can0  005   [8]  00 00 00 00 0D 00 48 74
  can0  766   [8]  00 00 00 00 00 00 0E 08
  can0  400   [8]  FD 13 04 0F E0 81 00 05
  can0  007   [8]  F0 05 38 00 3F FC AF 79
  can0  068   [1]  01
  can0  073   [8]  05 00 93 62 00 80 80 5B
  can0  75E   [8]  00 81 00 2D 18 18 18 18
  can0  003   [8]  0F FA 0F F7 04 FF F0 62
  can0  10C   [8]  3B 7F FF 07 03 FF C3 67
  can0  39D   [8]  1E 02 01 0F FF 0E 00 3F
  can0  201   [8]  1A 18 23 1C FF FF 40 11
  can0  203   [8]  42 2B 42 2E C2 37 C2 37
  can0  245   [8]  80 0A 80 7E 81 82 40 85
  can0  205   [8]  06 93 0C 00 00 00 00 00
  can0  105   [8]  04 06 7F 21 21 8E 74 45
  can0  20E   [8]  3F 00 01 F0 FF FF 3F 68
  can0  073   [8]  05 00 93 62 00 80 90 96
  can0  34E   [8]  00 00 A7 00 00 A7 11 31
  can0  75E   [8]  00 81 00 2D 18 18 18 18
  can0  003   [8]  0F FA 0F F8 04 FF 00 75
  can0  351   [8]  00 00 00 00 00 00 00 00
  can0  005   [8]  00 00 00 00 0D 00 58 B9
  can0  766   [8]  00 00 00 00 00 00 0E 08
  can0  3D3   [4]  C0 00 00 00
  can0  073   [8]  05 00 93 62 00 80 A0 DC
  can0  75E   [8]  00 81 00 2D 18 18 18 18
  can0  776   [8]  00 00 00 00 00 00 00 00
  can0  003   [8]  0F FA 0F FA 04 FF 10 9F
  can0  201   [8]  23 21 2C 25 FF FF 50 E7
  can0  203   [8]  42 2C 42 2D C2 37 C2 37
  can0  245   [8]  80 00 80 7E 80 81 50 85
  can0  105   [8]  04 07 7F 21 21 8E 84 7C
  can0  073   [8]  05 00 93 62 00 80 B0 11
  can0  75E   [8]  00 81 00 2D 18 18 18 18
  can0  003   [8]  0F FA 0F FB 04 FF 20 48
  can0  005   [8]  00 00 00 00 0D 00 68 F3
  can0  766   [8]  00 00 00 00 00 00 0E 08
  can0  30D   [8]  7C 55 72 FF FF 03 CC 81
  can0  073   [8]  05 00 93 62 00 80 C0 48
  can0  19F   [8]  01 46 75 F0 47 22 61 F1
  can0  75E   [8]  00 81 00 2D 18 18 18 18
  can0  003   [8]  0F FA 0F FC 04 FF 30 71
  can0  045   [8]  00 FF 00 00 00 00 00 03
  can0  201   [8]  2C 2A 36 2F FF FF 60 C7
  can0  203   [8]  42 2C 42 2C C2 36 C2 36
  can0  245   [8]  7F FE 80 7E 81 81 60 85
  can0  105   [8]  04 08 7F 21 21 8E 94 74
  can0  001   [8]  CC 81 1F 9E 55 03 A1 C6
  can0  073   [8]  05 00 93 62 00 80 D0 85
  can0  75E   [8]  00 81 00 2D 18 18 18 18
  can0  003   [8]  0F FA 0F FE 04 FF 40 0F
  can0  12D   [8]  01 0F 00 00 50 53 56 79
  can0  766   [8]  00 00 00 00 00 00 0E 08
  can0  005   [8]  00 00 00 00 0D 00 78 3E
  can0  33D   [8]  00 42 00 00 64 00 00 00
  can0  073   [8]  05 00 93 62 00 80 E0 CF
  can0  75E   [8]  00 81 00 2D 18 18 18 18
  can0  375   [8]  13 10 34 3F 3F 07 00 00
  can0  003   [8]  0F FA 0F FF 04 FF 50 5F
  can0  201   [8]  35 33 3F 38 FF FF 70 A8
  can0  203   [8]  42 2D 42 2D C2 37 C2 36
  can0  245   [8]  80 06 80 7E 80 83 70 85
  can0  105   [8]  04 08 7F 21 21 8E A4 3E
  can0  34F   [8]  10 93 00 93 00 5C 07 FF
  can0  75E   [8]  00 81 00 2D 18 18 18 18
  can0  073   [8]  05 00 93 62 00 80 F0 02
  can0  003   [8]  0F FA 10 00 04 FF 60 21
  can0  005   [8]  00 00 00 00 0D 00 88 41
  can0  766   [8]  00 00 00 00 00 00 0E 08
  can0  249   [8]  3C A1 00 FF FF 00 03 FF
  can0  073   [8]  05 00 93 62 00 80 00 7D
  can0  75E   [8]  00 81 00 2D 18 18 18 18
  can0  76E   [8]  00 00 00 00 00 00 00 00
  can0  003   [8]  0F FA 10 00 04 FF 70 EC
  can0  388   [8]  35 FF 1F CF FF 0F 07 FF
  can0  201   [8]  3E 3C 48 41 FF FF 80 66
  can0  203   [8]  42 2D 42 2C C2 37 C2 37
  can0  247   [8]  00 00 00 06 00 18 00 00
  can0  245   [8]  80 05 80 7E 81 83 80 85
  can0  105   [8]  04 07 7F 21 21 8E B4 36
  can0  04B   [6]  01 00 0C 06 FF 04
  can0  75E   [8]  00 81 00 2D 18 18 18 18
  can0  073   [8]  05 00 93 62 00 80 10 B0
  can0  413   [8]  FD 00 04 0F 10 00 00 05
  can0  003   [8]  0F FA 10 00 04 FF 80 93
  can0  005   [8]  00 00 00 00 0D 00 98 8C
  can0  283   [8]  F5 0D 08 03 C0 6E 3F FF
  can0  766   [8]  00 00 00 00 00 00 0E 08
  can0  007   [8]  F0 05 38 00 3F FC AF 79
  can0  073   [8]  05 00 93 62 00 80 20 FA
  can0  75E   [8]  00 81 00 2D 18 18 18 18
  can0  003   [8]  0F FA 10 00 04 FF 90 5E
  can0  34D   [2]  10 00
  can0  201   [8]  47 45 51 4A FF FF 90 D9
  can0  203   [8]  42 2E 42 2D C2 37 C2 36
  can0  245   [8]  7F FE 80 7E 81 82 90 85
  can0  39D   [8]  1E 02 01 0F FF 0E 00 47
  can0  205   [8]  06 93 0C 00 00 00 00 00
  can0  3F6   [5]  02 00 00 00 00
  can0  105   [8]  04 06 7F 21 21 8E C4 29
  can0  3D1   [4]  C6 0B 00 00
  can0  073   [8]  05 00 93 62 00 80 30 37
  can0  75E   [8]  00 81 00 2D 18 18 18 18
  can0  34E   [8]  00 00 A7 00 00 A7 11 31
  can0  003   [8]  0F FA 10 00 04 FF A0 14
  can0  766   [8]  00 00 00 00 00 00 0E 08
  can0  005   [8]  00 00 00 00 0D 00 A8 C6
  can0  073   [8]  05 00 93 62 00 80 40 6E
  can0  75E   [8]  00 81 00 2D 18 18 18 18
  can0  003   [8]  0F FA 10 00 04 FF B0 D9
  can0  336   [8]  6C 42 00 00 00 00 00 00
  can0  201   [8]  50 4E 5A 53 FF FF A0 89
  can0  203   [8]  42 2F 42 2F C2 37 C2 35
  can0  245   [8]  80 01 80 7E 80 82 A0 85
  can0  105   [8]  04 05 7F 21 21 8E D4 2E
  can0  2EF   [8]  F7 00 FF 0F FF FF FF 00
  can0  073   [8]  05 00 93 62 00 80 50 A3
  can0  75E   [8]  00 81 00 2D 18 18 18 18
  can0  003   [8]  0F FA 10 00 04 FF C0 80
  can0  35C   [8]  02 10 E0 00 00 FF FF 01
  can0  005   [8]  00 00 00 00 0D 00 B8 0B
  can0  766   [8]  00 00 00 00 00 00 0E 08
  can0  30D   [8]  7C 55 72 FF FF 03 CC 81
  can0  19F   [8]  01 47 75 F0 47 22 61 F1
  can0  073   [8]  05 00 93 62 00 80 60 E9
  can0  75E   [8]  00 81 00 2D 18 18 18 18
  can0  003   [8]  0F FA 10 00 04 FF D0 4D
  can0  045   [8]  00 FF 00 00 00 00 10 CE
  can0  201   [8]  59 56 63 5C FF FF B0 8F
  can0  203   [8]  42 2E 42 2F C2 37 C2 36
  can0  245   [8]  80 05 80 7E 80 81 B0 85
  can0  105   [8]  04 06 7F 21 21 8E E4 AE
  can0  001   [8]  CC 81 1F 9E 55 03 B1 0B
  can0  073   [8]  05 00 93 62 00 80 70 24
  can0  75E   [8]  00 81 00 2D 18 18 18 18
  can0  003   [8]  0F FA 10 00 04 FF E0 07
  can0  12D   [8]  01 0F 00 00 50 53 56 79
  can0  005   [8]  00 00 00 00 0D 00 C8 52
  can0  766   [8]  00 00 00 00 00 00 0E 08
  can0  33D   [8]  00 42 00 00 64 00 00 00
  can0  004   [5]  01 00 00 7D 07
  can0  073   [8]  05 00 93 62 00 80 80 5B
  can0  375   [8]  13 10 34 3F 3F 07 00 00
  can0  003   [8]  0F FA 10 00 04 FF F0 CA
  can0  75E   [8]  00 81 00 2D 18 18 18 18
  can0  201   [8]  61 5F 6C 65 FF FF C0 8C
  can0  203   [8]  42 2D 42 2B C2 37 C2 38
  can0  245   [8]  80 09 80 7E 80 81 C0 85
  can0  328   [2]  07 60
  can0  37D   [8]  02 00 04 EE 10 00 FF FF
  can0  105   [8]  04 08 7F 21 21 8E F4 E0
  can0  34F   [8]  10 93 00 93 00 5C 07 FF
  can0  073   [8]  05 00 93 62 00 80 90 96
  can0  003   [8]  0F FA 10 00 04 FF 00 B5
  can0  75E   [8]  00 81 00 2D 18 18 18 18
  can0  005   [8]  00 00 00 00 0D 00 D8 9F
  can0  766   [8]  00 00 00 00 00 00 0E 08
  can0  249   [8]  06 B4 00 08 B6 00 FF FF
  can0  400   [8]  FD 13 04 0F E0 81 00 05
  can0  073   [8]  05 00 93 62 00 80 A0 DC
  can0  003   [8]  0F FA 10 00 04 FF 10 78
  can0  75E   [8]  00 81 00 2D 18 18 18 18
  can0  76E   [8]  00 00 00 00 00 00 00 00
  can0  201   [8]  6A 68 75 6E FF FF D0 52
  can0  247   [8]  00 00 00 06 00 18 00 00
  can0  203   [8]  42 2C 42 2E C2 38 C2 39
  can0  245   [8]  80 0D 80 7E 80 82 D0 85
  can0  388   [8]  35 FF 1F CF FF 0F 07 FF
  can0  105   [8]  04 09 7F 21 21 8E 04 D9
  can0  073   [8]  05 00 93 62 00 80 B0 11
  can0  003   [8]  0F FA 10 00 04 FF 20 32
  can0  04B   [6]  01 00 0C 06 FF 04
  can0  75E   [8]  00 81 00 2D 18 18 18 18
  can0  005   [8]  00 00 00 00 0D 00 E8 D5
  can0  283   [8]  F5 0D 08 03 C0 6E 3F FF
  can0  007   [8]  F0 05 38 00 3F FC AF 79
  can0  766   [8]  00 00 00 00 00 00 0E 08
  can0  073   [8]  05 00 93 62 00 80 C0 48
  can0  003   [8]  0F FA 10 00 04 FF 30 FF
  can0  068   [1]  01
  can0  75E   [8]  00 81 00 2D 18 18 18 18
  can0  201   [8]  73 71 7E 77 FF FF E0 9B
  can0  203   [8]  42 2E 42 30 C2 39 C2 38
  can0  245   [8]  80 09 80 7E 81 82 E0 85
  can0  39D   [8]  1E 02 01 0F FF 0E 00 4F
  can0  205   [8]  06 93 0C 00 00 00 00 00
  can0  10C   [8]  3B 7F FF 07 03 FF C3 67
  can0  105   [8]  04 09 7F 21 21 8E 14 14
  can0  34E   [8]  00 00 A7 00 00 A7 11 31
  can0  073   [8]  05 00 93 62 00 80 D0 85
  can0  003   [8]  0F FA 10 00 04 FF 40 A6
  can0  20E   [8]  3F 00 01 F0 FF FF 3F 68
  can0  75E   [8]  00 81 00 2D 18 18 18 18
  can0  005   [8]  00 00 00 00 0D 00 F8 18
  can0  351   [8]  00 00 00 00 00 00 00 00
  can0  766   [8]  00 00 00 00 00 00 0E 08
  can0  073   [8]  05 00 93 62 00 80 E0 CF
  can0  3D3   [4]  C0 00 00 00
  can0  003   [8]  0F FA 10 00 04 FF 50 6B
  can0  75E   [8]  00 81 00 2D 18 18 18 18
  can0  776   [8]  00 00 00 00 00 00 00 00
  can0  201   [8]  7C 7A 87 80 FF FF F0 7E
  can0  203   [8]  42 2F 42 2E C2 38 C2 38
  can0  245   [8]  80 03 80 7E 80 81 F0 85
  can0  105   [8]  04 0A 7F 21 21 8E 24 94
  can0  073   [8]  05 00 93 62 00 80 F0 02
  can0  003   [8]  0F FA 10 00 04 FF 60 21
  can0  75E   [8]  00 81 00 2D 18 18 18 18
  can0  005   [8]  00 00 00 00 0D 00 08 67
  can0  766   [8]  00 00 00 00 00 00 0E 08
  can0  30D   [8]  7C 55 72 FF FF 03 CC 81
  can0  19F   [8]  01 47 75 F0 47 22 61 F1
  can0  073   [8]  05 00 93 62 00 80 00 7D
  can0  003   [8]  0F FA 10 00 04 FF 70 EC
  can0  045   [8]  00 FF 00 00 00 00 20 84
  can0  75E   [8]  00 81 00 2D 18 18 18 18
  can0  201   [8]  85 83 90 89 FF FF 00 43
  can0  203   [8]  42 2E 42 2C C2 37 C2 39
  can0  245   [8]  7F FF 80 7E 80 80 00 85
  can0  105   [8]  04 08 7F 21 21 8E 34 D5
  can0  001   [8]  CC 81 1F 9E 55 03 C1 52
  can0  002   [5]  01 00 C3 8C 07
  can0  073   [8]  05 00 93 62 00 80 10 B0
  can0  003   [8]  0F FA 10 00 04 FF 80 93
  can0  75E   [8]  00 81 00 2D 18 18 18 18
  can0  12D   [8]  01 0F 00 00 50 53 56 79
  can0  005   [8]  00 00 00 00 0D 00 18 AA
  can0  766   [8]  00 00 00 00 00 00 0E 08
  can0  33D   [8]  00 42 00 00 64 00 00 00
  can0  073   [8]  05 00 93 62 00 80 20 FA
  can0  375   [8]  13 10 34 3F 3F 07 00 00
  can0  003   [8]  0F FA 10 00 04 FF 90 5E
  can0  75E   [8]  00 81 00 2D 18 18 18 18
  can0  201   [8]  8E 8C 99 92 FF FF 10 60
  can0  203   [8]  42 2D 42 30 C2 37 C2 38
  can0  245   [8]  7F FA 80 7E 80 80 10 85
  can0  105   [8]  04 09 7F 21 21 8E 44 CA
  can0  34F   [8]  10 93 00 93 00 5C 07 FF
  can0  073   [8]  05 00 93 62 00 80 30 37
  can0  413   [8]  FD 00 04 0F 10 00 00 05
  can0  003   [8]  0F FA 10 00 04 FF A0 14
  can0  75E   [8]  00 81 00 2D 18 18 18 18
  can0  005   [8]  00 00 00 00 0D 00 28 E0
  can0  10E   [4]  00 C0 00 02
  can0  249   [8]  0F E8 00 13 E8 00 FF FF
  can0  766   [8]  00 00 00 00 00 00 0E 08
  can0  073   [8]  05 00 93 62 00 80 40 6E
  can0  10D   [4]  00 A0 3E 00
  can0  003   [8]  0F FA 10 00 04 FF B0 D9
  can0  75E   [8]  00 81 00 2D 18 18 18 18
  can0  76E   [8]  00 00 00 00 00 00 00 00
  can0  201   [8]  97 95 A3 9B FF FF 20 C9
  can0  247   [8]  00 00 00 06 00 18 00 00
  can0  203   [8]  42 2E 42 2E C2 38 C2 37
  can0  245   [8]  7F FF 80 7E 80 80 20 85
  can0  105   [8]  04 07 7F 21 21 8E 54 84
  can0  388   [8]  35 FF 1F CF FF 0F 07 FF
  can0  073   [8]  05 00 93 62 00 80 50 A3
  can0  003   [8]  0F FA 10 00 04 FF C0 80
  can0  04B   [6]  01 00 0C 06 FF 04
  can0  75E   [8]  00 81 00 2D 18 18 18 18
  can0  005   [8]  00 00 00 00 0D 00 38 2D
  can0  007   [8]  F0 05 38 00 3F FC AF 79
  can0  283   [8]  F5 0D 08 03 C0 6E 3F FF
  can0  766   [8]  00 00 00 00 00 00 0E 08
  can0  073   [8]  05 00 93 62 00 80 60 E9
  can0  003   [8]  0F FA 10 01 04 FF D0 D0
  can0  75E   [8]  00 81 00 2D 18 18 18 18
  can0  201   [8]  A0 9E AC A5 FF FF 30 7A
  can0  203   [8]  42 2E 42 2C C2 39 C2 39
  can0  245   [8]  80 03 80 7E 80 81 30 85
  can0  39D   [8]  1E 02 01 0F FF 0E 00 57
  can0  3F6   [5]  02 00 00 00 00
  can0  205   [8]  06 93 0C 00 00 00 00 00
  can0  3D1   [4]  C6 0B 00 00
  can0  105   [8]  04 08 7F 21 21 8E 64 0B
  can0  073   [8]  05 00 93 62 00 80 70 24
  can0  34E   [8]  00 00 A7 00 00 A7 11 31
  can0  003   [8]  0F FA 10 01 04 FF E0 9A
  can0  75E   [8]  00 81 00 2D 18 18 18 18
  can0  005   [8]  00 00 00 00 0D 00 48 74
  can0  073   [8]  05 00 93 62 00 80 80 5B
  can0  766   [8]  00 00 00 00 00 00 0E 08
  can0  003   [8]  0F FA 10 01 04 FF F0 57
  can0  336   [8]  6C 42 00 00 00 00 00 00
  can0  75E   [8]  00 81 00 2D 18 18 18 18
  can0  201   [8]  A9 A7 B5 AE FF FF 40 09
  can0  203   [8]  42 2E 42 2B C2 39 C2 37
  can0  245   [8]  80 07 80 7E 81 82 40 85
  can0  105   [8]  04 08 7F 21 21 8E 74 C6
  can0  2EF   [8]  F7 00 FF 0F FF FF FF 00
  can0  073   [8]  05 00 93 62 00 80 90 96
  can0  003   [8]  0F FA 10 02 04 FF 00 92
  can0  35C   [8]  02 10 E0 00 00 FF FF 01
  can0  005   [8]  00 00 00 00 0D 00 58 B9
  can0  75E   [8]  00 81 00 2D 18 18 18 18
  can0  30D   [8]  7C 55 72 FF FF 03 CC 81
  can0  19F   [8]  01 47 75 F0 47 22 61 F1
  can0  073   [8]  05 00 93 62 00 80 A0 DC
  can0  766   [8]  00 00 00 00 00 00 0E 08
  can0  003   [8]  0F FA 10 02 04 FF 10 5F
  can0  045   [8]  00 FF 00 00 00 00 30 49
  can0  201   [8]  B2 B0 BE B7 FF FF 50 7E
  can0  203   [8]  42 2F 42 2D C2 38 C2 37
  can0  245   [8]  80 0D 80 7E 81 84 50 85
  can0  75E   [8]  00 81 00 2D 18 18 18 18
  can0  105   [8]  04 09 7F 21 21 8E 84 FF
  can0  001   [8]  CC 81 1F 9E 55 03 D1 9F
  can0  073   [8]  05 00 93 62 00 80 B0 11
  can0  003   [8]  0F FA 10 03 04 FF 20 88
  can0  12D   [8]  01 0F 00 00 50 53 56 79
  can0  005   [8]  00 00 00 00 0D 00 68 F3
  can0  75E   [8]  00 81 00 2D 18 18 18 18
  can0  33D   [8]  00 42 00 00 64 00 00 00
  can0  073   [8]  05 00 93 62 00 80 C0 48
  can0  375   [8]  13 10 34 3F 3F 07 00 00
  can0  003   [8]  0F FA 10 04 04 FF 30 B1
  can0  766   [8]  00 00 00 00 00 00 0E 08
  can0  400   [8]  FD 13 04 0F E0 81 00 05
  can0  201   [8]  BB B9 C7 C0 FF FF 60 55
  can0  203   [8]  42 2E 42 31 C2 38 C2 38
  can0  245   [8]  80 0B 80 7E 80 83 60 85
  can0  328   [2]  07 60
  can0  75E   [8]  00 81 00 2D 18 18 18 18
  can0  105   [8]  04 09 7F 21 21 8E 94 32
  can0  37D   [8]  02 00 04 ED 10 00 FF FF
  can0  34F   [8]  10 93 00 93 00 5C 07 FF
  can0  073   [8]  05 00 93 62 00 80 D0 85
  can0  003   [8]  0F FA 10 04 04 FF 40 E8
  can0  005   [8]  00 00 00 00 0D 00 78 3E
  can0  75E   [8]  00 81 00 2D 18 18 18 18
  can0  249   [8]  17 E8 00 1B E8 00 FF FF
  can0  073   [8]  05 00 93 62 00 80 E0 CF
  can0  003   [8]  0F FA 10 04 04 FF 50 25
  can0  766   [8]  00 00 00 00 00 00 0E 08
  can0  201   [8]  C4 C2 D0 C9 FF FF 70 84
  can0  247   [8]  00 00 00 06 00 18 00 00
  can0  203   [8]  42 2E 42 2E C2 39 C2 38
  can0  245   [8]  80 07 80 7E 80 82 70 85
  can0  75E   [8]  00 81 00 2D 18 18 18 18
  can0  76E   [8]  00 00 00 00 00 00 00 00
  can0  105   [8]  04 09 7F 21 21 8E A4 78
  can0  073   [8]  05 00 93 62 00 80 F0 02
  can0  003   [8]  0F FA 10 04 04 FF 60 6F
  can0  388   [8]  35 FF 1F CF FF 0F 07 FF
  can0  005   [8]  00 00 00 00 0D 00 88 41
  can0  007   [8]  F0 05 38 00 3F FC AF 79
  can0  04B   [6]  01 00 0C 06 FF 04
  can0  75E   [8]  00 81 00 2D 18 18 18 18
  can0  073   [8]  05 00 93 62 00 80 00 7D
  can0  003   [8]  0F FA 10 03 04 FF 70 56
  can0  283   [8]  F5 0D 08 03 C0 6E 3F FF
  can0  766   [8]  00 00 00 00 00 00 0E 08
  can0  201   [8]  CD CB D9 D2 FF FF 80 26
  can0  203   [8]  42 2D 42 2D C2 39 C2 39
  can0  245   [8]  80 0A 80 7E 81 81 80 85
  can0  39D   [8]  1E 02 01 0F FF 0E 00 5F
  can0  205   [8]  06 93 0C 00 00 00 00 00
  can0  105   [8]  04 0A 7F 21 21 8E B4 7F
  can0  068   [1]  01
  can0  75E   [8]  00 81 00 2D 18 18 18 18
  can0  34E   [8]  00 00 A7 00 00 A7 11 31
  can0  073   [8]  05 00 93 62 00 80 10 B0
  can0  003   [8]  0F FA 10 03 04 FF 80 29
  can0  10C   [8]  3B 7F FF 07 03 FF C3 67
  can0  005   [8]  00 00 00 00 0D 00 98 8C
  can0  3D3   [4]  C0 00 00 00
  can0  073   [8]  05 00 93 62 00 80 20 FA
  can0  20E   [8]  3F 00 01 F0 FF FF 3F 68
  can0  75E   [8]  00 81 00 2D 18 18 18 18
  can0  003   [8]  0F FA 10 03 04 FF 90 E4
  can0  201   [8]  D6 D4 E2 DB FF FF 90 51
  can0  203   [8]  42 2D 42 2F C2 38 C2 39
  can0  245   [8]  80 0D 80 7E 80 80 90 85
  can0  351   [8]  00 00 00 00 00 00 00 00
  can0  766   [8]  00 00 00 00 00 00 0E 08
  can0  105   [8]  04 0B 7F 21 21 8E C4 60
  can0  073   [8]  05 00 93 62 00 80 30 37
  can0  75E   [8]  00 81 00 2D 18 18 18 18
  can0  776   [8]  00 00 00 00 00 00 00 00
  can0  003   [8]  0F FA 10 02 04 FF A0 33
  can0  005   [8]  00 00 00 00 0D 00 A8 C6
  can0  30D   [8]  7C 55 72 FF FF 03 CC 81
  can0  19F   [8]  01 46 75 F0 47 22 61 F1
  can0  75E   [8]  00 81 00 2D 18 18 18 18
  can0  073   [8]  05 00 93 62 00 80 40 6E
  can0  003   [8]  0F FA 10 02 04 FF B0 FE
  can0  045   [8]  00 FF 00 00 00 00 40 10
  can0  1C1   [4]  00 00 00 00
  can0  766   [8]  00 00 00 00 00 00 0E 08
  can0  201   [8]  DF DC EB E4 FF FF A0 84
  can0  203   [8]  42 2D 42 2E C2 38 C2 39
  can0  245   [8]  80 07 80 7E 7F 80 A0 85
  can0  105   [8]  04 0B 7F 21 21 8E D4 AD
  can0  001   [8]  CC 81 1F 9E 55 03 E1 D5
  can0  073   [8]  05 00 93 62 00 80 50 A3
  can0  75E   [8]  00 81 00 2D 18 18 18 18
  can0  003   [8]  0F FA 10 01 04 FF C0 1D
  can0  12D   [8]  01 0F 00 00 50 53 56 79
  can0  005   [8]  00 00 00 00 0D 00 B8 0B
  can0  33D   [8]  00 42 00 00 64 00 00 00
  can0  073   [8]  05 00 93 62 00 80 60 E9
  can0  75E   [8]  00 81 00 2D 18 18 18 18
  can0  413   [8]  FD 00 04 0F 10 00 00 05
  can0  375   [8]  13 10 34 3F 3F 07 00 00
  can0  003   [8]  0F FA 10 00 04 FF D0 4D
  can0  201   [8]  E7 E5 F4 ED FF FF B0 AE
  can0  766   [8]  00 00 00 00 00 00 0E 08
  can0  203   [8]  42 2F 42 2E C2 38 C2 38
  can0  245   [8]  80 0A 80 7E 7F 81 B0 85
  can0  105   [8]  04 0B 7F 21 21 8E E4 E7
  can0  34F   [8]  10 93 00 93 00 5C 07 FF
  can0  75E   [8]  00 81 00 2D 18 18 18 18
  can0  073   [8]  05 00 93 62 00 80 70 24
  can0  003   [8]  0F FA 10 00 04 FF E0 07
  can0  005   [8]  00 00 00 00 0D 00 C8 52
  can0  249   [8]  1F E8 00 23 E8 00 FF FF
  can0  073   [8]  05 00 93 62 00 80 80 5B
  can0  75E   [8]  00 81 00 2D 18 18 18 18
  can0  003   [8]  0F FA 10 00 04 FF F0 CA
  can0  766   [8]  00 00 00 00 00 00 0E 08
  can0  201   [8]  F0 EE FE F6 FF FF C0 A0
  can0  247   [8]  00 00 00 06 00 18 00 00
  can0  203   [8]  42 2F 42 2E C2 38 C2 38
  can0  245   [8]  80 0F 80 7E 80 81 C0 85
  can0  105   [8]  04 0B 7F 21 21 8E F4 2A
  can0  073   [8]  05 00 93 62 00 80 90 96
  can0  75E   [8]  00 81 00 2D 18 18 18 18
  can0  76E   [8]  00 00 00 00 00 00 00 00
  can0  003   [8]  0F FA 10 00 04 FF 00 B5
  can0  005   [8]  00 00 00 00 0D 00 D8 9F
  can0  388   [8]  35 FF 1F CF FF 0F 07 FF
  can0  007   [8]  F0 05 38 00 3F FC AF 79
  can0  04B   [6]  01 00 0C 06 FF 04
  can0  073   [8]  05 00 93 62 00 80 A0 DC
  can0  75E   [8]  00 81 00 2D 18 18 18 18
  can0  003   [8]  0F FA 10 00 04 FF 10 78
  can0  201   [8]  F9 F7 08 01 FF FF D0 72
  can0  203   [8]  42 2E 42 2C C2 38 C2 39
  can0  245   [8]  80 11 80 7E 80 81 D0 85
  can0  283   [8]  F5 0D 08 03 C0 6E 3F FF
  can0  766   [8]  00 00 00 00 00 00 0E 08
  can0  39D   [8]  1E 02 01 0F FF 0E 00 67
  can0  3F6   [5]  02 00 00 00 00
  can0  205   [8]  06 93 0C 00 00 00 00 00
  can0  3D1   [4]  C6 0B 00 00
  can0  105   [8]  04 0A 7F 21 21 8E 04 13
  can0  34E   [8]  00 00 A7 00 00 A7 11 31
  can0  073   [8]  05 00 93 62 00 80 B0 11
  can0  75E   [8]  00 81 00 2D 18 18 18 18
  can0  003   [8]  0F FA 10 00 04 FF 20 32
  can0  005   [8]  00 00 00 00 0D 00 E8 D5
