  can0  75E   [8]  00 81 00 2D 18 18 18 18
  can0  205   [8]  06 93 0C 00 00 00 00 00
  can0  375   [8]  13 10 35 3F 3F 07 00 00
  can0  073   [8]  06 24 79 6B 00 80 60 FC
  can0  766   [8]  00 00 00 00 00 00 0D 08
  can0  003   [8]  0F EE 10 00 04 FF D0 5C
  can0  105   [8]  02 6B 7F 00 00 96 E3 99
  can0  201   [8]  07 09 08 09 FF FF B0 9D
  can0  75E   [8]  00 81 00 2D 18 18 18 18
  can0  203   [8]  00 00 00 00 C0 00 C0 00
  can0  245   [8]  80 07 81 7E 81 7C B0 84
  can0  34F   [8]  10 8E 00 8E 03 E7 07 FF
  can0  073   [8]  06 24 79 6B 00 80 70 31
  can0  003   [8]  0F EE 10 00 04 FF E0 16
  can0  1C1   [4]  00 00 00 00
  can0  249   [8]  3F E8 00 FF FF 00 03 FF
  can0  005   [8]  00 00 00 00 1D 00 C8 4A
  can0  75E   [8]  00 81 00 2D 18 18 18 18
  can0  073   [8]  06 24 79 6B 00 80 80 4E
  can0  766   [8]  00 00 00 00 00 00 0D 08
  can0  003   [8]  0F EE 10 00 04 FF F0 DB
  can0  400   [8]  FD 13 04 0F E0 81 00 05
  can0  105   [8]  02 6A 7F 00 00 96 F3 12
  can0  201   [8]  07 09 08 09 FF FF C0 C4
  can0  247   [8]  00 00 00 06 00 18 00 00
  can0  203   [8]  00 00 00 00 C0 00 C0 00
  can0  245   [8]  80 07 81 7E 81 7C C0 84
  can0  75E   [8]  00 81 00 2D 18 18 18 18
  can0  073   [8]  06 24 79 6B 00 80 90 83
  can0  003   [8]  0F EE 10 00 04 FF 00 A4
  can0  005   [8]  00 00 00 00 1D 00 D8 87
  can0  75E   [8]  00 81 00 2D 18 18 18 18
  can0  073   [8]  06 24 79 6B 00 80 A0 C9
  can0  766   [8]  00 00 00 00 00 00 0D 08
  can0  003   [8]  0F EE 10 00 04 FF 10 69
  can0  105   [8]  02 6A 7F 00 00 95 03 B9
  can0  201   [8]  07 09 08 09 FF FF D0 09
  can0  203   [8]  00 00 00 00 C0 00 C0 00
  can0  75E   [8]  00 81 00 2D 18 18 18 18
  can0  245   [8]  80 01 81 7E 80 7D D0 84
  can0  073   [8]  06 24 79 6B 00 80 B0 04
  can0  003   [8]  0F EE 10 00 04 FF 20 23
  can0  005   [8]  00 00 00 00 1D 00 E8 CD
  can0  75E   [8]  00 81 00 2D 18 18 18 18
  can0  073   [8]  06 24 79 6B 00 80 C0 5D
  can0  766   [8]  00 00 00 00 00 00 0D 08
  can0  003   [8]  0F EE 10 00 04 FF 30 EE
  can0  204   [8]  00 57 44 44 4B 4A 36 46
  can0  105   [8]  02 6A 7F 00 00 95 13 74
  can0  201   [8]  07 09 08 09 FF FF E0 43
  can0  203   [8]  00 00 00 00 C0 00 C0 00
  can0  001   [8]  CC 81 1F AE AA 03 90 F0
  can0  245   [8]  80 05 81 7E 80 7D E0 84
  can0  75E   [8]  00 81 00 2D 18 18 18 18
  can0  76E   [8]  00 00 00 00 00 00 00 00
  can0  073   [8]  06 24 79 6B 00 80 D0 90
  can0  12D   [8]  01 0F 00 00 50 53 56 79
  can0  388   [8]  36 FF 1F CF FF 0F 07 FF
  can0  003   [8]  0F EE 10 00 04 FF 40 B7
  can0  30D   [8]  7D 5B 7C FF FF 01 F4 81
  can0  005   [8]  00 00 00 00 1D 00 F8 00
  can0  04B   [6]  01 00 0C 06 FF 04
  can0  75E   [8]  00 81 00 2D 18 18 18 18
  can0  3D1   [4]  C9 0A 00 00
  can0  39D   [8]  20 02 01 31 FF 0E 00 67
  can0  073   [8]  06 24 79 6B 00 80 E0 DA
  can0  283   [8]  F6 0D 08 03 C0 6C 3F FF
  can0  766   [8]  00 00 00 00 00 00 0D 08
  can0  003   [8]  0F EE 10 00 04 FF 50 7A
  can0  045   [8]  00 FF 00 00 00 00 D0 FB
  can0  34E   [8]  00 00 A3 00 00 A3 11 40
  can0  204   [8]  01 42 31 47 46 33 31 34
  can0  105   [8]  02 6A 7F 00 00 95 23 3E
  can0  201   [8]  07 09 08 09 FF FF F0 8E
  can0  203   [8]  00 00 00 00 C0 00 C0 00
  can0  245   [8]  80 07 81 7E 80 7D F0 84
  can0  068   [1]  01
  can0  007   [8]  F0 05 38 00 3F FC AF 79
  can0  75E   [8]  00 81 00 2D 18 18 18 18
  can0  073   [8]  06 24 79 6B 00 80 F0 17
  can0  003   [8]  0F EE 10 00 04 FF 60 30
  can0  10C   [8]  3B 7F FF 07 03 FF C3 67
  can0  33D   [8]  00 42 00 00 64 00 00 00
  can0  005   [8]  00 00 00 00 1D 00 08 7F
  can0  205   [8]  06 93 0C 00 00 00 00 00
  can0  20E   [8]  3F 00 01 F0 FF FF 3F 68
  can0  75E   [8]  00 81 00 2D 18 18 18 18
  can0  336   [8]  62 42 00 00 00 00 00 00
  can0  3F6   [5]  02 00 00 00 00
  can0  073   [8]  06 24 79 6B 00 80 00 68
  can0  375   [8]  13 10 35 3F 3F 07 00 00
  can0  003   [8]  0F EE 10 00 04 FF 70 FD
  can0  351   [8]  00 00 00 00 00 00 00 00
  can0  766   [8]  00 00 00 00 00 00 0D 08
  can0  204   [8]  02 33 33 35 FF FF FF FF
  can0  105   [8]  02 6A 7F 00 00 95 33 F3
  can0  201   [8]  07 09 08 09 FF FF 00 F1
  can0  203   [8]  00 00 00 00 C0 00 C0 00
  can0  245   [8]  80 02 81 7E 80 7C 00 84
  can0  34F   [8]  10 8E 00 8E 03 E7 07 FF
  can0  75E   [8]  00 81 00 2D 18 18 18 18
  can0  776   [8]  00 00 00 00 00 00 00 00
  can0  073   [8]  06 24 79 6B 00 80 10 A5
  can0  003   [8]  0F EE 10 00 04 FF 80 82
  can0  249   [8]  07 E8 00 0B E8 00 FF FF
  can0  005   [8]  00 00 00 00 1D 00 18 B2
  can0  413   [8]  FD 00 04 0F 10 00 00 05
  can0  75E   [8]  00 81 00 2D 18 18 18 18
  can0  073   [8]  06 24 79 6B 00 80 20 EF
  can0  003   [8]  0F EE 10 00 04 FF 90 4F
  can0  766   [8]  00 00 00 00 00 00 0D 08
  can0  105   [8]  02 6B 7F 00 00 95 43 EC
  can0  201   [8]  07 09 08 09 FF FF 10 3C
  can0  203   [8]  00 00 00 00 C0 00 C0 00
  can0  247   [8]  00 00 00 06 00 18 00 00
  can0  245   [8]  80 00 81 7E 80 7C 10 84
  can0  073   [8]  06 24 79 6B 00 80 30 22
  can0  75E   [8]  00 81 00 2D 18 18 18 18
  can0  003   [8]  0F EE 10 00 04 FF A0 05
  can0  328   [2]  07 60
  can0  005   [8]  00 00 00 00 1D 00 28 F8
  can0  073   [8]  06 24 79 6B 00 80 40 7B
  can0  2EF   [8]  F7 00 FF 0F FF FF FF 00
  can0  75E   [8]  00 81 00 2D 18 18 18 18
  can0  003   [8]  0F EE 10 00 04 FF B0 C8
  can0  105   [8]  02 6B 7F 00 00 95 53 21
  can0  766   [8]  00 00 00 00 00 00 0D 08
  can0  201   [8]  07 09 08 09 FF FF 20 76
  can0  203   [8]  00 00 00 00 C0 00 C0 00
  can0  245   [8]  80 02 81 7E 80 7C 20 84
  can0  073   [8]  06 24 79 6B 00 80 50 B6
  can0  75E   [8]  00 81 00 2D 18 18 18 18
  can0  003   [8]  0F EE 10 00 04 FF C0 91
  can0  005   [8]  00 00 00 00 1D 00 38 35
  can0  37D   [8]  02 00 04 AC 10 00 FF FF
  can0  073   [8]  06 24 79 6B 00 80 60 FC
  can0  75E   [8]  00 81 00 2D 18 18 18 18
  can0  003   [8]  0F EE 10 00 04 FF D0 5C
  can0  105   [8]  02 6A 7F 00 00 95 63 2D
  can0  766   [8]  00 00 00 00 00 00 0D 08
  can0  35C   [8]  02 00 E0 00 00 FF FF 01
  can0  201   [8]  07 09 08 09 FF FF 30 BB
  can0  203   [8]  00 00 00 00 C0 00 C0 00
  can0  245   [8]  80 07 81 7E 80 7D 30 84
  can0  001   [8]  CC 81 1F AE AA 03 A0 BA
  can0  3D3   [4]  C0 00 00 00
  can0  073   [8]  06 24 79 6B 00 80 70 31
  can0  75E   [8]  00 81 00 2D 18 18 18 18
  can0  76E   [8]  00 00 00 00 00 00 00 00
  can0  12D   [8]  01 0F 00 00 50 53 56 79
  can0  003   [8]  0F EE 10 00 04 FF E0 16
  can0  30D   [8]  7D 5B 7C FF FF 01 F4 81
  can0  005   [8]  00 00 00 00 1D 00 48 6C
  can0  388   [8]  36 FF 1F CF FF 0F 07 FF
  can0  39D   [8]  20 02 01 31 FF 0E 00 6F
  can0  073   [8]  06 24 79 6B 00 80 80 4E
  can0  04B   [6]  01 00 0C 06 FF 04
  can0  75E   [8]  00 81 00 2D 18 18 18 18
  can0  003   [8]  0F EE 10 00 04 FF F0 DB
  can0  045   [8]  00 FF 00 00 00 00 E0 B1
  can0  34E   [8]  00 00 A3 00 00 A3 11 40
  can0  105   [8]  02 6B 7F 00 00 95 73 A6
  can0  201   [8]  07 09 08 09 FF FF 40 E2
  can0  283   [8]  F6 0D 08 03 C0 6C 3F FF
  can0  203   [8]  00 00 00 00 C0 00 C0 00
  can0  766   [8]  00 00 00 00 00 00 0D 08
  can0  245   [8]  80 06 81 7E 80 7D 40 84
  can0  007   [8]  F0 05 38 00 3F FC AF 79
  can0  073   [8]  06 24 79 6B 00 80 90 83
  can0  75E   [8]  00 81 00 2D 18 18 18 18
  can0  003   [8]  0F EE 10 00 04 FF 00 A4
  can0  33D   [8]  00 42 00 00 64 00 00 00
  can0  005   [8]  00 00 00 00 1D 00 58 A1
  can0  205   [8]  06 93 0C 00 00 00 00 00
  can0  073   [8]  06 24 79 6B 00 80 A0 C9
  can0  375   [8]  13 10 35 3F 3F 07 00 00
  can0  75E   [8]  00 81 00 2D 18 18 18 18
  can0  003   [8]  0F EE 10 00 04 FF 10 69
  can0  105   [8]  02 6B 7F 00 00 95 83 D9
  can0  201   [8]  07 09 08 09 FF FF 50 2F
  can0  203   [8]  00 00 00 00 C0 00 C0 00
  can0  245   [8]  80 03 81 7E 81 7C 50 84
  can0  34F   [8]  10 8E 00 8E 03 E7 07 FF
  can0  766   [8]  00 00 00 00 00 00 0D 08
  can0  400   [8]  FD 13 04 0F E0 81 00 05
  can0  073   [8]  06 24 79 6B 00 80 B0 04
  can0  004   [5]  01 00 00 7D 07
  can0  003   [8]  0F EE 10 00 04 FF 20 23
  can0  75E   [8]  00 81 00 2D 18 18 18 18
  can0  249   [8]  0F E8 00 13 E8 00 FF FF
  can0  005   [8]  00 00 00 00 1D 00 68 EB
  can0  073   [8]  06 24 79 6B 00 80 C0 5D
  can0  003   [8]  0F EE 10 00 04 FF 30 EE
  can0  75E   [8]  00 81 00 2D 18 18 18 18
  can0  105   [8]  02 6B 7F 00 00 95 93 14
  can0  201   [8]  07 09 08 09 FF FF 60 65
  can0  247   [8]  00 00 00 06 00 18 00 00
  can0  203   [8]  00 00 00 00 C0 00 C0 00
  can0  245   [8]  80 02 81 7E 80 7C 60 84
  can0  766   [8]  00 00 00 00 00 00 0D 08
  can0  073   [8]  06 24 79 6B 00 80 D0 90
  can0  003   [8]  0F EE 10 00 04 FF 40 B7
  can0  75E   [8]  00 81 00 2D 18 18 18 18
  can0  005   [8]  00 00 00 00 1D 00 78 26
  can0  073   [8]  06 24 79 6B 00 80 E0 DA
  can0  003   [8]  0F EE 10 00 04 FF 50 7A
  can0  75E   [8]  00 81 00 2D 18 18 18 18
  can0  105   [8]  02 6B 7F 00 00 95 A3 5E
  can0  201   [8]  07 09 08 09 FF FF 70 A8
  can0  203   [8]  00 00 00 00 C0 00 C0 00
  can0  245   [8]  80 02 81 7E 80 7D 70 84
  can0  073   [8]  06 24 79 6B 00 80 F0 17
  can0  766   [8]  00 00 00 00 00 00 0D 08
  can0  003   [8]  0F EE 10 00 04 FF 60 30
  can0  75E   [8]  00 81 00 2D 18 18 18 18
  can0  005   [8]  00 00 00 00 1D 00 88 59
  can0  073   [8]  06 24 79 6B 00 80 00 68
  can0  003   [8]  0F EE 10 00 04 FF 70 FD
  can0  105   [8]  02 6B 7F 00 00 95 B3 93
  can0  75E   [8]  00 81 00 2D 18 18 18 18
  can0  201   [8]  07 09 08 09 FF FF 80 D7
  can0  001   [8]  CC 81 1F AE AA 03 B0 77
  can0  203   [8]  00 00 00 00 C0 00 C0 00
  can0  1C0   [2]  00 00
  can0  245   [8]  80 03 81 7E 80 7D 80 84
  can0  073   [8]  06 24 79 6B 00 80 10 A5
  can0  766   [8]  00 00 00 00 00 00 0D 08
  can0  12D   [8]  01 0F 00 00 50 53 56 79
  can0  003   [8]  0F EE 10 00 04 FF 80 82
  can0  75E   [8]  00 81 00 2D 18 18 18 18
  can0  30D   [8]  7D 5B 7C FF FF 01 F4 81
  can0  76E   [8]  00 00 00 00 00 00 00 00
  can0  005   [8]  00 00 00 00 1D 00 98 94
  can0  3D1   [4]  C9 0A 00 00
  can0  39D   [8]  20 02 01 31 FF 0E 00 77
  can0  073   [8]  06 24 79 6B 00 80 20 EF
  can0  388   [8]  36 FF 1F CF FF 0F 07 FF
  can0  003   [8]  0F EE 10 00 04 FF 90 4F
  can0  045   [8]  00 FF 00 00 00 00 F0 7C
  can0  34E   [8]  00 00 A3 00 00 A3 11 40
  can0  04B   [6]  01 00 0C 06 FF 04
  can0  105   [8]  02 6A 7F 00 00 95 C3 8C
  can0  75E   [8]  00 81 00 2D 18 18 18 18
  can0  201   [8]  07 09 08 09 FF FF 90 1A
  can0  203   [8]  00 00 00 00 C0 00 C0 00
  can0  245   [8]  80 02 81 7E 80 7D 90 84
  can0  007   [8]  F0 05 38 00 3F FC AF 79
  can0  073   [8]  06 24 79 6B 00 80 30 22
  can0  283   [8]  F6 0D 08 03 C0 6C 3F FF
  can0  766   [8]  00 00 00 00 00 00 0D 08
  can0  34D   [2]  10 00
  can0  003   [8]  0F EE 10 00 04 FF A0 05
  can0  33D   [8]  00 42 00 00 64 00 00 00
  can0  005   [8]  00 00 00 00 1D 00 A8 DE
  can0  068   [1]  01
  can0  75E   [8]  00 81 00 2D 18 18 18 18
  can0  205   [8]  06 93 0C 00 00 00 00 00
  can0  073   [8]  06 24 79 6B 00 80 40 7B
  can0  375   [8]  13 10 35 3F 3F 07 00 00
  can0  336   [8]  62 42 00 00 00 00 00 00
  can0  3F6   [5]  02 00 00 00 00
  can0  10C   [8]  3B 7F FF 07 03 FF C3 67
  can0  003   [8]  0F EE 10 00 04 FF B0 C8
  can0  105   [8]  02 6A 7F 00 00 95 D3 41
  can0  20E   [8]  3F 00 01 F0 FF FF 3F 68
  can0  201   [8]  07 09 08 09 FF FF A0 50
  can0  203   [8]  00 00 00 00 C0 00 C0 00
  can0  75E   [8]  00 81 00 2D 18 18 18 18
  can0  245   [8]  80 05 81 7E 80 7D A0 84
  can0  34F   [8]  10 8E 00 8E 03 E7 07 FF
  can0  413   [8]  FD 00 04 0F 10 00 00 05
  can0  073   [8]  06 24 79 6B 00 80 50 B6
  can0  351   [8]  00 00 00 00 00 00 00 00
  can0  766   [8]  00 00 00 00 00 00 0D 08
  can0  003   [8]  0F EE 10 00 04 FF C0 91
  can0  249   [8]  15 FC 00 18 5E 00 FF FF
  can0  005   [8]  00 00 00 00 1D 00 B8 13
  can0  75E   [8]  00 81 00 2D 18 18 18 18
  can0  776   [8]  00 00 00 00 00 00 00 00
  can0  002   [5]  02 00 A0 32 07
  can0  073   [8]  06 24 79 6B 00 80 60 FC
  can0  208   [8]  1F 40 11 80 00 06 40 A8
  can0  003   [8]  0F EE 10 00 04 FF D0 5C
  can0  105   [8]  02 6A 7F 00 00 95 E3 0B
  can0  201   [8]  07 09 08 09 FF FF B0 9D
  can0  203   [8]  00 00 00 00 C0 00 C0 00
  can0  247   [8]  00 00 00 06 00 18 00 00
  can0  207   [8]  10 09 3D 22 0F CB 4D AC
  can0  245   [8]  80 06 81 7E 80 7D B0 84
  can0  75E   [8]  00 81 00 2D 18 18 18 18
  can0  073   [8]  06 24 79 6B 00 80 70 31
  can0  003   [8]  0F EE 10 00 04 FF E0 16
  can0  206   [8]  00 00 0D 20 C1 80 D2 CC
  can0  766   [8]  00 00 00 00 00 00 0D 08
  can0  328   [2]  07 60
  can0  005   [8]  00 00 00 00 1D 00 C8 4A
  can0  20A   [8]  FA FF 00 FC FF FF FF 7F
  can0  75E   [8]  00 81 00 2D 18 18 18 18
  can0  073   [8]  06 24 79 6B 00 80 80 4E
  can0  2EF   [8]  F7 00 FF 0F FF FF FF 00
  can0  003   [8]  0F EE 10 00 04 FF F0 DB
  can0  105   [8]  02 69 7F 00 00 96 F3 D8
  can0  10E   [4]  00 C0 00 02
  can0  201   [8]  07 09 08 09 FF FF C0 C4
  can0  203   [8]  00 00 00 00 C0 00 C0 00
  can0  245   [8]  80 07 81 7E 81 7D C0 84
  can0  75E   [8]  00 81 00 2D 18 18 18 18
  can0  073   [8]  06 24 79 6B 00 80 90 83
  can0  10D   [4]  00 80 3A 00
  can0  003   [8]  0F EE 10 00 04 FF 00 A4
  can0  766   [8]  00 00 00 00 00 00 0D 08
  can0  005   [8]  00 00 00 00 1D 00 D8 87
  can0  37D   [8]  02 00 04 AB 10 00 FF FF
  can0  75E   [8]  00 81 00 2D 18 18 18 18
  can0  073   [8]  06 24 79 6B 00 80 A0 C9
  can0  003   [8]  0F EE 10 00 04 FF 10 69
  can0  105   [8]  02 69 7F 00 00 96 03 A7
  can0  35C   [8]  02 00 E0 00 00 FF FF 01
  can0  201   [8]  07 09 08 09 FF FF D0 09
  can0  001   [8]  CC 81 1F AE AA 03 C0 2E
  can0  203   [8]  00 00 00 00 C0 00 C0 00
  can0  245   [8]  80 06 81 7E 80 7D D0 84
  can0  073   [8]  06 24 79 6B 00 80 B0 04
  can0  75E   [8]  00 81 00 2D 18 18 18 18
  can0  3D3   [4]  C0 00 00 00
  can0  12D   [8]  01 0F 00 00 50 53 56 79
  can0  003   [8]  0F EE 10 00 04 FF 20 23
  can0  317   [2]  0A 00
  can0  766   [8]  00 00 00 00 00 00 0D 08
  can0  30D   [8]  7D 5B 7C FF FF 01 F4 81
  can0  005   [8]  00 00 00 00 1D 00 E8 CD
  can0  39D   [8]  20 02 01 31 FF 0E 00 7F
  can0  073   [8]  06 24 79 6B 00 80 C0 5D
  can0  75E   [8]  00 81 00 2D 18 18 18 18
  can0  76E   [8]  00 00 00 00 00 00 00 00
  can0  003   [8]  0F EE 10 00 04 FF 30 EE
  can0  045   [8]  00 FF 00 00 00 00 00 03
  can0  34E   [8]  00 00 A3 00 00 A3 11 40
  can0  30E   [8]  0C 00 00 00 00 05 FF 03
  can0  388   [8]  36 FF 1F CF FF 0F 07 FF
  can0  105   [8]  02 6A 7F 00 00 96 13 A0
  can0  201   [8]  07 09 08 09 FF FF E0 43
  can0  203   [8]  00 00 00 00 C0 00 C0 00
  can0  245   [8]  80 07 81 7E 80 7D E0 84
  can0  007   [8]  F0 05 38 00 3F FC AF 79
  can0  073   [8]  06 24 79 6B 00 80 D0 90
  can0  04B   [6]  01 00 0C 06 FF 04
  can0  75E   [8]  00 81 00 2D 18 18 18 18
  can0  003   [8]  0F EE 10 00 04 FF 40 B7
  can0  33D   [8]  00 42 00 00 64 00 00 00
  can0  005   [8]  00 00 00 00 1D 00 F8 00
  can0  283   [8]  F6 0D 08 03 C0 6C 3F FF
  can0  766   [8]  00 00 00 00 00 00 0D 08
  can0  205   [8]  06 93 0C 00 00 00 00 00
  can0  400   [8]  FD 13 04 0F E0 81 00 05
  can0  073   [8]  06 24 79 6B 00 80 E0 DA
  can0  375   [8]  13 10 35 3F 3F 07 00 00
  can0  75E   [8]  00 81 00 2D 18 18 18 18
  can0  003   [8]  0F EE 10 00 04 FF 50 7A
  can0  105   [8]  02 6A 7F 00 00 96 23 EA
  can0  34F   [8]  10 8E 00 8E 03 E7 07 FF
  can0  201   [8]  07 09 08 09 FF FF F0 8E
  can0  203   [8]  00 00 00 00 C0 00 C0 00
  can0  245   [8]  80 07 81 7E 81 7C F0 84
  can0  073   [8]  06 24 79 6B 00 80 F0 17
  can0  75E   [8]  00 81 00 2D 18 18 18 18
  can0  003   [8]  0F EE 10 00 04 FF 60 30
  can0  249   [8]  1C 6F 00 20 7D 00 FF FF
  can0  005   [8]  00 00 00 00 1D 00 08 7F
  can0  766   [8]  00 00 00 00 00 00 0D 08
  can0  073   [8]  06 24 79 6B 00 80 00 68
  can0  75E   [8]  00 81 00 2D 18 18 18 18
  can0  003   [8]  0F EE 10 00 04 FF 70 FD
  can0  105   [8]  02 6A 7F 00 00 96 33 27
  can0  201   [8]  07 09 08 09 FF FF 00 F1
  can0  247   [8]  00 00 00 06 00 18 00 00
  can0  203   [8]  00 00 00 00 C0 00 C0 00
  can0  245   [8]  80 06 81 7E 80 7C 00 84
  can0  073   [8]  06 24 79 6B 00 80 10 A5
  can0  75E   [8]  00 81 00 2D 18 18 18 18
  can0  003   [8]  0F EE 10 00 04 FF 80 82
  can0  2FF   [8]  02 28 00 FF FF FF FF FE
  can0  005   [8]  00 00 00 00 1D 00 18 B2
  can0  766   [8]  00 00 00 00 00 00 0D 08
  can0  073   [8]  06 24 79 6B 00 80 20 EF
  can0  75E   [8]  00 81 00 2D 18 18 18 18
  can0  003   [8]  0F EE 10 00 04 FF 90 4F
  can0  105   [8]  02 6A 7F 00 00 96 43 7E
  can0  201   [8]  07 09 08 09 FF FF 10 3C
  can0  203   [8]  00 00 00 00 C0 00 C0 00
  can0  245   [8]  7F FF 81 7E 80 7C 10 84
  can0  073   [8]  06 24 79 6B 00 80 30 22
  can0  75E   [8]  00 81 00 2D 18 18 18 18
  can0  003   [8]  0F EE 10 00 04 FF A0 05
  can0  005   [8]  00 00 00 00 1D 00 28 F8
  can0  766   [8]  00 00 00 00 00 00 0D 08
  can0  073   [8]  06 24 79 6B 00 80 40 7B
  can0  75E   [8]  00 81 00 2D 18 18 18 18
  can0  003   [8]  0F EE 10 00 04 FF B0 C8
  can0  105   [8]  02 6A 7F 00 00 96 53 B3
  can0  201   [8]  07 09 08 09 FF FF 20 76
  can0  203   [8]  00 00 00 00 C0 00 C0 00
  can0  001   [8]  CC 81 1F AE AA 03 D0 E3
  can0  245   [8]  80 00 81 7E 80 7C 20 84
  can0  073   [8]  06 24 79 6B 00 80 50 B6
  can0  75E   [8]  00 81 00 2D 18 18 18 18
  can0  12D   [8]  01 0F 00 00 50 53 56 79
  can0  003   [8]  0F EE 10 00 04 FF C0 91
  can0  30D   [8]  7D 5B 7C FF FF 01 F4 81
  can0  005   [8]  00 00 00 00 1D 00 38 35
  can0  766   [8]  00 00 00 00 00 00 0D 08
  can0  39D   [8]  20 02 01 31 FF 0E 00 07
  can0  3D1   [4]  C9 0A 00 00
  can0  073   [8]  06 24 79 6B 00 80 60 FC
  can0  75E   [8]  00 81 00 2D 18 18 18 18
  can0  76E   [8]  00 00 00 00 00 00 00 00
  can0  003   [8]  0F EE 10 00 04 FF D0 5C
  can0  045   [8]  00 FF 00 00 00 00 10 CE
  can0  34E   [8]  00 00 A3 00 00 A3 11 40
  can0  105   [8]  02 6A 7F 00 00 96 63 F9
  can0  201   [8]  07 09 08 09 FF FF 30 BB
  can0  203   [8]  00 00 00 00 C0 00 C0 00
  can0  245   [8]  80 01 81 7E 80 7D 30 84
  can0  388   [8]  36 FF 1F CF FF 0F 07 FF
  can0  007   [8]  F0 05 38 00 3F FC AF 79
  can0  413   [8]  FD 00 04 0F 10 00 00 05
  can0  073   [8]  06 24 79 6B 00 80 70 31
  can0  04B   [6]  01 00 0C 06 FF 04
  can0  75E   [8]  00 81 00 2D 18 18 18 18
  can0  003   [8]  0F EE 10 00 04 FF E0 16
  can0  33D   [8]  00 42 00 00 64 00 00 00
  can0  3F2   [8]  00 26 00 0C 00 00 3F FD
  can0  005   [8]  00 00 00 00 1D 00 48 6C
  can0  283   [8]  F6 0D 08 03 C0 6C 3F FF
  can0  766   [8]  00 00 00 00 00 00 0D 08
  can0  205   [8]  06 93 0C 00 00 00 00 00
  can0  375   [8]  13 10 35 3F 3F 07 00 00
  can0  073   [8]  06 24 79 6B 00 80 80 4E
  can0  336   [8]  62 42 00 00 00 00 00 00
  can0  068   [1]  01
  can0  75E   [8]  00 81 00 2D 18 18 18 18
  can0  003   [8]  0F EE 10 00 04 FF F0 DB
  can0  3F6   [5]  02 00 00 00 00
  can0  105   [8]  02 6C 7F 00 00 96 73 BD
  can0  201   [8]  07 09 08 09 FF FF 40 E2
  can0  203   [8]  00 00 00 00 C0 00 C0 00
  can0  10C   [8]  3B 7F FF 07 03 FF C3 67
  can0  245   [8]  7F FF 81 7E 80 7C 40 84
  can0  34F   [8]  10 8E 00 8E 03 E7 07 FF
  can0  073   [8]  06 24 79 6B 00 80 90 83
  can0  20E   [8]  3F 00 01 F0 FF FF 3F 68
  can0  75E   [8]  00 81 00 2D 18 18 18 18
  can0  003   [8]  0F EE 10 00 04 FF 00 A4
  can0  1C1   [4]  00 00 00 00
  can0  249   [8]  25 0F 00 28 39 00 FF FF
  can0  005   [8]  00 00 00 00 1D 00 58 A1
  can0  351   [8]  00 00 00 00 00 00 00 00
  can0  766   [8]  00 00 00 00 00 00 0D 08
  can0  073   [8]  06 24 79 6B 00 80 A0 C9
  can0  75E   [8]  00 81 00 2D 18 18 18 18
  can0  776   [8]  00 00 00 00 00 00 00 00
  can0  003   [8]  0F EE 10 00 04 FF 10 69
  can0  105   [8]  02 6C 7F 00 00 96 83 C2
  can0  201   [8]  07 09 08 09 FF FF 50 2F
  can0  247   [8]  00 00 00 06 00 18 00 00
  can0  203   [8]  00 00 00 00 C0 00 C0 00
  can0  245   [8]  7F FF 81 7E 81 7C 50 84
  can0  39F   [8]  10 30 0D 02 0B 19 0A FF
  can0  073   [8]  06 24 79 6B 00 80 B0 04
  can0  003   [8]  0F EE 10 00 04 FF 20 23
  can0  75E   [8]  00 81 00 2D 18 18 18 18
  can0  19F   [8]  00 00 84 F0 3D 22 61 ED
  can0  328   [2]  07 60
  can0  26F   [2]  6F C0
  can0  005   [8]  00 00 00 00 1D 00 68 EB
  can0  766   [8]  00 00 00 00 00 00 0D 08
  can0  073   [8]  06 24 79 6B 00 80 C0 5D
  can0  2EF   [8]  F7 00 FF 0F FF FF FF 00
  can0  003   [8]  0F EE 10 00 04 FF 30 EE
  can0  75E   [8]  00 81 00 2D 18 18 18 18
  can0  105   [8]  02 6A 7F 00 00 96 93 86
  can0  201   [8]  07 09 08 09 FF FF 60 65
  can0  203   [8]  00 00 00 00 C0 00 C0 00
  can0  245   [8]  80 00 81 7E 80 7C 60 84
  can0  073   [8]  06 24 79 6B 00 80 D0 90
  can0  3B8   [8]  00 00 00 60 41 05 00 00
  can0  003   [8]  0F EE 10 00 04 FF 40 B7
  can0  75E   [8]  00 81 00 2D 18 18 18 18
  can0  005   [8]  00 00 00 00 1D 00 78 26
  can0  37D   [8]  02 00 04 AB 10 00 FF FF
  can0  073   [8]  06 24 79 6B 00 80 E0 DA
  can0  766   [8]  00 00 00 00 00 00 0D 08
  can0  003   [8]  0F EE 10 00 04 FF 50 7A
  can0  105   [8]  02 6A 7F 00 00 96 A3 CC
  can0  75E   [8]  00 81 00 2D 18 18 18 18
  can0  35C   [8]  02 00 E0 00 00 FF FF 01
  can0  201   [8]  07 09 08 09 FF FF 70 A8
  can0  001   [8]  CC 81 1F AE AA 03 E0 A9
  can0  203   [8]  00 00 00 00 C0 00 C0 00
  can0  245   [8]  80 03 81 7E 80 7D 70 84
  can0  3D3   [4]  C0 00 00 00
  can0  073   [8]  06 24 79 6B 00 80 F0 17
  can0  12D   [8]  01 0F 00 00 50 53 56 79
  can0  003   [8]  0F EE 10 00 04 FF 60 30
  can0  2C4   [8]  00 00 FC 3F 7F FF 3F FF
  can0  75E   [8]  00 81 00 2D 18 18 18 18
  can0  30D   [8]  7D 5B 7C FF FF 01 F4 81
  can0  3E3   [8]  5A FC B9 72 29 CF DD 01
  can0  005   [8]  00 00 00 00 1D 00 88 59
  can0  39D   [8]  20 02 01 31 FF 0E 00 0F
  can0  073   [8]  06 24 79 6B 00 80 00 68
  can0  766   [8]  00 00 00 00 00 00 0D 08
  can0  400   [8]  FD 13 04 0F E0 81 00 05
  can0  003   [8]  0F EE 10 00 04 FF 70 FD
  can0  045   [8]  00 FF 00 00 00 00 20 84
  can0  34E   [8]  00 00 A3 00 00 A3 11 40
  can0  105   [8]  02 6A 7F 00 00 96 B3 01
  can0  75E   [8]  00 81 00 2D 18 18 18 18
  can0  76E   [8]  00 00 00 00 00 00 00 00
  can0  3E5   [8]  0C 14 0A 14 04 FF FF 00
  can0  201   [8]  07 09 08 09 FF FF 80 D7
  can0  3E7   [8]  5A FC B8 AB 29 CF DE 92
  can0  203   [8]  00 00 00 00 C0 00 C0 00
  can0  245   [8]  80 06 81 7E 81 7C 80 84
  can0  007   [8]  F0 05 38 00 3F FC AF 79
  can0  073   [8]  06 24 79 6B 00 80 10 A5
  can0  388   [8]  36 FF 1F CF FF 0F 07 FF
  can0  003   [8]  0F EE 10 00 04 FF 80 82
  can0  33D   [8]  00 42 00 00 64 00 00 00
  can0  3E9   [8]  07 E9 0B 03 00 30 05 14
  can0  005   [8]  00 00 00 00 1D 00 98 94
  can0  3EB   [8]  00 02 00 00 0D 30 0D 8D
  can0  04B   [6]  01 00 0C 06 FF 04
  can0  75E   [8]  00 81 00 2D 18 18 18 18
  can0  205   [8]  06 93 0C 00 00 00 00 00
  can0  073   [8]  06 24 79 6B 00 80 20 EF
  can0  375   [8]  13 10 35 3F 3F 07 00 00
  can0  283   [8]  F6 0D 08 03 C0 6C 3F FF
  can0  766   [8]  00 00 00 00 00 00 0D 08
  can0  003   [8]  0F EE 10 00 04 FF 90 4F
  can0  105   [8]  02 6C 7F 00 00 96 C3 D1
  can0  201   [8]  07 09 08 09 FF FF 90 1A
  can0  203   [8]  00 00 00 00 C0 00 C0 00
  can0  245   [8]  80 09 81 7E 81 7C 90 84
  can0  34F   [8]  10 8E 00 8E 03 E7 07 FF
  can0  75E   [8]  00 81 00 2D 18 18 18 18
  can0  073   [8]  06 24 79 6B 00 80 30 22
  can0  003   [8]  0F EE 10 00 04 FF A0 05
  can0  249   [8]  2C A1 00 30 2C 00 FF FF
  can0  005   [8]  00 00 00 00 1D 00 A8 DE
  can0  75E   [8]  00 81 00 2D 18 18 18 18
  can0  073   [8]  06 24 79 6B 00 80 40 7B
  can0  766   [8]  00 00 00 00 00 00 0D 08
  can0  003   [8]  0F EE 10 00 04 FF B0 C8
  can0  105   [8]  02 6C 7F 00 00 96 D3 1C
  can0  201   [8]  07 09 08 09 FF FF A0 50
  can0  247   [8]  00 00 00 06 00 18 00 00
  can0  203   [8]  00 00 00 00 C0 00 C0 00
  can0  245   [8]  80 07 81 7E 80 7D A0 84
  can0  75E   [8]  00 81 00 2D 18 18 18 18
  can0  073   [8]  06 24 79 6B 00 80 50 B6
  can0  003   [8]  0F EE 10 00 04 FF C0 91
  can0  005   [8]  00 00 00 00 1D 00 B8 13
  can0  75E   [8]  00 81 00 2D 18 18 18 18
  can0  073   [8]  06 24 79 6B 00 80 60 FC
  can0  766   [8]  00 00 00 00 00 00 0D 08
  can0  003   [8]  0F EE 10 00 04 FF D0 5C
  can0  105   [8]  02 6B 7F 00 00 96 E3 99
  can0  201   [8]  07 09 08 09 FF FF B0 9D
  can0  203   [8]  00 00 00 00 C0 00 C0 00
  can0  245   [8]  80 06 81 7E 80 7D B0 84
  can0  75E   [8]  00 81 00 2D 18 18 18 18
  can0  073   [8]  06 24 79 6B 00 80 70 31
  can0  003   [8]  0F EE 10 00 04 FF E0 16
  can0  005   [8]  00 00 00 00 1D 00 C8 4A
  can0  75E   [8]  00 81 00 2D 18 18 18 18
  can0  073   [8]  06 24 79 6B 00 80 80 4E
  can0  003   [8]  0F EE 10 00 04 FF F0 DB
  can0  766   [8]  00 00 00 00 00 00 0D 08
  can0  105   [8]  02 6B 7F 00 00 96 F3 54
  can0  201   [8]  07 09 08 09 FF FF C0 C4
  can0  001   [8]  CC 81 1F AE AA 03 F0 64
  can0  203   [8]  00 00 00 00 C0 00 C0 00
  can0  245   [8]  80 03 81 7E 80 7D C0 84
  can0  75E   [8]  00 81 00 2D 18 18 18 18
  can0  073   [8]  06 24 79 6B 00 80 90 83
  can0  12D   [8]  01 0F 00 00 50 53 56 79
  can0  003   [8]  0F EE 10 00 04 FF 00 A4
  can0  30D   [8]  7D 5B 7C FF FF 01 F4 81
  can0  005   [8]  00 00 00 00 1D 00 D8 87
  can0  39D   [8]  20 02 01 31 FF 0E 00 17
  can0  413   [8]  FD 00 04 0F 10 00 00 05
  can0  3D1   [4]  C9 0A 00 00
  can0  75E   [8]  00 81 00 2D 18 18 18 18
  can0  073   [8]  06 24 79 6B 00 80 A0 C9
  can0  003   [8]  0F EE 10 00 04 FF 10 69
  can0  045   [8]  00 FF 00 00 00 00 30 49
  can0  34E   [8]  00 00 A3 00 00 A3 11 40
  can0  766   [8]  00 00 00 00 00 00 0D 08
  can0  105   [8]  02 6A 7F 00 00 96 03 6D
  can0  201   [8]  07 09 08 09 FF FF D0 09
  can0  203   [8]  00 00 00 00 C0 00 C0 00
  can0  245   [8]  80 01 81 7E 80 7D D0 84
  can0  007   [8]  F0 05 38 00 3F FC AF 79
  can0  073   [8]  06 24 79 6B 00 80 B0 04
  can0  75E   [8]  00 81 00 2D 18 18 18 18
  can0  76E   [8]  00 00 00 00 00 00 00 00
  can0  003   [8]  0F EE 10 00 04 FF 20 23
  can0  388   [8]  36 FF 1F CF FF 0F 07 FF
  can0  33D   [8]  00 42 00 00 64 00 00 00
  can0  005   [8]  00 00 00 00 1D 00 E8 CD
  can0  205   [8]  06 93 0C 00 00 00 00 00
  can0  336   [8]  62 42 00 00 00 00 00 00
  can0  073   [8]  06 24 79 6B 00 80 C0 5D
  can0  375   [8]  13 10 35 3F 3F 07 00 00
  can0  3F6   [5]  02 00 00 00 00
  can0  04B   [6]  01 00 0C 06 FF 04
  can0  75E   [8]  00 81 00 2D 18 18 18 18
  can0  003   [8]  0F EE 10 00 04 FF 30 EE
  can0  105   [8]  02 6A 7F 00 00 96 13 A0
  can0  283   [8]  F6 0D 08 03 C0 6C 3F FF
  can0  766   [8]  00 00 00 00 00 00 0D 08
  can0  201   [8]  07 09 08 09 FF FF E0 43
  can0  203   [8]  00 00 00 00 C0 00 C0 00
  can0  245   [8]  80 03 81 7E 80 7D E0 84
  can0  34F   [8]  10 8E 00 8E 03 E7 07 FF
  can0  004   [5]  01 00 00 7D 07
  can0  073   [8]  06 24 79 6B 00 80 D0 90
  can0  068   [1]  01
  can0  75E   [8]  00 81 00 2D 18 18 18 18
  can0  003   [8]  0F EE 10 00 04 FF 40 B7
  can0  249   [8]  34 B3 00 3A 51 00 FF FF
  can0  005   [8]  00 00 00 00 1D 00 F8 00
  can0  10C   [8]  3B 7F FF 07 03 FF C3 67
  can0  073   [8]  06 24 79 6B 00 80 E0 DA
  can0  20E   [8]  3F 00 01 F0 FF FF 3F 68
  can0  75E   [8]  00 81 00 2D 18 18 18 18
  can0  003   [8]  0F EE 10 00 04 FF 50 7A
  can0  105   [8]  02 6A 7F 00 00 96 23 EA
  can0  201   [8]  07 09 08 09 FF FF F0 8E
  can0  203   [8]  00 00 00 00 C0 00 C0 00
  can0  247   [8]  00 00 00 06 00 18 00 00
  can0  245   [8]  80 00 81 7E 80 7C F0 84
  can0  351   [8]  00 00 00 00 00 00 00 00
  can0  766   [8]  00 00 00 00 00 00 0D 08
  can0  073   [8]  06 24 79 6B 00 80 F0 17
  can0  003   [8]  0F EE 10 00 04 FF 60 30
  can0  75E   [8]  00 81 00 2D 18 18 18 18
  can0  776   [8]  00 00 00 00 00 00 00 00
  can0  328   [2]  07 60
  can0  005   [8]  00 00 00 00 1D 00 08 7F
  can0  2EF   [8]  F7 00 FF 0F FF FF FF 00
  can0  073   [8]  06 24 79 6B 00 80 00 68
  can0  003   [8]  0F EE 10 00 04 FF 70 FD
  can0  75E   [8]  00 81 00 2D 18 18 18 18
  can0  105   [8]  02 67 7F 00 00 96 33 6E
  can0  201   [8]  07 09 08 09 FF FF 00 F1
  can0  203   [8]  00 00 00 00 C0 00 C0 00
  can0  245   [8]  7F FE 81 7E 80 7C 00 84
  can0  766   [8]  00 00 00 00 00 00 0D 08
  can0  073   [8]  06 24 79 6B 00 80 10 A5
  can0  003   [8]  0F EE 10 00 04 FF 80 82
  can0  75E   [8]  00 81 00 2D 18 18 18 18
  can0  005   [8]  00 00 00 00 1D 00 18 B2
  can0  37D   [8]  02 00 04 AB 10 00 FF FF
  can0  073   [8]  06 24 79 6B 00 80 20 EF
  can0  003   [8]  0F EE 10 00 04 FF 90 4F
  can0  75E   [8]  00 81 00 2D 18 18 18 18
  can0  105   [8]  02 65 7F 00 00 96 43 BB
  can0  35C   [8]  02 00 E0 00 00 FF FF 01
  can0  201   [8]  07 09 08 09 FF FF 10 3C
  can0  001   [8]  CC 81 1F AE AA 03 00 1B
  can0  203   [8]  00 00 00 00 C0 00 C0 00
  can0  245   [8]  80 02 81 7E 80 7C 10 84
  can0  3D3   [4]  C0 00 00 00
  can0  073   [8]  06 24 79 6B 00 80 30 22
  can0  766   [8]  00 00 00 00 00 00 0D 08
  can0  400   [8]  FD 13 04 0F E0 81 00 05
  can0  12D   [8]  01 0F 00 00 50 53 56 79
  can0  003   [8]  0F EE 10 00 04 FF A0 05
  can0  75E   [8]  00 81 00 2D 18 18 18 18
  can0  30D   [8]  7D 5B 7C FF FF 01 F4 81
  can0  005   [8]  00 00 00 00 1D 00 28 F8
  can0  39D   [8]  20 02 01 31 FF 0E 00 1F
  can0  073   [8]  06 24 79 6B 00 80 40 7B
  can0  003   [8]  0F EE 10 00 04 FF B0 C8
  can0  045   [8]  00 FF 00 00 00 00 40 10
  can0  34E   [8]  00 00 A3 00 00 A3 11 40
  can0  75E   [8]  00 81 00 2D 18 18 18 18
  can0  105   [8]  02 65 7F 00 00 96 53 76
  can0  201   [8]  07 09 08 09 FF FF 20 76
  can0  203   [8]  00 00 00 00 C0 00 C0 00
  can0  245   [8]  80 01 81 7E 81 7C 20 84
  can0  007   [8]  F0 05 38 00 3F FC AF 79
  can0  073   [8]  06 24 79 6B 00 80 50 B6
  can0  766   [8]  00 00 00 00 00 00 0D 08
  can0  003   [8]  0F EE 10 00 04 FF C0 91
  can0  34D   [2]  10 00
  can0  33D   [8]  00 42 00 00 64 00 00 00
  can0  005   [8]  00 00 00 00 1D 00 38 35
  can0  75E   [8]  00 81 00 2D 18 18 18 18
  can0  76E   [8]  00 00 00 00 00 00 00 00
  can0  205   [8]  06 93 0C 00 00 00 00 00
  can0  073   [8]  06 24 79 6B 00 80 60 FC
  can0  375   [8]  13 10 35 3F 3F 07 00 00
  can0  388   [8]  36 FF 1F CF FF 0F 07 FF
  can0  003   [8]  0F EE 10 00 04 FF D0 5C
  can0  105   [8]  02 66 7F 00 00 96 63 F6
  can0  201   [8]  07 09 08 09 FF FF 30 BB
  can0  203   [8]  00 00 00 00 C0 00 C0 00
  can0  04B   [6]  01 00 0C 06 FF 04
  can0  245   [8]  80 02 81 7E 81 7D 30 84
  can0  75E   [8]  00 81 00 2D 18 18 18 18
  can0  34F   [8]  10 8E 00 8E 03 E7 07 FF
  can0  073   [8]  06 24 79 6B 00 80 70 31
  can0  283   [8]  F6 0D 08 03 C0 6C 3F FF
  can0  766   [8]  00 00 00 00 00 00 0D 08
  can0  003   [8]  0F EE 10 00 04 FF E0 16
  can0  249   [8]  3F E8 00 FF FF 00 03 FF
  can0  005   [8]  00 00 00 00 1D 00 48 6C
  can0  75E   [8]  00 81 00 2D 18 18 18 18
  can0  002   [5]  02 00 A0 32 07
  can0  073   [8]  06 24 79 6B 00 80 80 4E
  can0  003   [8]  0F EE 10 00 04 FF F0 DB
  can0  105   [8]  02 66 7F 00 00 96 73 3B
  can0  201   [8]  07 09 08 09 FF FF 40 E2
  can0  247   [8]  00 00 00 06 00 18 00 00
  can0  203   [8]  00 00 00 00 C0 00 C0 00
  can0  245   [8]  80 07 81 7E 81 7D 40 84
  can0  75E   [8]  00 81 00 2D 18 18 18 18
  can0  073   [8]  06 24 79 6B 00 80 90 83
  can0  766   [8]  00 00 00 00 00 00 0D 08
  can0  003   [8]  0F EE 10 00 04 FF 00 A4
  can0  005   [8]  00 00 00 00 1D 00 58 A1
  can0  75E   [8]  00 81 00 2D 18 18 18 18
  can0  073   [8]  06 24 79 6B 00 80 A0 C9
  can0  003   [8]  0F EE 10 00 04 FF 10 69
  can0  105   [8]  02 68 7F 00 00 96 83 C7
  can0  10E   [4]  00 C0 00 02
  can0  201   [8]  07 09 08 09 FF FF 50 2F
  can0  203   [8]  00 00 00 00 C0 00 C0 00
  can0  75E   [8]  00 81 00 2D 18 18 18 18
  can0  245   [8]  80 05 81 7E 81 7D 50 84
  can0  073   [8]  06 24 79 6B 00 80 B0 04
  can0  10D   [4]  00 80 3A 00
  can0  766   [8]  00 00 00 00 00 00 0D 08
  can0  003   [8]  0F EE 10 00 04 FF 20 23
  can0  005   [8]  00 00 00 00 1D 00 68 EB
  can0  75E   [8]  00 81 00 2D 18 18 18 18
  can0  073   [8]  06 24 79 6B 00 80 C0 5D
  can0  003   [8]  0F EE 10 00 04 FF 30 EE
  can0  105   [8]  02 69 7F 00 00 96 93 4C
  can0  201   [8]  07 09 08 09 FF FF 60 65
  can0  203   [8]  00 00 00 00 C0 00 C0 00
  can0  245   [8]  80 05 81 7E 81 7D 60 84
  can0  001   [8]  CC 81 1F AE AA 03 10 D6
  can0  75E   [8]  00 81 00 2D 18 18 18 18
  can0  413   [8]  FD 00 04 0F 10 00 00 05
  can0  073   [8]  06 24 79 6B 00 80 D0 90
  can0  12D   [8]  01 0F 00 00 50 53 56 79
  can0  003   [8]  0F EE 10 00 04 FF 40 B7
  can0  766   [8]  00 00 00 00 00 00 0D 08
  can0  30D   [8]  7D 5B 7C FF FF 01 F4 81
  can0  005   [8]  00 00 00 00 1D 00 78 26
  can0  75E   [8]  00 81 00 2D 18 18 18 18
  can0  39D   [8]  20 02 01 31 FF 0E 00 27
  can0  3D1   [4]  C9 0A 00 00
  can0  073   [8]  06 24 79 6B 00 80 E0 DA
  can0  003   [8]  0F EE 10 00 04 FF 50 7A
  can0  045   [8]  00 FF 00 00 00 00 50 DD
  can0  34E   [8]  00 00 A3 00 00 A3 11 40
  can0  105   [8]  02 69 7F 00 00 96 A3 06
  can0  201   [8]  07 09 08 09 FF FF 70 A8
  can0  203   [8]  00 00 00 00 C0 00 C0 00
  can0  245   [8]  80 03 81 7E 80 7C 70 84
  can0  007   [8]  F0 05 38 00 3F FC AF 79
  can0  75E   [8]  00 81 00 2D 18 18 18 18
  can0  073   [8]  06 24 79 6B 00 80 F0 17
  can0  003   [8]  0F EE 10 00 04 FF 60 30
  can0  766   [8]  00 00 00 00 00 00 0D 08
  can0  33D   [8]  00 42 00 00 64 00 00 00
  can0  005   [8]  00 00 00 00 1D 00 88 59
  can0  205   [8]  06 93 0C 00 00 00 00 00
  can0  75E   [8]  00 81 00 2D 18 18 18 18
  can0  76E   [8]  00 00 00 00 00 00 00 00
  can0  073   [8]  06 24 79 6B 00 80 00 68
  can0  375   [8]  13 10 35 3F 3F 07 00 00
  can0  336   [8]  62 42 00 00 00 00 00 00
  can0  3F6   [5]  02 00 00 00 00
  can0  003   [8]  0F EE 10 00 04 FF 70 FD
  can0  388   [8]  36 FF 1F CF FF 0F 07 FF
  can0  105   [8]  02 6B 7F 00 00 96 B3 47
  can0  201   [8]  07 09 08 09 FF FF 80 D7
  can0  203   [8]  00 00 00 00 C0 00 C0 00
  can0  245   [8]  80 03 81 7E 80 7C 80 84
  can0  34F   [8]  10 8E 00 8E 03 E7 07 FF
  can0  073   [8]  06 24 79 6B 00 80 10 A5
  can0  04B   [6]  01 00 0C 06 FF 04
  can0  75E   [8]  00 81 00 2D 18 18 18 18
  can0  003   [8]  0F EE 10 00 04 FF 80 82
  can0  283   [8]  F6 0D 08 03 C0 6C 3F FF
  can0  766   [8]  00 00 00 00 00 00 0D 08
  can0  249   [8]  07 E8 00 0B E8 00 FF FF
  can0  005   [8]  00 00 00 00 1D 00 98 94
  can0  073   [8]  06 24 79 6B 00 80 20 EF
  can0  068   [1]  01
  can0  75E   [8]  00 81 00 2D 18 18 18 18
  can0  003   [8]  0F EE 10 00 04 FF 90 4F
  can0  105   [8]  02 6B 7F 00 00 96 C3 1E
  can0  10C   [8]  3B 7F FF 07 03 FF C3 67
  can0  201   [8]  07 09 08 09 FF FF 90 1A
  can0  203   [8]  00 00 00 00 C0 00 C0 00
  can0  247   [8]  00 00 00 06 00 18 00 00
  can0  245   [8]  80 06 81 7E 80 7C 90 84
  can0  073   [8]  06 24 79 6B 00 80 30 22
  can0  20E   [8]  3F 00 01 F0 FF FF 3F 68
  can0  75E   [8]  00 81 00 2D 18 18 18 18
  can0  003   [8]  0F EE 10 00 04 FF A0 05
  can0  351   [8]  00 00 00 00 00 00 00 00
  can0  328   [2]  07 60
  can0  766   [8]  00 00 00 00 00 00 0D 08
  can0  005   [8]  00 00 00 00 1D 00 A8 DE
  can0  073   [8]  06 24 79 6B 00 80 40 7B
  can0  2EF   [8]  F7 00 FF 0F FF FF FF 00
  can0  75E   [8]  00 81 00 2D 18 18 18 18
  can0  776   [8]  00 00 00 00 00 00 00 00
  can0  003   [8]  0F EE 10 00 04 FF B0 C8
  can0  105   [8]  02 6A 7F 00 00 96 D3 95
  can0  201   [8]  07 09 08 09 FF FF A0 50
  can0  203   [8]  00 00 00 00 C0 00 C0 00
  can0  245   [8]  80 06 81 7E 80 7D A0 84
  can0  073   [8]  06 24 79 6B 00 80 50 B6
  can0  75E   [8]  00 81 00 2D 18 18 18 18
  can0  003   [8]  0F EE 10 00 04 FF C0 91
  can0  766   [8]  00 00 00 00 00 00 0D 08
  can0  005   [8]  00 00 00 00 1D 00 B8 13
  can0  400   [8]  FD 13 04 0F E0 81 00 05
  can0  37D   [8]  02 00 04 AB 10 00 FF FF
  can0  073   [8]  06 24 79 6B 00 80 60 FC
  can0  75E   [8]  00 81 00 2D 18 18 18 18
  can0  003   [8]  0F EE 10 00 04 FF D0 5C
  can0  105   [8]  02 6C 7F 00 00 96 E3 56
  can0  35C   [8]  02 00 E0 00 00 FF FF 01
  can0  201   [8]  07 09 08 09 FF FF B0 9D
  can0  001   [8]  CC 81 1F AE AA 03 20 9C
  can0  203   [8]  00 00 00 00 C0 00 C0 00
  can0  245   [8]  80 06 81 7E 80 7D B0 84
  can0  3D3   [4]  C0 00 00 00
  can0  073   [8]  06 24 79 6B 00 80 70 31
  can0  75E   [8]  00 81 00 2D 18 18 18 18
  can0  12D   [8]  01 0F 00 00 50 53 56 79
  can0  003   [8]  0F EE 10 00 04 FF E0 16
  can0  766   [8]  00 00 00 00 00 00 0D 08
  can0  30D   [8]  7D 5B 7C FF FF 01 F4 81
  can0  005   [8]  00 00 00 00 1D 00 C8 4A
  can0  39D   [8]  20 02 01 31 FF 0E 00 2F
  can0  073   [8]  06 24 79 6B 00 80 80 4E
  can0  75E   [8]  00 81 00 2D 18 18 18 18
  can0  003   [8]  0F EE 10 00 04 FF F0 DB
  can0  045   [8]  00 FF 00 00 00 00 60 97
  can0  34E   [8]  00 00 A3 00 00 A3 11 40
  can0  105   [8]  02 6C 7F 00 00 96 F3 9B
  can0  201   [8]  07 09 08 09 FF FF C0 C4
  can0  203   [8]  00 00 00 00 C0 00 C0 00
  can0  245   [8]  80 02 81 7E 80 7D C0 84
  can0  007   [8]  F0 05 38 00 3F FC AF 79
  can0  073   [8]  06 24 79 6B 00 80 90 83
  can0  75E   [8]  00 81 00 2D 18 18 18 18
  can0  003   [8]  0F EE 10 00 04 FF 00 A4
  can0  766   [8]  00 00 00 00 00 00 0D 08
  can0  33D   [8]  00 42 00 00 64 00 00 00
  can0  005   [8]  00 00 00 00 1D 00 D8 87
  can0  205   [8]  06 93 0C 00 00 00 00 00
  can0  073   [8]  06 24 79 6B 00 80 A0 C9
  can0  375   [8]  13 10 35 3F 3F 07 00 00
  can0  75E   [8]  00 81 00 2D 18 18 18 18
  can0  76E   [8]  00 00 00 00 00 00 00 00
  can0  003   [8]  0F EE 10 00 04 FF 10 69
  can0  105   [8]  02 6C 7F 00 00 96 03 E4
  can0  388   [8]  36 FF 1F CF FF 0F 07 FF
  can0  201   [8]  07 09 08 09 FF FF D0 09
  can0  203   [8]  00 00 00 00 C0 00 C0 00
  can0  245   [8]  80 06 81 7E 80 7C D0 84
  can0  34F   [8]  10 8E 00 8E 03 E7 07 FF
  can0  073   [8]  06 24 79 6B 00 80 B0 04
  can0  04B   [6]  01 00 0C 06 FF 04
  can0  75E   [8]  00 81 00 2D 18 18 18 18
  can0  003   [8]  0F EE 10 00 04 FF 20 23
  can0  1C1   [4]  00 00 00 00
  can0  283   [8]  F6 0D 08 03 C0 6C 3F FF
  can0  766   [8]  00 00 00 00 00 00 0D 08
  can0  249   [8]  0F E8 00 13 E8 00 FF FF
  can0  005   [8]  00 00 00 00 1D 00 E8 CD
  can0  073   [8]  06 24 79 6B 00 80 C0 5D
  can0  75E   [8]  00 81 00 2D 18 18 18 18
  can0  003   [8]  0F EE 10 00 04 FF 30 EE
  can0  105   [8]  02 69 7F 00 00 96 13 6A
  can0  201   [8]  07 09 08 09 FF FF E0 43
  can0  247   [8]  00 00 00 06 00 18 00 00
  can0  203   [8]  00 00 00 00 C0 00 C0 00
  can0  245   [8]  80 0A 81 7E 80 7C E0 84
  can0  073   [8]  06 24 79 6B 00 80 D0 90
  can0  75E   [8]  00 81 00 2D 18 18 18 18
  can0  003   [8]  0F EE 10 00 04 FF 40 B7
  can0  766   [8]  00 00 00 00 00 00 0D 08
  can0  005   [8]  00 00 00 00 1D 00 F8 00
  can0  073   [8]  06 24 79 6B 00 80 E0 DA
  can0  75E   [8]  00 81 00 2D 18 18 18 18
  can0  003   [8]  0F EE 10 00 04 FF 50 7A
  can0  105   [8]  02 69 7F 00 00 96 23 20
  can0  201   [8]  07 09 08 09 FF FF F0 8E
  can0  203   [8]  00 00 00 00 C0 00 C0 00
  can0  245   [8]  80 06 81 7E 80 7C F0 84
  can0  413   [8]  FD 00 04 0F 10 00 00 05
  can0  073   [8]  06 24 79 6B 00 80 F0 17
  can0  75E   [8]  00 81 00 2D 18 18 18 18
  can0  003   [8]  0F EE 10 00 04 FF 60 30
  can0  766   [8]  00 00 00 00 00 00 0D 08
  can0  005   [8]  00 00 00 00 1D 00 08 7F
  can0  073   [8]  06 24 79 6B 00 80 00 68
  can0  75E   [8]  00 81 00 2D 18 18 18 18
  can0  003   [8]  0F EE 10 00 04 FF 70 FD
  can0  204   [8]  00 57 44 44 4B 4A 36 46
  can0  105   [8]  02 67 7F 00 00 96 33 6E
  can0  201   [8]  07 09 08 09 FF FF 00 F1
  can0  001   [8]  CC 81 1F AE AA 03 30 51
  can0  203   [8]  00 00 00 00 C0 00 C0 00
  can0  245   [8]  80 03 81 7E 80 7C 00 84
  can0  073   [8]  06 24 79 6B 00 80 10 A5
  can0  75E   [8]  00 81 00 2D 18 18 18 18
  can0  12D   [8]  01 0F 00 00 50 53 56 79
  can0  003   [8]  0F EE 10 00 04 FF 80 82
  can0  766   [8]  00 00 00 00 00 00 0D 08
  can0  30D   [8]  7D 5B 7C FF FF 01 EF 81
  can0  005   [8]  00 00 00 00 1D 00 18 B2
  can0  3D1   [4]  C9 0A 00 00
  can0  39D   [8]  20 02 01 31 FF 0E 00 37
  can0  073   [8]  06 24 79 6B 00 80 20 EF
  can0  75E   [8]  00 81 00 2D 18 18 18 18
  can0  003   [8]  0F EE 10 00 04 FF 90 4F
  can0  045   [8]  00 FF 00 00 00 00 70 5A
  can0  34E   [8]  00 00 A3 00 00 A3 11 40
  can0  204   [8]  01 42 31 47 46 33 31 34
  can0  105   [8]  02 67 7F 00 00 96 43 37
  can0  201   [8]  07 09 08 09 FF FF 10 3C
  can0  203   [8]  00 00 00 00 C0 00 C0 00
  can0  245   [8]  80 05 81 7E 80 7D 10 84
  can0  007   [8]  F0 05 38 00 3F FC AF 79
  can0  073   [8]  06 24 79 6B 00 80 30 22
  can0  75E   [8]  00 81 00 2D 18 18 18 18
  can0  003   [8]  0F EE 10 00 04 FF A0 05
  can0  33D   [8]  00 42 00 00 64 00 00 00
  can0  005   [8]  00 00 00 00 1D 00 28 F8
  can0  766   [8]  00 00 00 00 00 00 0D 08
  can0  205   [8]  06 93 0C 00 00 00 00 00
  can0  375   [8]  13 10 35 3F 3F 07 00 00
  can0  073   [8]  06 24 79 6B 00 80 40 7B
  can0  336   [8]  62 42 00 00 00 00 00 00
  can0  3F6   [5]  02 00 00 00 00
  can0  75E   [8]  00 81 00 2D 18 18 18 18
  can0  76E   [8]  00 00 00 00 00 00 00 00
  can0  003   [8]  0F EE 10 00 04 FF B0 C8
  can0  105   [8]  02 68 7F 00 00 96 53 3F
  can0  204   [8]  02 33 33 35 FF FF FF FF
  can0  201   [8]  07 09 08 09 FF FF 20 76
  can0  203   [8]  00 00 00 00 C0 00 C0 00
  can0  245   [8]  80 0B 81 7E 80 7D 20 84
  can0  34F   [8]  10 8E 00 8E 03 E7 07 FF
  can0  388   [8]  36 FF 1F CF FF 0F 07 FF
  can0  073   [8]  06 24 79 6B 00 80 50 B6
  can0  003   [8]  0F EE 10 00 04 FF C0 91
  can0  04B   [6]  01 00 0C 06 FF 04
  can0  75E   [8]  00 81 00 2D 18 18 18 18
  can0  249   [8]  15 FC 00 18 5E 00 FF FF
  can0  005   [8]  00 00 00 00 1D 00 38 35
  can0  283   [8]  F6 0D 08 03 C0 6C 3F FF
  can0  766   [8]  00 00 00 00 00 00 0D 08
  can0  073   [8]  06 24 79 6B 00 80 60 FC
  can0  003   [8]  0F EE 10 00 04 FF D0 5C
  can0  068   [1]  01
  can0  75E   [8]  00 81 00 2D 18 18 18 18
  can0  105   [8]  02 65 7F 00 00 96 63 3C
  can0  201   [8]  07 09 08 09 FF FF 30 BB
  can0  203   [8]  00 00 00 00 C0 00 C0 00
  can0  247   [8]  00 00 00 06 00 18 00 00
  can0  245   [8]  80 0B 81 7E 80 7C 30 84
  can0  073   [8]  06 24 79 6B 00 80 70 31
  can0  10C   [8]  3B 7F FF 07 03 FF C3 67
  can0  003   [8]  0F EE 10 00 04 FF E0 16
  can0  328   [2]  07 60
  can0  20E   [8]  3F 00 01 F0 FF FF 3F 68
  can0  75E   [8]  00 81 00 2D 18 18 18 18
  can0  005   [8]  00 00 00 00 1D 00 48 6C
  can0  073   [8]  06 24 79 6B 00 80 80 4E
  can0  2EF   [8]  F7 00 FF 0F FF FF FF 00
  can0  351   [8]  00 00 00 00 00 00 00 00
  can0  766   [8]  00 00 00 00 00 00 0D 08
  can0  400   [8]  FD 13 04 0F E0 81 00 05
  can0  003   [8]  0F EE 10 00 04 FF F0 DB
  can0  105   [8]  02 65 7F 00 00 96 73 F1
  can0  75E   [8]  00 81 00 2D 18 18 18 18
  can0  776   [8]  00 00 00 00 00 00 00 00
  can0  201   [8]  07 09 08 09 FF FF 40 E2
  can0  203   [8]  00 00 00 00 C0 00 C0 00
  can0  245   [8]  80 0A 81 7E 7F 7C 40 84
  can0  073   [8]  06 24 79 6B 00 80 90 83
  can0  003   [8]  0F EE 10 00 04 FF 00 A4
  can0  75E   [8]  00 81 00 2D 18 18 18 18
  can0  005   [8]  00 00 00 00 1D 00 58 A1
  can0  37D   [8]  02 00 04 AA 10 00 FF FF
  can0  073   [8]  06 24 79 6B 00 80 A0 C9
  can0  766   [8]  00 00 00 00 00 00 0D 08
  can0  003   [8]  0F EE 10 00 04 FF 10 69
  can0  105   [8]  02 64 7F 00 00 96 83 C8
  can0  75E   [8]  00 81 00 2D 18 18 18 18
  can0  35C   [8]  02 00 E0 00 00 FF FF 01
  can0  201   [8]  07 09 08 09 FF FF 50 2F
  can0  001   [8]  CC 81 1F AE AA 03 40 08
  can0  203   [8]  00 00 00 00 C0 00 C0 00
  can0  245   [8]  80 0F 81 7E 7F 7C 50 84
  can0  3D3   [4]  C0 00 00 00
  can0  073   [8]  06 24 79 6B 00 80 B0 04
  can0  12D   [8]  01 0F 00 00 50 53 56 79
  can0  003   [8]  0F EE 10 00 04 FF 20 23
  can0  75E   [8]  00 81 00 2D 18 18 18 18
  can0  30D   [8]  7D 5B 7C FF FF 01 F4 81
  can0  005   [8]  00 00 00 00 1D 00 68 EB
  can0  39D   [8]  20 02 01 31 FF 0E 00 3F
  can0  073   [8]  06 24 79 6B 00 80 C0 5D
  can0  766   [8]  00 00 00 00 00 00 0D 08
  can0  003   [8]  0F EE 10 00 04 FF 30 EE
  can0  045   [8]  00 FF 00 00 00 00 80 25
  can0  34E   [8]  00 00 A3 00 00 A3 11 40
  can0  105   [8]  02 64 7F 00 00 96 93 05
  can0  75E   [8]  00 81 00 2D 18 18 18 18
  can0  201   [8]  07 09 08 09 FF FF 60 65
  can0  203   [8]  00 00 00 00 C0 00 C0 00
  can0  245   [8]  80 13 81 7E 80 7D 60 84
  can0  007   [8]  F0 05 38 00 3F FC AF 79
  can0  073   [8]  06 24 79 6B 00 80 D0 90
  can0  003   [8]  0F EE 10 00 04 FF 40 B7
  can0  33D   [8]  00 42 00 00 64 00 00 00
  can0  005   [8]  00 00 00 00 1D 00 78 26
  can0  75E   [8]  00 81 00 2D 18 18 18 18
  can0  205   [8]  06 93 0C 00 00 00 00 00
  can0  375   [8]  13 10 35 3F 3F 07 00 00
  can0  073   [8]  06 24 79 6B 00 80 E0 DA
  can0  766   [8]  00 00 00 00 00 00 0D 08
  can0  003   [8]  0F EE 10 00 04 FF 50 7A
  can0  105   [8]  02 66 7F 00 00 96 A3 C3
  can0  201   [8]  07 09 08 09 FF FF 70 A8
  can0  75E   [8]  00 81 00 2D 18 18 18 18
  can0  203   [8]  00 00 00 00 C0 00 C0 00
  can0  76E   [8]  00 00 00 00 00 00 00 00
  can0  245   [8]  80 0E 81 7E 80 7E 70 84
  can0  34F   [8]  10 8E 00 8E 03 E7 07 FF
  can0  004   [5]  01 00 00 7D 07
  can0  073   [8]  06 24 79 6B 00 80 F0 17
  can0  388   [8]  36 FF 1F CF FF 0F 07 FF
  can0  003   [8]  0F EE 10 00 04 FF 60 30
  can0  249   [8]  1C 6F 00 20 7D 00 FF FF
  can0  005   [8]  00 00 00 00 1D 00 88 59
  can0  04B   [6]  01 00 0C 06 FF 04
  can0  75E   [8]  00 81 00 2D 18 18 18 18
  can0  073   [8]  06 24 79 6B 00 80 00 68
  can0  283   [8]  F6 0D 08 03 C0 6C 3F FF
  can0  766   [8]  00 00 00 00 00 00 0D 08
  can0  003   [8]  0F EE 10 00 04 FF 70 FD
  can0  105   [8]  02 67 7F 00 00 96 B3 48
  can0  201   [8]  07 09 08 09 FF FF 80 D7
  can0  247   [8]  00 00 00 06 00 18 00 00
  can0  203   [8]  00 00 00 00 C0 00 C0 00
  can0  245   [8]  80 07 81 7E 80 7E 80 84
  can0  75E   [8]  00 81 00 2D 18 18 18 18
  can0  073   [8]  06 24 79 6B 00 80 10 A5
  can0  003   [8]  0F EE 10 00 04 FF 80 82
  can0  005   [8]  00 00 00 00 1D 00 98 94
  can0  75E   [8]  00 81 00 2D 18 18 18 18
  can0  413   [8]  FD 00 04 0F 10 00 00 05
  can0  073   [8]  06 24 79 6B 00 80 20 EF
  can0  766   [8]  00 00 00 00 00 00 0D 08
  can0  003   [8]  0F EE 10 00 04 FF 90 4F
  can0  105   [8]  02 67 7F 00 00 96 C3 11
  can0  201   [8]  07 09 08 09 FF FF 90 1A
  can0  203   [8]  00 00 00 00 C0 00 C0 00
  can0  245   [8]  7F FF 81 7E 80 7D 90 84
  can0  75E   [8]  00 81 00 2D 18 18 18 18
  can0  073   [8]  06 24 79 6B 00 80 30 22
  can0  003   [8]  0F EE 10 00 04 FF A0 05
  can0  005   [8]  00 00 00 00 1D 00 A8 DE
  can0  75E   [8]  00 81 00 2D 18 18 18 18
  can0  073   [8]  06 24 79 6B 00 80 40 7B
  can0  766   [8]  00 00 00 00 00 00 0D 08
  can0  003   [8]  0F EE 10 00 04 FF B0 C8
  can0  105   [8]  02 66 7F 00 00 96 D3 9A
  can0  201   [8]  07 09 09 0A FF FF A0 80
  can0  203   [8]  00 00 00 00 C0 00 C0 00
  can0  245   [8]  7F F1 81 7E 7F 7D A0 84
  can0  001   [8]  CC 81 1F AE AA 03 50 C5
  can0  75E   [8]  00 81 00 2D 18 18 18 18
  can0  1C0   [2]  00 00
  can0  073   [8]  06 24 79 6B 00 80 50 B6
  can0  12D   [8]  01 0F 00 00 50 53 56 79
  can0  003   [8]  0F EE 10 00 04 FF C0 91
  can0  30D   [8]  7D 5B 7C FF FF 01 F4 81
  can0  005   [8]  00 00 00 00 1D 00 B8 13
  can0  3D1   [4]  C9 0A 00 00
  can0  39D   [8]  20 02 01 31 FF 0E 00 47
  can0  75E   [8]  00 81 00 2D 18 18 18 18
  can0  073   [8]  06 24 79 6B 00 80 60 FC
  can0  003   [8]  0F EE 10 00 04 FF D0 5C
  can0  766   [8]  00 00 00 00 00 00 0D 08
  can0  045   [8]  00 FF 00 00 00 00 90 E8
  can0  34E   [8]  00 00 A3 00 00 A3 11 40
  can0  105   [8]  02 68 7F 00 00 96 E3 53
  can0  201   [8]  07 09 09 0A FF FF B0 4D
  can0  203   [8]  00 00 00 00 C0 00 C0 00
  can0  245   [8]  7F F0 81 7E 7F 7C B0 84
  can0  007   [8]  F0 05 38 00 3F FC AF 79
  can0  75E   [8]  00 81 00 2D 18 18 18 18
  can0  073   [8]  06 24 79 6B 00 80 70 31
  can0  003   [8]  0F EE 10 00 04 FF E0 16
  can0  34D   [2]  10 00
  can0  33D   [8]  00 42 00 00 64 00 00 00
  can0  005   [8]  00 00 00 00 1D 00 C8 4A
  can0  205   [8]  06 93 0C 00 00 00 00 00
  can0  336   [8]  62 42 00 00 00 00 00 00
  can0  75E   [8]  00 81 00 2D 18 18 18 18
  can0  3F6   [5]  02 00 00 00 00
  can0  375   [8]  13 10 35 3F 3F 07 00 00
  can0  073   [8]  06 24 79 6B 00 80 80 4E
  can0  003   [8]  0F EE 10 00 04 FF F0 DB
  can0  766   [8]  00 00 00 00 00 00 0D 08
  can0  105   [8]  02 68 7F 00 00 96 F3 9E
  can0  201   [8]  07 09 09 0A FF FF C0 14
  can0  203   [8]  00 00 00 00 C0 00 C0 00
  can0  245   [8]  7F F8 81 7E 7F 7C C0 84
  can0  34F   [8]  10 8E 00 8E 03 E7 07 FF
  can0  073   [8]  06 24 79 6B 00 80 90 83
  can0  75E   [8]  00 81 00 2D 18 18 18 18
  can0  76E   [8]  00 00 00 00 00 00 00 00
  can0  003   [8]  0F EE 10 00 04 FF 00 A4
  can0  388   [8]  36 FF 1F CF FF 0F 07 FF
  can0  249   [8]  25 0F 00 28 39 00 FF FF
  can0  005   [8]  00 00 00 00 1D 00 D8 87
  can0  002   [5]  02 00 A0 32 07
  can0  073   [8]  06 24 79 6B 00 80 A0 C9
  can0  04B   [6]  01 00 0C 06 FF 04
  can0  75E   [8]  00 81 00 2D 18 18 18 18
  can0  003   [8]  0F EE 10 00 04 FF 10 69
  can0  283   [8]  F6 0D 08 03 C0 6C 3F FF
  can0  105   [8]  02 6A 7F 00 00 96 03 6D
  can0  766   [8]  00 00 00 00 00 00 0D 08
  can0  201   [8]  07 09 09 0A FF FF D0 D9
  can0  400   [8]  FD 13 04 0F E0 81 00 05
  can0  203   [8]  00 00 00 00 C0 00 C0 00
  can0  247   [8]  00 00 00 06 00 18 00 00
  can0  245   [8]  80 01 81 7E 7F 7C D0 84
  can0  073   [8]  06 24 79 6B 00 80 B0 04
  can0  068   [1]  01
  can0  75E   [8]  00 81 00 2D 18 18 18 18
  can0  003   [8]  0F EE 10 00 04 FF 20 23
  can0  10C   [8]  3B 7F FF 07 03 FF C3 67
  can0  328   [2]  07 60
  can0  005   [8]  00 00 00 00 1D 00 E8 CD
  can0  073   [8]  06 24 79 6B 00 80 C0 5D
  can0  2EF   [8]  F7 00 FF 0F FF FF FF 00
  can0  20E   [8]  3F 00 01 F0 FF FF 3F 68
  can0  75E   [8]  00 81 00 2D 18 18 18 18
  can0  003   [8]  0F EE 10 00 04 FF 30 EE
  can0  105   [8]  02 6A 7F 00 00 96 13 A0
  can0  351   [8]  00 00 00 00 00 00 00 00
  can0  766   [8]  00 00 00 00 00 00 0D 08
  can0  10E   [4]  00 C0 00 02
  can0  201   [8]  07 09 09 0A FF FF E0 93
  can0  203   [8]  00 00 00 00 C0 00 C0 00
  can0  245   [8]  80 0A 81 7E 7F 7C E0 84
  can0  073   [8]  06 24 79 6B 00 80 D0 90
  can0  10D   [4]  00 80 3A 00
  can0  75E   [8]  00 81 00 2D 18 18 18 18
  can0  776   [8]  00 00 00 00 00 00 00 00
  can0  003   [8]  0F EE 10 00 04 FF 40 B7
  can0  005   [8]  00 00 00 00 1D 00 F8 00
  can0  208   [8]  1F 40 11 80 00 06 40 A8
  can0  37D   [8]  02 00 04 AB 10 00 FF FF
  can0  073   [8]  06 24 79 6B 00 80 E0 DA
  can0  207   [8]  10 09 3D 22 0F CB 4D AC
  can0  75E   [8]  00 81 00 2D 18 18 18 18
  can0  003   [8]  0F EE 10 00 04 FF 50 7A
  can0  105   [8]  02 69 7F 00 00 96 23 20
  can0  206   [8]  00 00 0D 20 C1 80 D2 CC
  can0  201   [8]  07 09 09 0A FF FF F0 5E
  can0  35C   [8]  02 00 E0 00 00 FF FF 01
  can0  203   [8]  00 00 00 00 C0 00 C0 00
  can0  766   [8]  00 00 00 00 00 00 0D 08
  can0  001   [8]  CC 81 1F AE AA 03 60 8F
  can0  245   [8]  80 11 81 7E 7F 7D F0 84
  can0  073   [8]  06 24 79 6B 00 80 F0 17
  can0  3D3   [4]  C0 00 00 00
  can0  20A   [8]  FA FF 00 FC FF FF FF 7F
  can0  75E   [8]  00 81 00 2D 18 18 18 18
  can0  003   [8]  0F EE 10 00 04 FF 60 30
  can0  12D   [8]  01 0F 00 00 50 53 56 79
  can0  317   [2]  0A 00
  can0  30D   [8]  7D 5B 7C FF FF 01 F4 81
  can0  005   [8]  00 00 00 00 1D 00 08 7F
  can0  39D   [8]  20 02 01 31 FF 0E 00 4F
  can0  073   [8]  06 24 79 6B 00 80 00 68
  can0  75E   [8]  00 81 00 2D 18 18 18 18
  can0  003   [8]  0F EE 10 00 04 FF 70 FD
  can0  045   [8]  00 FF 00 00 00 00 A0 A2
  can0  34E   [8]  00 00 A3 00 00 A3 11 40
  can0  30E   [8]  0C 00 00 00 00 05 FF 03
  can0  105   [8]  02 6A 7F 00 00 96 33 27
  can0  201   [8]  07 09 09 0A FF FF 00 21
  can0  203   [8]  00 00 00 00 C0 00 C0 00
  can0  245   [8]  80 19 81 7E 7F 7D 00 84
  can0  007   [8]  F0 05 38 00 3F FC AF 79
  can0  766   [8]  00 00 00 00 00 00 0D 08
  can0  073   [8]  06 24 79 6B 00 80 10 A5
  can0  003   [8]  0F EE 10 00 04 FF 80 82
  can0  75E   [8]  00 81 00 2D 18 18 18 18
  can0  33D   [8]  00 42 00 00 64 00 00 00
  can0  005   [8]  00 00 00 00 1D 00 18 B2
  can0  205   [8]  06 93 0C 00 00 00 00 00
  can0  375   [8]  13 10 35 3F 3F 07 00 00
  can0  073   [8]  06 24 79 6B 00 80 20 EF
  can0  003   [8]  0F EE 10 00 04 FF 90 4F
  can0  75E   [8]  00 81 00 2D 18 18 18 18
  can0  105   [8]  02 6A 7F 00 00 96 43 7E
  can0  34F   [8]  10 8E 00 8E 03 E7 07 FF
  can0  201   [8]  07 09 09 0A FF FF 10 EC
  can0  203   [8]  00 00 00 00 C0 00 C0 00
  can0  245   [8]  80 1D 81 7E 80 7D 10 84
  can0  073   [8]  06 24 79 6B 00 80 30 22
  can0  766   [8]  00 00 00 00 00 00 0D 08
  can0  003   [8]  0F EE 10 00 04 FF A0 05
  can0  75E   [8]  00 81 00 2D 18 18 18 18
  can0  249   [8]  2C A1 00 30 2C 00 FF FF
  can0  76E   [8]  00 00 00 00 00 00 00 00
  can0  005   [8]  00 00 00 00 1D 00 28 F8
  can0  413   [8]  FD 00 04 0F 10 00 00 05
  can0  073   [8]  06 24 79 6B 00 80 40 7B
  can0  388   [8]  36 FF 1F CF FF 0F 07 FF
  can0  003   [8]  0F EE 10 00 04 FF B0 C8
  can0  105   [8]  02 6B 7F 00 00 96 53 F5
  can0  04B   [6]  01 00 0C 06 FF 04
  can0  75E   [8]  00 81 00 2D 18 18 18 18
  can0  201   [8]  07 09 09 0A FF FF 20 A6
  can0  247   [8]  00 00 00 06 00 18 00 00
  can0  203   [8]  00 00 00 00 C0 00 C0 00
  can0  245   [8]  80 15 81 7E 80 7C 20 84
  can0  073   [8]  06 24 79 6B 00 80 50 B6
  can0  283   [8]  F6 0D 08 03 C0 6C 3F FF
  can0  766   [8]  00 00 00 00 00 00 0D 08
  can0  003   [8]  0F EE 10 00 04 FF C0 91
  can0  2FF   [8]  02 28 00 FF FF FF FF FE
  can0  005   [8]  00 00 00 00 1D 00 38 35
  can0  75E   [8]  00 81 00 2D 18 18 18 18
  can0  073   [8]  06 24 79 6B 00 80 60 FC
  can0  003   [8]  0F EE 10 00 04 FF D0 5C
  can0  105   [8]  02 69 7F 00 00 96 63 33
  can0  75E   [8]  00 81 00 2D 18 18 18 18
  can0  201   [8]  07 09 09 0A FF FF 30 6B
  can0  203   [8]  00 00 00 00 C0 00 C0 00
  can0  245   [8]  80 0B 81 7E 7F 7C 30 84
  can0  073   [8]  06 24 79 6B 00 80 70 31
  can0  766   [8]  00 00 00 00 00 00 0D 08
  can0  003   [8]  0F EE 10 00 04 FF E0 16
  can0  005   [8]  00 00 00 00 1D 00 48 6C
  can0  75E   [8]  00 81 00 2D 18 18 18 18
  can0  073   [8]  06 24 79 6B 00 80 80 4E
  can0  003   [8]  0F EE 10 00 04 FF F0 DB
  can0  105   [8]  02 69 7F 00 00 96 73 FE
  can0  201   [8]  07 09 09 0A FF FF 40 32
  can0  001   [8]  CC 81 1F AE AA 03 70 42
  can0  203   [8]  00 00 00 00 C0 00 C0 00
  can0  245   [8]  80 06 81 7E 7F 7C 40 84
  can0  75E   [8]  00 81 00 2D 18 18 18 18
  can0  073   [8]  06 24 79 6B 00 80 90 83
  can0  12D   [8]  01 0F 00 00 50 53 56 79
  can0  766   [8]  00 00 00 00 00 00 0D 08
  can0  003   [8]  0F EE 10 00 04 FF 00 A4
  can0  30D   [8]  7D 5B 7C FF FF 01 EF 81
  can0  005   [8]  00 00 00 00 1D 00 58 A1
  can0  75E   [8]  00 81 00 2D 18 18 18 18
  can0  3D1   [4]  C9 0A 00 00
  can0  39D   [8]  20 02 01 31 FF 0E 00 57
  can0  073   [8]  06 24 79 6B 00 80 A0 C9
  can0  003   [8]  0F EE 10 00 04 FF 10 69
  can0  045   [8]  00 FF 00 00 00 00 B0 6F
  can0  34E   [8]  00 00 A3 00 00 A3 11 40
  can0  105   [8]  02 69 7F 00 00 96 83 81
  can0  201   [8]  07 09 09 0A FF FF 50 FF
  can0  203   [8]  00 00 00 00 C0 00 C0 00
  can0  245   [8]  7F F9 81 7E 7F 7D 50 84
  can0  007   [8]  F0 05 38 00 3F FC AF 79
  can0  75E   [8]  00 81 00 2D 18 18 18 18
  can0  073   [8]  06 24 79 6B 00 80 B0 04
  can0  766   [8]  00 00 00 00 00 00 0D 08
  can0  003   [8]  0F EE 10 00 04 FF 20 23
  can0  33D   [8]  00 42 00 00 64 00 00 00
  can0  3F2   [8]  00 26 00 0C 00 00 3F FD
  can0  005   [8]  00 00 00 00 1D 00 68 EB
  can0  75E   [8]  00 81 00 2D 18 18 18 18
  can0  205   [8]  06 93 0C 00 00 00 00 00
  can0  375   [8]  13 10 35 3F 3F 07 00 00
  can0  073   [8]  06 24 79 6B 00 80 C0 5D
  can0  336   [8]  62 42 00 00 00 00 00 00
  can0  3F6   [5]  02 00 00 00 00
  can0  003   [8]  0F EE 10 00 04 FF 30 EE
  can0  105   [8]  02 69 7F 00 00 96 93 4C
  can0  201   [8]  07 09 09 0A FF FF 60 B5
  can0  203   [8]  00 00 00 00 C0 00 C0 00
  can0  245   [8]  7F EE 81 7E 7F 7D 60 84
  can0  75E   [8]  00 81 00 2D 18 18 18 18
  can0  34F   [8]  10 8E 00 8E 03 E7 07 FF
  can0  073   [8]  06 24 79 6B 00 80 D0 90
  can0  766   [8]  00 00 00 00 00 00 0D 08
  can0  003   [8]  0F EE 10 00 04 FF 40 B7
  can0  400   [8]  FD 13 04 0F E0 81 00 05
  can0  1C1   [4]  00 00 00 00
  can0  249   [8]  34 B3 00 3A 51 00 FF FF
  can0  005   [8]  00 00 00 00 1D 00 78 26
  can0  75E   [8]  00 81 00 2D 18 18 18 18
  can0  76E   [8]  00 00 00 00 00 00 00 00
  can0  073   [8]  06 24 79 6B 00 80 E0 DA
  can0  388   [8]  36 FF 1F CF FF 0F 07 FF
  can0  003   [8]  0F EE 10 00 04 FF 50 7A
  can0  105   [8]  02 67 7F 00 00 96 A3 85
  can0  201   [8]  07 09 09 0A FF FF 70 78
  can0  247   [8]  00 00 00 06 00 18 00 00
  can0  203   [8]  00 00 00 00 C0 00 C0 00
  can0  245   [8]  7F EB 81 7E 7E 7D 70 84
  can0  04B   [6]  01 00 0C 06 FF 04
  can0  75E   [8]  00 81 00 2D 18 18 18 18
  can0  39F   [8]  10 30 0E 02 0B 19 0A FF
  can0  073   [8]  06 24 79 6B 00 80 F0 17
  can0  003   [8]  0F EE 10 00 04 FF 60 30
  can0  283   [8]  F6 0D 08 03 C0 6C 3F FF
  can0  19F   [8]  00 00 84 F0 3D 22 61 ED
  can0  766   [8]  00 00 00 00 00 00 0D 08
  can0  328   [2]  07 60
  can0  005   [8]  00 00 00 00 1D 00 88 59
  can0  26F   [2]  6F C0
  can0  068   [1]  01
  can0  75E   [8]  00 81 00 2D 18 18 18 18
  can0  073   [8]  06 24 79 6B 00 80 00 68
  can0  2EF   [8]  F7 00 FF 0F FF FF FF 00
  can0  003   [8]  0F EE 10 00 04 FF 70 FD
  can0  10C   [8]  3B 7F FF 07 03 FF C3 67
  can0  105   [8]  02 67 7F 00 00 96 B3 48
  can0  201   [8]  07 09 09 0A FF FF 80 07
  can0  203   [8]  00 00 00 00 C0 00 C0 00
  can0  245   [8]  7F EC 81 7E 7F 7D 80 84
  can0  20E   [8]  3F 00 01 F0 FF FF 3F 68
  can0  75E   [8]  00 81 00 2D 18 18 18 18
  can0  073   [8]  06 24 79 6B 00 80 10 A5
  can0  003   [8]  0F EE 10 00 04 FF 80 82
  can0  351   [8]  00 00 00 00 00 00 00 00
  can0  766   [8]  00 00 00 00 00 00 0D 08
  can0  005   [8]  00 00 00 00 1D 00 98 94
  can0  37D   [8]  02 00 04 AA 10 00 FF FF
  can0  75E   [8]  00 81 00 2D 18 18 18 18
  can0  776   [8]  00 00 00 00 00 00 00 00
  can0  073   [8]  06 24 79 6B 00 80 20 EF
  can0  003   [8]  0F EE 10 00 04 FF 90 4F
  can0  105   [8]  02 67 7F 00 00 96 C3 11
  can0  35C   [8]  02 00 E0 00 00 FF FF 01
  can0  201   [8]  07 09 09 0A FF FF 90 CA
  can0  001   [8]  CC 81 1F AE AA 03 80 3D
  can0  203   [8]  00 00 00 00 C0 00 C0 00
  can0  245   [8]  7F F3 81 7E 7F 7D 90 84
  can0  3D3   [4]  C0 00 00 00
  can0  073   [8]  06 24 79 6B 00 80 30 22
  can0  75E   [8]  00 81 00 2D 18 18 18 18
  can0  12D   [8]  01 0F 00 00 50 53 56 79
  can0  003   [8]  0F EE 10 00 04 FF A0 05
  can0  2C4   [8]  00 00 FC 3F 7F FF 3F FF
  can0  30D   [8]  7D 5B 7C FF FF 01 F4 81
  can0  766   [8]  00 00 00 00 00 00 0D 08
  can0  005   [8]  00 00 00 00 1D 00 A8 DE
  can0  3E3   [8]  5A FC B9 6F 29 CF DC FD
  can0  39D   [8]  20 02 01 31 FF 0E 00 5F
  can0  073   [8]  06 24 79 6B 00 80 40 7B
  can0  75E   [8]  00 81 00 2D 18 18 18 18
  can0  003   [8]  0F EE 10 00 04 FF B0 C8
  can0  045   [8]  00 FF 00 00 00 00 C0 36
  can0  34E   [8]  00 00 A3 00 00 A3 11 40
  can0  105   [8]  02 68 7F 00 00 96 D3 19
  can0  3E5   [8]  0C 14 0A 14 04 FF FF 00
  can0  201   [8]  07 09 09 0A FF FF A0 80
  can0  3E7   [8]  5A FC B8 AB 29 CF DE 92
  can0  203   [8]  00 00 00 00 C0 00 C0 00
  can0  245   [8]  80 05 81 7E 7F 7C A0 84
  can0  007   [8]  F0 05 38 00 3F FC AF 79
  can0  073   [8]  06 24 79 6B 00 80 50 B6
  can0  75E   [8]  00 81 00 2D 18 18 18 18
  can0  003   [8]  0F EE 10 00 04 FF C0 91
  can0  33D   [8]  00 42 00 00 64 00 00 00
  can0  005   [8]  00 00 00 00 1D 00 B8 13
  can0  3E9   [8]  07 E9 0B 03 00 30 05 78
  can0  766   [8]  00 00 00 00 00 00 0D 08
  can0  3EB   [8]  00 01 00 00 0D 30 0D 8D
  can0  205   [8]  06 93 0C 00 00 00 00 00
  can0  073   [8]  06 24 79 6B 00 80 60 FC
  can0  375   [8]  13 10 35 3F 3F 07 00 00
  can0  75E   [8]  00 81 00 2D 18 18 18 18
  can0  003   [8]  0F EE 10 00 04 FF D0 5C
  can0  105   [8]  02 68 7F 00 00 96 E3 53
  can0  201   [8]  07 09 09 0A FF FF B0 4D
  can0  203   [8]  00 00 00 00 C0 00 C0 00
  can0  245   [8]  80 13 81 7E 80 7C B0 84
  can0  34F   [8]  10 8E 00 8E 03 E7 07 FF
  can0  413   [8]  FD 00 04 0F 10 00 00 05
  can0  073   [8]  06 24 79 6B 00 80 70 31
  can0  75E   [8]  00 81 00 2D 18 18 18 18
  can0  003   [8]  0F EE 10 00 04 FF E0 16
  can0  249   [8]  3F E8 00 FF FF 00 03 FF
  can0  005   [8]  00 00 00 00 1D 00 C8 4A
  can0  766   [8]  00 00 00 00 00 00 0D 08
  can0  073   [8]  06 24 79 6B 00 80 80 4E
  can0  75E   [8]  00 81 00 2D 18 18 18 18
  can0  76E   [8]  00 00 00 00 00 00 00 00
  can0  003   [8]  0F EE 10 00 04 FF F0 DB
  can0  105   [8]  02 6A 7F 00 00 96 F3 12
  can0  201   [8]  07 09 09 0A FF FF C0 14
  can0  247   [8]  00 00 00 06 00 18 00 00
  can0  203   [8]  00 00 00 00 C0 00 C0 00
  can0  245   [8]  80 17 81 7E 80 7D C0 84
  can0  388   [8]  36 FF 1F CF FF 0F 07 FF
  can0  073   [8]  06 24 79 6B 00 80 90 83
  can0  04B   [6]  01 00 0C 06 FF 04
  can0  75E   [8]  00 81 00 2D 18 18 18 18
  can0  003   [8]  0F EE 10 00 04 FF 00 A4
  can0  005   [8]  00 00 00 00 1D 00 D8 87
  can0  283   [8]  F6 0D 08 03 C0 6C 3F FF
  can0  766   [8]  00 00 00 00 00 00 0D 08
  can0  073   [8]  06 24 79 6B 00 80 A0 C9
  can0  75E   [8]  00 81 00 2D 18 18 18 18
  can0  003   [8]  0F EE 10 00 04 FF 10 69
  can0  105   [8]  02 69 7F 00 00 96 03 A7
  can0  201   [8]  07 09 09 0A FF FF D0 D9
  can0  203   [8]  00 00 00 00 C0 00 C0 00
  can0  245   [8]  80 17 81 7E 80 7D D0 84
  can0  073   [8]  06 24 79 6B 00 80 B0 04
  can0  75E   [8]  00 81 00 2D 18 18 18 18
  can0  003   [8]  0F EE 10 00 04 FF 20 23
  can0  005   [8]  00 00 00 00 1D 00 E8 CD
  can0  766   [8]  00 00 00 00 00 00 0D 08
  can0  073   [8]  06 24 79 6B 00 80 C0 5D
  can0  75E   [8]  00 81 00 2D 18 18 18 18
  can0  003   [8]  0F EE 10 00 04 FF 30 EE
  can0  105   [8]  02 69 7F 00 00 96 13 6A
  can0  201   [8]  07 09 09 0A FF FF E0 93
  can0  001   [8]  CC 81 1F AE AA 03 90 F0
  can0  203   [8]  00 00 00 00 C0 00 C0 00
  can0  245   [8]  80 13 81 7E 80 7C E0 84
  can0  073   [8]  06 24 79 6B 00 80 D0 90
  can0  12D   [8]  01 0F 00 00 50 53 56 79
  can0  75E   [8]  00 81 00 2D 18 18 18 18
  can0  003   [8]  0F EE 10 00 04 FF 40 B7
  can0  30D   [8]  7D 5B 7C FF FF 01 F4 81
  can0  005   [8]  00 00 00 00 1D 00 F8 00
  can0  766   [8]  00 00 00 00 00 00 0D 08
  can0  3D1   [4]  C9 0A 00 00
  can0  39D   [8]  20 02 01 31 FF 0E 00 67
  can0  073   [8]  06 24 79 6B 00 80 E0 DA
  can0  75E   [8]  00 81 00 2D 18 18 18 18
  can0  003   [8]  0F EE 10 00 04 FF 50 7A
  can0  045   [8]  00 FF 00 00 00 00 D0 FB
  can0  34E   [8]  00 00 A3 00 00 A3 11 40
  can0  105   [8]  02 6A 7F 00 00 96 23 EA
  can0  201   [8]  08 09 09 0A FF FF F0 02
  can0  203   [8]  00 00 00 00 C0 00 C0 00
  can0  245   [8]  80 0A 81 7E 80 7D F0 84
  can0  007   [8]  F0 05 38 00 3F FC AF 79
  can0  073   [8]  06 24 79 6B 00 80 F0 17
  can0  75E   [8]  00 81 00 2D 18 18 18 18
  can0  003   [8]  0F EE 10 00 04 FF 60 30
  can0  33D   [8]  00 42 00 00 64 00 00 00
  can0  005   [8]  00 00 00 00 1D 00 08 7F
  can0  205   [8]  06 93 0C 00 00 00 00 00
  can0  766   [8]  00 00 00 00 00 00 0D 08
  can0  336   [8]  62 42 00 00 00 00 00 00
  can0  400   [8]  FD 13 04 0F E0 81 00 05
  can0  3F6   [5]  02 00 00 00 00
  can0  073   [8]  06 24 79 6B 00 80 00 68
  can0  375   [8]  13 10 35 3F 3F 07 00 00
  can0  003   [8]  0F EE 10 00 04 FF 70 FD
  can0  75E   [8]  00 81 00 2D 18 18 18 18
  can0  105   [8]  02 69 7F 00 00 96 33 ED
  can0  201   [8]  08 09 09 0A FF FF 00 7D
  can0  203   [8]  00 00 00 00 C0 00 C0 00
  can0  245   [8]  80 06 81 7E 80 7D 00 84
  can0  34F   [8]  10 8E 00 8E 03 E7 07 FF
  can0  004   [5]  01 00 00 7D 07
  can0  073   [8]  06 24 79 6B 00 80 10 A5
  can0  003   [8]  0F EE 10 00 04 FF 80 82
  can0  75E   [8]  00 81 00 2D 18 18 18 18
  can0  249   [8]  07 E8 00 0B E8 00 FF FF
  can0  005   [8]  00 00 00 00 1D 00 18 B2
  can0  766   [8]  00 00 00 00 00 00 0D 08
  can0  073   [8]  06 24 79 6B 00 80 20 EF
  can0  003   [8]  0F EE 10 00 04 FF 90 4F
  can0  75E   [8]  00 81 00 2D 18 18 18 18
  can0  76E   [8]  00 00 00 00 00 00 00 00
  can0  105   [8]  02 69 7F 00 00 96 43 B4
  can0  201   [8]  08 09 09 0A FF FF 10 B0
  can0  203   [8]  00 00 00 00 C0 00 C0 00
  can0  247   [8]  00 00 00 06 00 18 00 00
  can0  245   [8]  7F FE 81 7E 7F 7D 10 84
  can0  073   [8]  06 24 79 6B 00 80 30 22
  can0  388   [8]  36 FF 1F CF FF 0F 07 FF
  can0  003   [8]  0F EE 10 00 04 FF A0 05
  can0  328   [2]  07 60
  can0  04B   [6]  01 00 0C 06 FF 04
  can0  75E   [8]  00 81 00 2D 18 18 18 18
  can0  005   [8]  00 00 00 00 1D 00 28 F8
  can0  2EF   [8]  F7 00 FF 0F FF FF FF 00
  can0  073   [8]  06 24 79 6B 00 80 40 7B
  can0  283   [8]  F6 0D 08 03 C0 6C 3F FF
  can0  766   [8]  00 00 00 00 00 00 0D 08
  can0  003   [8]  0F EE 10 00 04 FF B0 C8
  can0  068   [1]  01
  can0  75E   [8]  00 81 00 2D 18 18 18 18
  can0  105   [8]  02 69 7F 00 00 96 53 79
  can0  201   [8]  08 09 09 0A FF FF 20 FA
  can0  203   [8]  00 00 00 00 C0 00 C0 00
  can0  245   [8]  7F FB 81 7E 7F 7C 20 84
  can0  073   [8]  06 24 79 6B 00 80 50 B6
  can0  10C   [8]  3B 7F FF 07 03 FF C3 67
  can0  003   [8]  0F EE 10 00 04 FF C0 91
  can0  20E   [8]  3F 00 01 F0 FF FF 3F 68
  can0  005   [8]  00 00 00 00 1D 00 38 35
  can0  75E   [8]  00 81 00 2D 18 18 18 18
  can0  37D   [8]  02 00 04 AA 10 00 FF FF
  can0  073   [8]  06 24 79 6B 00 80 60 FC
  can0  351   [8]  00 00 00 00 00 00 00 00
  can0  766   [8]  00 00 00 00 00 00 0D 08
  can0  003   [8]  0F EE 10 00 04 FF D0 5C
  can0  105   [8]  02 69 7F 00 00 96 63 33
  can0  75E   [8]  00 81 00 2D 18 18 18 18
  can0  776   [8]  00 00 00 00 00 00 00 00
  can0  35C   [8]  02 00 E0 00 00 FF FF 01
  can0  201   [8]  08 09 09 0A FF FF 30 37
  can0  001   [8]  CC 81 1F AE AA 03 A0 BA
  can0  203   [8]  00 00 00 00 C0 00 C0 00
  can0  245   [8]  7F FD 81 7E 7F 7C 30 84
  can0  3D3   [4]  C0 00 00 00
  can0  073   [8]  06 24 79 6B 00 80 70 31
  can0  12D   [8]  01 0F 00 00 50 53 56 79
  can0  003   [8]  0F EE 10 00 04 FF E0 16
  can0  30D   [8]  7D 5B 7C FF FF 01 EF 81
  can0  005   [8]  00 00 00 00 1D 00 48 6C
  can0  75E   [8]  00 81 00 2D 18 18 18 18
  can0  39D   [8]  20 02 01 31 FF 0E 00 6F
  can0  073   [8]  06 24 79 6B 00 80 80 4E
  can0  766   [8]  00 00 00 00 00 00 0D 08
  can0  003   [8]  0F EE 10 00 04 FF F0 DB
  can0  045   [8]  00 FF 00 00 00 00 E0 B1
  can0  34E   [8]  00 00 A3 00 00 A3 11 40
  can0  105   [8]  02 6A 7F 00 00 96 73 34
  can0  201   [8]  08 09 09 0A FF FF 40 6E
  can0  75E   [8]  00 81 00 2D 18 18 18 18
  can0  203   [8]  00 00 00 00 C0 00 C0 00
  can0  245   [8]  7F F8 81 7E 7F 7C 40 84
  can0  007   [8]  F0 05 38 00 3F FC AF 79
  can0  073   [8]  06 24 79 6B 00 80 90 83
  can0  003   [8]  0F EE 10 00 04 FF 00 A4
  can0  34D   [2]  10 00
  can0  33D   [8]  00 42 00 00 64 00 00 00
  can0  005   [8]  00 00 00 00 1D 00 58 A1
  can0  75E   [8]  00 81 00 2D 18 18 18 18
  can0  205   [8]  06 93 0C 00 00 00 00 00
  can0  413   [8]  FD 00 04 0F 10 00 00 05
  can0  073   [8]  06 24 79 6B 00 80 A0 C9
  can0  375   [8]  13 10 35 3F 3F 07 00 00
  can0  766   [8]  00 00 00 00 00 00 0D 08
  can0  003   [8]  0F EE 10 00 04 FF 10 69
  can0  105   [8]  02 69 7F 00 00 96 83 81
  can0  201   [8]  08 09 0A 0B FF FF 50 80
  can0  203   [8]  00 00 00 00 C0 00 C0 00
  can0  34F   [8]  10 8E 00 8E 03 E7 07 FF
  can0  245   [8]  7F F9 81 7E 7F 7D 50 84
  can0  75E   [8]  00 81 00 2D 18 18 18 18
  can0  073   [8]  06 24 79 6B 00 80 B0 04
  can0  003   [8]  0F EE 10 00 04 FF 20 23
  can0  249   [8]  0F E8 00 13 E8 00 FF FF
  can0  005   [8]  00 00 00 00 1D 00 68 EB
  can0  75E   [8]  00 81 00 2D 18 18 18 18
  can0  002   [5]  02 00 A0 32 07
  can0  073   [8]  06 24 79 6B 00 80 C0 5D
  can0  766   [8]  00 00 00 00 00 00 0D 08
  can0  003   [8]  0F EE 10 00 04 FF 30 EE
  can0  105   [8]  02 69 7F 00 00 96 93 4C
  can0  201   [8]  08 09 0A 0B FF FF 60 CA
  can0  247   [8]  00 00 00 06 00 18 00 00
  can0  203   [8]  00 00 00 00 C0 00 C0 00
  can0  245   [8]  7F FE 81 7E 7F 7D 60 84
  can0  75E   [8]  00 81 00 2D 18 18 18 18
  can0  76E   [8]  00 00 00 00 00 00 00 00
  can0  073   [8]  06 24 79 6B 00 80 D0 90
  can0  388   [8]  36 FF 1F CF FF 0F 07 FF
  can0  003   [8]  0F EE 10 00 04 FF 40 B7
  can0  005   [8]  00 00 00 00 1D 00 78 26
  can0  04B   [6]  01 00 0C 06 FF 04
  can0  75E   [8]  00 81 00 2D 18 18 18 18
  can0  073   [8]  06 24 79 6B 00 80 E0 DA
  can0  283   [8]  F6 0D 08 03 C0 6C 3F FF
  can0  766   [8]  00 00 00 00 00 00 0D 08
  can0  003   [8]  0F EE 10 00 04 FF 50 7A
  can0  105   [8]  02 65 7F 00 00 96 A3 09
  can0  10E   [4]  00 C0 00 02
  can0  201   [8]  08 09 0A 0B FF FF 70 07
  can0  203   [8]  00 00 00 00 C0 00 C0 00
  can0  245   [8]  80 01 81 7E 7F 7D 70 84
  can0  75E   [8]  00 81 00 2D 18 18 18 18
  can0  073   [8]  06 24 79 6B 00 80 F0 17
  can0  10D   [4]  00 80 3A 00
  can0  003   [8]  0F EE 10 00 04 FF 60 30
  can0  005   [8]  00 00 00 00 1D 00 88 59
  can0  75E   [8]  00 81 00 2D 18 18 18 18
  can0  073   [8]  06 24 79 6B 00 80 00 68
  can0  003   [8]  0F EE 10 00 04 FF 70 FD
  can0  766   [8]  00 00 00 00 00 00 0D 08
  can0  105   [8]  02 65 7F 00 00 96 B3 C4
  can0  201   [8]  08 09 0A 0B FF FF 80 78
  can0  001   [8]  CC 81 1F AE AA 03 B0 77
  can0  203   [8]  00 00 00 00 C0 00 C0 00
  can0  245   [8]  80 07 81 7E 80 7E 80 84
  can0  75E   [8]  00 81 00 2D 18 18 18 18
  can0  073   [8]  06 24 79 6B 00 80 10 A5
  can0  12D   [8]  01 0F 00 00 50 53 56 79
  can0  003   [8]  0F EE 10 00 04 FF 80 82
  can0  30D   [8]  7D 5B 7C FF FF 01 F4 81
  can0  005   [8]  00 00 00 00 1D 00 98 94
  can0  3D1   [4]  C9 0A 00 00
  can0  39D   [8]  20 02 01 31 FF 0E 00 77
  can0  75E   [8]  00 81 00 2D 18 18 18 18
  can0  073   [8]  06 24 79 6B 00 80 20 EF
  can0  003   [8]  0F EE 10 00 04 FF 90 4F
  can0  045   [8]  00 FF 00 00 00 00 F0 7C
  can0  34E   [8]  00 00 A3 00 00 A3 11 40
  can0  766   [8]  00 00 00 00 00 00 0D 08
  can0  105   [8]  02 65 7F 00 00 96 C3 9D
  can0  400   [8]  FD 13 04 0F E0 81 00 05
  can0  201   [8]  08 09 0A 0B FF FF 90 B5
  can0  203   [8]  00 00 00 00 C0 00 C0 00
  can0  245   [8]  80 0D 81 7E 80 7E 90 84
  can0  007   [8]  F0 05 38 00 3F FC AF 79
  can0  75E   [8]  00 81 00 2D 18 18 18 18
  can0  073   [8]  06 24 79 6B 00 80 30 22
  can0  003   [8]  0F EE 10 00 04 FF A0 05
  can0  33D   [8]  00 42 00 00 64 00 00 00
  can0  005   [8]  00 00 00 00 1D 00 A8 DE
  can0  205   [8]  06 93 0C 00 00 00 00 00
  can0  75E   [8]  00 81 00 2D 18 18 18 18
  can0  073   [8]  06 24 79 6B 00 80 40 7B
  can0  375   [8]  13 10 35 3F 3F 07 00 00
  can0  336   [8]  62 42 00 00 00 00 00 00
  can0  3F6   [5]  02 00 00 00 00
  can0  003   [8]  0F EE 10 00 04 FF B0 C8
  can0  766   [8]  00 00 00 00 00 00 0D 08
  can0  105   [8]  02 65 7F 00 00 96 D3 50
  can0  201   [8]  08 0A 0A 0B FF FF A0 35
  can0  203   [8]  00 00 00 00 C0 00 C0 00
  can0  245   [8]  80 0F 81 7E 80 7D A0 84
  can0  34F   [8]  10 8E 00 8E 03 E7 07 FF
  can0  073   [8]  06 24 79 6B 00 80 50 B6
  can0  75E   [8]  00 81 00 2D 18 18 18 18
  can0  003   [8]  0F EE 10 00 04 FF C0 91
  can0  249   [8]  15 FC 00 18 5E 00 FF FF
  can0  005   [8]  00 00 00 00 1D 00 B8 13
  can0  073   [8]  06 24 79 6B 00 80 60 FC
  can0  75E   [8]  00 81 00 2D 18 18 18 18
  can0  003   [8]  0F EE 10 00 04 FF D0 5C
  can0  105   [8]  02 65 7F 00 00 96 E3 1A
  can0  766   [8]  00 00 00 00 00 00 0D 08
  can0  201   [8]  08 0A 0A 0B FF FF B0 F8
  can0  203   [8]  00 00 00 00 C0 00 C0 00
  can0  247   [8]  00 00 00 06 00 18 00 00
  can0  245   [8]  80 0E 81 7E 80 7D B0 84
  can0  073   [8]  06 24 79 6B 00 80 70 31
  can0  75E   [8]  00 81 00 2D 18 18 18 18
  can0  76E   [8]  00 00 00 00 00 00 00 00
  can0  003   [8]  0F EE 10 00 04 FF E0 16
  can0  328   [2]  07 60
  can0  005   [8]  00 00 00 00 1D 00 C8 4A
  can0  388   [8]  36 FF 1F CF FF 0F 07 FF
  can0  2EF   [8]  F7 00 FF 0F FF FF FF 00
  can0  073   [8]  06 24 79 6B 00 80 80 4E
  can0  04B   [6]  01 00 0C 06 FF 04
  can0  75E   [8]  00 81 00 2D 18 18 18 18
  can0  003   [8]  0F EE 10 00 04 FF F0 DB
  can0  105   [8]  02 64 7F 00 00 96 F3 91
  can0  201   [8]  08 0A 0A 0B FF FF C0 A1
  can0  203   [8]  00 00 00 00 C0 00 C0 00
  can0  245   [8]  80 0A 81 7E 80 7D C0 84
  can0  283   [8]  F6 0D 08 03 C0 6C 3F FF
  can0  766   [8]  00 00 00 00 00 00 0D 08
  can0  073   [8]  06 24 79 6B 00 80 90 83
  can0  068   [1]  01
  can0  75E   [8]  00 81 00 2D 18 18 18 18
  can0  003   [8]  0F EE 10 00 04 FF 00 A4
  can0  005   [8]  00 00 00 00 1D 00 D8 87
  can0  37D   [8]  02 00 04 AA 10 00 FF FF
  can0  10C   [8]  3B 7F FF 07 03 FF C3 67
  can0  073   [8]  06 24 79 6B 00 80 A0 C9
  can0  003   [8]  0F EE 10 00 04 FF 10 69
  can0  20E   [8]  3F 00 01 F0 FF FF 3F 68
  can0  75E   [8]  00 81 00 2D 18 18 18 18
  can0  105   [8]  02 65 7F 00 00 96 03 A8
  can0  35C   [8]  02 00 E0 00 00 FF FF 01
  can0  201   [8]  08 0A 0A 0B FF FF D0 6C
  can0  001   [8]  CC 81 1F AE AA 03 C0 2E
  can0  203   [8]  00 00 00 00 C0 00 C0 00
  can0  245   [8]  80 01 81 7E 80 7C D0 84
  can0  351   [8]  00 00 00 00 00 00 00 00
  can0  3D3   [4]  C0 00 00 00
  can0  073   [8]  06 24 79 6B 00 80 B0 04
  can0  766   [8]  00 00 00 00 00 00 0D 08
  can0  12D   [8]  01 0F 00 00 50 53 56 79
  can0  003   [8]  0F EE 10 00 04 FF 20 23
  can0  75E   [8]  00 81 00 2D 18 18 18 18
  can0  776   [8]  00 00 00 00 00 00 00 00
  can0  30D   [8]  7D 5B 7C FF FF 01 EF 81
  can0  005   [8]  00 00 00 00 1D 00 E8 CD
  can0  39D   [8]  20 02 01 31 FF 0E 00 7F
  can0  413   [8]  FD 00 04 0F 10 00 00 05
  can0  073   [8]  06 24 79 6B 00 80 C0 5D
  can0  003   [8]  0F EE 10 00 04 FF 30 EE
  can0  045   [8]  00 FF 00 00 00 00 00 03
  can0  34E   [8]  00 00 A3 00 00 A3 11 40
  can0  75E   [8]  00 81 00 2D 18 18 18 18
  can0  105   [8]  02 65 7F 00 00 96 13 65
  can0  201   [8]  09 0B 0A 0B FF FF E0 3D
  can0  203   [8]  00 00 00 00 C0 00 C0 00
  can0  245   [8]  7F F9 81 7E 7F 7C E0 84
  can0  007   [8]  F0 05 38 00 3F FC AF 79
  can0  073   [8]  06 24 79 6B 00 80 D0 90
  can0  766   [8]  00 00 00 00 00 00 0D 08
  can0  003   [8]  0F EE 10 00 04 FF 40 B7
  can0  33D   [8]  00 42 00 00 64 00 00 00
  can0  75E   [8]  00 81 00 2D 18 18 18 18
  can0  005   [8]  00 00 00 00 1D 00 F8 00
  can0  205   [8]  06 93 0C 00 00 00 00 00
  can0  073   [8]  06 24 79 6B 00 80 E0 DA
  can0  375   [8]  13 10 35 3F 3F 07 00 00
  can0  003   [8]  0F EE 10 00 04 FF 50 7A
  can0  105   [8]  02 65 7F 00 00 96 23 2F
  can0  75E   [8]  00 81 00 2D 18 18 18 18
  can0  201   [8]  09 0B 0A 0B FF FF F0 F0
  can0  203   [8]  00 00 00 00 C0 00 C0 00
  can0  245   [8]  7F F9 81 7E 7F 7D F0 84
  can0  34F   [8]  10 8E 00 8E 03 E7 07 FF
  can0  073   [8]  06 24 79 6B 00 80 F0 17
  can0  766   [8]  00 00 00 00 00 00 0D 08
  can0  003   [8]  0F EE 10 00 04 FF 60 30
  can0  1C1   [4]  00 00 00 00
  can0  249   [8]  1C 6F 00 20 7D 00 FF FF
  can0  75E   [8]  00 81 00 2D 18 18 18 18
  can0  005   [8]  00 00 00 00 1D 00 08 7F
  can0  073   [8]  06 24 79 6B 00 80 00 68
  can0  003   [8]  0F EE 10 00 04 FF 70 FD
  can0  105   [8]  02 65 7F 00 00 96 33 E2
  can0  201   [8]  09 0B 0A 0B FF FF 00 8F
  can0  247   [8]  00 00 00 06 00 18 00 00
  can0  203   [8]  00 00 00 00 C0 00 C0 00
  can0  75E   [8]  00 81 00 2D 18 18 18 18
  can0  245   [8]  7F FE 81 7E 7F 7C 00 84
  can0  073   [8]  06 24 79 6B 00 80 10 A5
  can0  766   [8]  00 00 00 00 00 00 0D 08
  can0  003   [8]  0F EE 10 00 04 FF 80 82
  can0  005   [8]  00 00 00 00 1D 00 18 B2
  can0  75E   [8]  00 81 00 2D 18 18 18 18
  can0  76E   [8]  00 00 00 00 00 00 00 00
  can0  073   [8]  06 24 79 6B 00 80 20 EF
  can0  388   [8]  36 FF 1F CF FF 0F 07 FF
  can0  003   [8]  0F EE 10 00 04 FF 90 4F
  can0  105   [8]  02 67 7F 00 00 97 43 7B
  can0  04B   [6]  01 00 0C 06 FF 04
  can0  201   [8]  09 0B 0A 0B FF FF 10 42
  can0  75E   [8]  00 81 00 2D 18 18 18 18
  can0  203   [8]  00 00 00 00 C0 00 C0 00
  can0  245   [8]  7F FB 81 7E 7F 7C 10 84
  can0  073   [8]  06 24 79 6B 00 80 30 22
  can0  283   [8]  F6 0D 08 03 C0 6C 3F FF
  can0  766   [8]  00 00 00 00 00 00 0D 08
  can0  003   [8]  0F EE 10 00 04 FF A0 05
  can0  005   [8]  00 00 00 00 1D 00 28 F8
  can0  75E   [8]  00 81 00 2D 18 18 18 18
  can0  073   [8]  06 24 79 6B 00 80 40 7B
  can0  003   [8]  0F EE 10 00 04 FF B0 C8
  can0  204   [8]  00 57 44 44 4B 4A 36 46
  can0  105   [8]  02 67 7F 00 00 97 53 B6
  can0  75E   [8]  00 81 00 2D 18 18 18 18
  can0  201   [8]  09 0B 0A 0C FF FF 20 FC
  can0  001   [8]  CC 81 1F AE AA 03 D0 E3
  can0  203   [8]  00 00 00 00 C0 00 C0 00
  can0  245   [8]  7F FE 81 7E 7F 7C 20 84
  can0  073   [8]  06 24 79 6B 00 80 50 B6
  can0  766   [8]  00 00 00 00 00 00 0D 08
  can0  400   [8]  FD 13 04 0F E0 81 00 05
  can0  12D   [8]  01 0F 00 00 50 53 56 79
  can0  003   [8]  0F EE 10 00 04 FF C0 91
  can0  30D   [8]  7D 5B 7C FF FF 01 EF 81
  can0  005   [8]  00 00 00 00 1D 00 38 35
  can0  75E   [8]  00 81 00 2D 18 18 18 18
  can0  3D1   [4]  C9 0A 00 00
  can0  39D   [8]  20 02 01 31 FF 0E 00 07
  can0  073   [8]  06 24 79 6B 00 80 60 FC
  can0  003   [8]  0F EE 10 00 04 FF D0 5C
  can0  045   [8]  00 FF 00 00 00 00 10 CE
  can0  34E   [8]  00 00 A3 00 00 A3 11 40
  can0  204   [8]  01 42 31 47 46 33 31 34
  can0  105   [8]  02 67 7F 00 00 97 63 FC
  can0  201   [8]  09 0B 0B 0C FF FF 30 5B
  can0  75E   [8]  00 81 00 2D 18 18 18 18
  can0  203   [8]  00 00 00 00 C0 00 C0 00
  can0  245   [8]  80 05 81 7E 80 7C 30 84
  can0  007   [8]  F0 05 38 00 3F FC AF 79
  can0  073   [8]  06 24 79 6B 00 80 70 31
  can0  766   [8]  00 00 00 00 00 00 0D 08
  can0  003   [8]  0F EE 10 00 04 FF E0 16
  can0  33D   [8]  00 42 00 00 64 00 00 00
  can0  005   [8]  00 00 00 00 1D 00 48 6C
  can0  75E   [8]  00 81 00 2D 18 18 18 18
  can0  205   [8]  06 93 0C 00 00 00 00 00
  can0  073   [8]  06 24 79 6B 00 80 80 4E
  can0  375   [8]  13 10 35 3F 3F 07 00 00
  can0  336   [8]  62 42 00 00 00 00 00 00
  can0  3F6   [5]  02 00 00 00 00
  can0  003   [8]  0F EE 10 00 04 FF F0 DB
  can0  105   [8]  02 67 7F 00 00 97 73 31
  can0  204   [8]  02 33 33 35 FF FF FF FF
  can0  201   [8]  09 0B 0B 0C FF FF 40 02
  can0  203   [8]  00 00 00 00 C0 00 C0 00
  can0  245   [8]  80 03 81 7E 80 7C 40 84
  can0  75E   [8]  00 81 00 2D 18 18 18 18
  can0  34F   [8]  10 8E 00 8E 03 E7 07 FF
  can0  073   [8]  06 24 79 6B 00 80 90 83
  can0  003   [8]  0F EE 10 00 04 FF 00 A4
  can0  766   [8]  00 00 00 00 00 00 0D 08
  can0  249   [8]  25 0F 00 28 39 00 FF FF
  can0  005   [8]  00 00 00 00 1D 00 58 A1
  can0  75E   [8]  00 81 00 2D 18 18 18 18
  can0  073   [8]  06 24 79 6B 00 80 A0 C9
  can0  003   [8]  0F EE 10 00 04 FF 10 69
  can0  105   [8]  02 67 7F 00 00 97 83 4E
  can0  201   [8]  09 0B 0B 0C FF FF 50 CF
  can0  203   [8]  00 00 00 00 C0 00 C0 00
  can0  247   [8]  00 00 00 06 00 18 00 00
  can0  245   [8]  80 05 81 7E 7F 7D 50 84
  can0  75E   [8]  00 81 00 2D 18 18 18 18
  can0  073   [8]  06 24 79 6B 00 80 B0 04
  can0  003   [8]  0F EE 10 00 04 FF 20 23
  can0  766   [8]  00 00 00 00 00 00 0D 08
  can0  328   [2]  07 60
  can0  005   [8]  00 00 00 00 1D 00 68 EB
  can0  75E   [8]  00 81 00 2D 18 18 18 18
  can0  073   [8]  06 24 79 6B 00 80 C0 5D
  can0  2EF   [8]  F7 00 FF 0F FF FF FF 00
  can0  76E   [8]  00 00 00 00 00 00 00 00
  can0  003   [8]  0F EE 10 00 04 FF 30 EE
  can0  388   [8]  36 FF 1F CF FF 0F 07 FF
  can0  105   [8]  02 67 7F 00 00 96 93 CF
  can0  201   [8]  09 0B 0B 0C FF FF 60 85
  can0  203   [8]  00 00 00 00 C0 00 C0 00
  can0  245   [8]  80 07 81 7E 80 7D 60 84
  can0  04B   [6]  01 00 0C 06 FF 04
  can0  75E   [8]  00 81 00 2D 18 18 18 18
  can0  073   [8]  06 24 79 6B 00 80 D0 90
  can0  003   [8]  0F EE 10 00 04 FF 40 B7
  can0  283   [8]  F6 0D 08 03 C0 6C 3F FF
  can0  766   [8]  00 00 00 00 00 00 0D 08
  can0  005   [8]  00 00 00 00 1D 00 78 26
  can0  37D   [8]  02 00 04 AB 10 00 FF FF
  can0  068   [1]  01
  can0  75E   [8]  00 81 00 2D 18 18 18 18
  can0  073   [8]  06 24 79 6B 00 80 E0 DA
  can0  003   [8]  0F EE 10 00 04 FF 50 7A
  can0  10C   [8]  3B 7F FF 07 03 FF C3 67
  can0  105   [8]  02 69 7F 00 00 96 A3 06
  can0  35C   [8]  02 00 E0 00 00 FF FF 01
  can0  201   [8]  09 0B 0B 0C FF FF 70 48
  can0  001   [8]  CC 81 1F AE AA 03 E0 A9
  can0  203   [8]  00 00 00 00 C0 00 C0 00
  can0  245   [8]  80 05 81 7E 80 7D 70 84
  can0  413   [8]  FD 00 04 0F 10 00 00 05
  can0  20E   [8]  3F 00 01 F0 FF FF 3F 68
  can0  3D3   [4]  C0 00 00 00
  can0  073   [8]  06 24 79 6B 00 80 F0 17
  can0  75E   [8]  00 81 00 2D 18 18 18 18
  can0  12D   [8]  01 0F 00 00 50 53 56 79
  can0  003   [8]  0F EE 10 00 04 FF 60 30
  can0  351   [8]  00 00 00 00 00 00 00 00
  can0  766   [8]  00 00 00 00 00 00 0D 08
  can0  30D   [8]  7D 5B 7C FF FF 01 EF 81
  can0  005   [8]  00 00 00 00 1D 00 88 59
  can0  39D   [8]  20 02 01 31 FF 0E 00 0F
  can0  75E   [8]  00 81 00 2D 18 18 18 18
  can0  776   [8]  00 00 00 00 00 00 00 00
  can0  073   [8]  06 24 79 6B 00 80 00 68
  can0  003   [8]  0F EE 10 00 04 FF 70 FD
  can0  045   [8]  00 FF 00 00 00 00 20 84
  can0  34E   [8]  00 00 A3 00 00 A3 11 40
  can0  105   [8]  02 69 7F 00 00 96 B3 CB
  can0  201   [8]  09 0B 0B 0C FF FF 80 37
  can0  203   [8]  00 00 00 00 C0 00 C0 00
  can0  245   [8]  80 01 81 7E 80 7D 80 84
  can0  007   [8]  F0 05 38 00 3F FC AF 79
  can0  75E   [8]  00 81 00 2D 18 18 18 18
  can0  073   [8]  06 24 79 6B 00 80 10 A5
  can0  003   [8]  0F EE 10 00 04 FF 80 82
  can0  766   [8]  00 00 00 00 00 00 0D 08
  can0  33D   [8]  00 42 00 00 64 00 00 00
  can0  005   [8]  00 00 00 00 1D 00 98 94
  can0  205   [8]  06 93 0C 00 00 00 00 00
  can0  75E   [8]  00 81 00 2D 18 18 18 18
  can0  073   [8]  06 24 79 6B 00 80 20 EF
  can0  375   [8]  13 10 35 3F 3F 07 00 00
  can0  003   [8]  0F EE 10 00 04 FF 90 4F
  can0  105   [8]  02 6B 7F 00 00 96 C3 1E
  can0  201   [8]  09 0B 0B 0C FF FF 90 FA
  can0  203   [8]  00 00 00 00 C0 00 C0 00
  can0  34F   [8]  10 8E 00 8E 03 E7 07 FF
  can0  245   [8]  80 00 81 7E 80 7C 90 84
  can0  004   [5]  01 00 00 7D 07
  can0  75E   [8]  00 81 00 2D 18 18 18 18
  can0  073   [8]  06 24 79 6B 00 80 30 22
  can0  003   [8]  0F EE 10 00 04 FF A0 05
  can0  766   [8]  00 00 00 00 00 00 0D 08
  can0  249   [8]  2C A1 00 30 2C 00 FF FF
  can0  005   [8]  00 00 00 00 1D 00 A8 DE
  can0  75E   [8]  00 81 00 2D 18 18 18 18
  can0  073   [8]  06 24 79 6B 00 80 40 7B
  can0  003   [8]  0F EE 10 00 04 FF B0 C8
  can0  105   [8]  02 6A 7F 00 00 96 D3 95
  can0  201   [8]  0A 0B 0B 0C FF FF A0 57
  can0  247   [8]  00 00 00 06 00 18 00 00
  can0  203   [8]  00 00 00 00 C0 00 C0 00
  can0  245   [8]  7F FF 81 7E 80 7C A0 84
  can0  75E   [8]  00 81 00 2D 18 18 18 18
  can0  073   [8]  06 24 79 6B 00 80 50 B6
  can0  003   [8]  0F EE 10 00 04 FF C0 91
  can0  766   [8]  00 00 00 00 00 00 0D 08
  can0  005   [8]  00 00 00 00 1D 00 B8 13
  can0  75E   [8]  00 81 00 2D 18 18 18 18
  can0  073   [8]  06 24 79 6B 00 80 60 FC
  can0  76E   [8]  00 00 00 00 00 00 00 00
  can0  003   [8]  0F EE 10 00 04 FF D0 5C
  can0  388   [8]  36 FF 1F CF FF 0F 07 FF
  can0  105   [8]  02 6A 7F 00 00 96 E3 DF
  can0  201   [8]  0A 0B 0B 0C FF FF B0 9A
  can0  203   [8]  00 00 00 00 C0 00 C0 00
  can0  245   [8]  80 05 81 7E 80 7D B0 84
  can0  073   [8]  06 24 79 6B 00 80 70 31
  can0  04B   [6]  01 00 0C 06 FF 04
  can0  75E   [8]  00 81 00 2D 18 18 18 18
  can0  003   [8]  0F EE 10 00 04 FF E0 16
  can0  283   [8]  F6 0D 08 03 C0 6C 3F FF
  can0  766   [8]  00 00 00 00 00 00 0D 08
  can0  005   [8]  00 00 00 00 1D 00 C8 4A
  can0  400   [8]  FD 13 04 0F E0 81 00 05
  can0  073   [8]  06 24 79 6B 00 80 80 4E
  can0  75E   [8]  00 81 00 2D 18 18 18 18
  can0  003   [8]  0F EE 10 00 04 FF F0 DB
  can0  105   [8]  02 6C 7F 00 00 96 F3 9B
  can0  201   [8]  0A 0B 0B 0C FF FF C0 C3
  can0  001   [8]  CC 81 1F AE AA 03 F0 64
  can0  203   [8]  00 00 00 00 C0 00 C0 00
  can0  1C0   [2]  00 00
  can0  245   [8]  80 06 81 7E 80 7D C0 84
  can0  073   [8]  06 24 79 6B 00 80 90 83
  can0  75E   [8]  00 81 00 2D 18 18 18 18
  can0  12D   [8]  01 0F 00 00 50 53 56 79
  can0  003   [8]  0F EE 10 00 04 FF 00 A4
  can0  30D   [8]  7D 5B 7C FF FF 01 EF 81
  can0  766   [8]  00 00 00 00 00 00 0D 08
  can0  005   [8]  00 00 00 00 1D 00 D8 87
  can0  3D1   [4]  C9 0A 00 00
  can0  39D   [8]  20 02 01 31 FF 0E 00 17
  can0  073   [8]  06 24 79 6B 00 80 A0 C9
  can0  75E   [8]  00 81 00 2D 18 18 18 18
  can0  003   [8]  0F EE 10 00 04 FF 10 69
  can0  045   [8]  00 FF 00 00 00 00 30 49
  can0  34E   [8]  00 00 A3 00 00 A3 11 40
  can0  105   [8]  02 6C 7F 00 00 96 03 E4
  can0  201   [8]  0A 0B 0C 0D FF FF D0 98
  can0  203   [8]  00 00 00 00 C0 00 C0 00
  can0  245   [8]  80 01 81 7E 80 7C D0 84
  can0  007   [8]  F0 05 38 00 3F FC AF 79
  can0  073   [8]  06 24 79 6B 00 80 B0 04
  can0  75E   [8]  00 81 00 2D 18 18 18 18
  can0  003   [8]  0F EE 10 00 04 FF 20 23
  can0  34D   [2]  10 00
  can0  33D   [8]  00 42 00 00 64 00 00 00
  can0  005   [8]  00 00 00 00 1D 00 E8 CD
  can0  205   [8]  06 93 0C 00 00 00 00 00
  can0  766   [8]  00 00 00 00 00 00 0D 08
  can0  336   [8]  62 42 00 00 00 00 00 00
  can0  3F6   [5]  02 00 00 00 00
  can0  073   [8]  06 24 79 6B 00 80 C0 5D
  can0  375   [8]  13 10 35 3F 3F 07 00 00
  can0  003   [8]  0F EE 10 00 04 FF 30 EE
  can0  75E   [8]  00 81 00 2D 18 18 18 18
  can0  105   [8]  02 6D 7F 00 00 96 13 6F
  can0  201   [8]  0A 0C 0C 0D FF FF E0 1D
  can0  203   [8]  00 00 00 00 C0 00 C0 00
  can0  245   [8]  7F FE 81 7E 80 7C E0 84
  can0  34F   [8]  10 8E 00 8E 03 E7 07 FF
  can0  073   [8]  06 24 79 6B 00 80 D0 90
  can0  003   [8]  0F EE 10 00 04 FF 40 B7
  can0  75E   [8]  00 81 00 2D 18 18 18 18
  can0  249   [8]  34 B3 00 3A 51 00 FF FF
  can0  005   [8]  00 00 00 00 1D 00 F8 00
  can0  002   [5]  02 00 A0 32 07
  can0  766   [8]  00 00 00 00 00 00 0D 08
  can0  073   [8]  06 24 79 6B 00 80 E0 DA
  can0  003   [8]  0F EE 10 00 04 FF 50 7A
  can0  75E   [8]  00 81 00 2D 18 18 18 18
  can0  105   [8]  02 6C 7F 00 00 96 23 63
  can0  201   [8]  0A 0C 0C 0D FF FF F0 D0
  can0  203   [8]  00 00 00 00 C0 00 C0 00
  can0  247   [8]  00 00 00 06 00 18 00 00
  can0  245   [8]  80 00 81 7E 80 7C F0 84
  can0  073   [8]  06 24 79 6B 00 80 F0 17
  can0  003   [8]  0F EE 10 00 04 FF 60 30
  can0  75E   [8]  00 81 00 2D 18 18 18 18
  can0  328   [2]  07 60
  can0  005   [8]  00 00 00 00 1D 00 08 7F
  can0  766   [8]  00 00 00 00 00 00 0D 08
  can0  073   [8]  06 24 79 6B 00 80 00 68
  can0  2EF   [8]  F7 00 FF 0F FF FF FF 00
  can0  003   [8]  0F EE 10 00 04 FF 70 FD
  can0  75E   [8]  00 81 00 2D 18 18 18 18
  can0  76E   [8]  00 00 00 00 00 00 00 00
  can0  105   [8]  02 6C 7F 00 00 95 33 7A
  can0  10E   [4]  00 C0 00 02
  can0  201   [8]  0A 0C 0C 0D FF FF 00 AF
  can0  203   [8]  00 00 00 00 C0 00 C0 00
  can0  245   [8]  80 06 81 7E 80 7D 00 84
  can0  413   [8]  FD 00 04 0F 10 00 00 05
  can0  388   [8]  36 FF 1F CF FF 0F 07 FF
  can0  073   [8]  06 24 79 6B 00 80 10 A5
  can0  10D   [4]  00 80 3A 00
  can0  003   [8]  0F EE 10 00 04 FF 80 82
  can0  04B   [6]  01 00 0C 06 FF 04
  can0  75E   [8]  00 81 00 2D 18 18 18 18
  can0  005   [8]  00 00 00 00 1D 00 18 B2
  can0  37D   [8]  02 00 04 AA 10 00 FF FF
  can0  283   [8]  F6 0D 08 03 C0 6C 3F FF
  can0  766   [8]  00 00 00 00 00 00 0D 08
  can0  073   [8]  06 24 79 6B 00 80 20 EF
  can0  003   [8]  0F EE 10 00 04 FF 90 4F
  can0  068   [1]  01
  can0  75E   [8]  00 81 00 2D 18 18 18 18
  can0  105   [8]  02 6E 7F 00 00 95 43 AF
  can0  35C   [8]  02 00 E0 00 00 FF FF 01
  can0  201   [8]  0A 0C 0C 0D FF FF 10 62
  can0  001   [8]  CC 81 1F AE AA 03 00 1B
  can0  203   [8]  00 00 00 00 C0 00 C0 00
  can0  245   [8]  80 06 81 7E 80 7D 10 84
  can0  3D3   [4]  C0 00 00 00
  can0  10C   [8]  3B 7F FF 07 03 FF C3 67
  can0  073   [8]  06 24 79 6B 00 80 30 22
  can0  12D   [8]  01 0F 00 00 50 53 56 79
  can0  003   [8]  0F EE 10 00 04 FF A0 05
  can0  317   [2]  0A 00
  can0  20E   [8]  3F 00 01 F0 FF FF 3F 68
  can0  75E   [8]  00 81 00 2D 18 18 18 18
  can0  30D   [8]  7D 5B 7C FF FF 01 F4 81
  can0  005   [8]  00 00 00 00 1D 00 28 F8
  can0  39D   [8]  20 02 01 31 FF 0E 00 1F
  can0  351   [8]  00 00 00 00 00 00 00 00
  can0  766   [8]  00 00 00 00 00 00 0D 08
  can0  073   [8]  06 24 79 6B 00 80 40 7B
  can0  003   [8]  0F EE 10 00 04 FF B0 C8
  can0  045   [8]  00 FF 00 00 00 00 40 10
  can0  34E   [8]  00 00 A3 00 00 A3 11 40
  can0  75E   [8]  00 81 00 2D 18 18 18 18
  can0  776   [8]  00 00 00 00 00 00 00 00
  can0  105   [8]  02 6E 7F 00 00 95 53 62
  can0  30E   [8]  0C 00 00 00 00 05 FF 03
  can0  201   [8]  0A 0C 0C 0D FF FF 20 28
  can0  203   [8]  00 00 00 00 C0 00 C0 00
  can0  245   [8]  80 07 81 7E 80 7D 20 84
  can0  007   [8]  F0 05 38 00 3F FC AF 79
  can0  073   [8]  06 24 79 6B 00 80 50 B6
  can0  208   [8]  1F 40 11 80 00 06 40 A8
  can0  003   [8]  0F EE 10 00 04 FF C0 91
  can0  33D   [8]  00 42 00 00 64 00 00 00
  can0  005   [8]  00 00 00 00 1D 00 38 35
  can0  207   [8]  10 09 3D 22 0F CB 4D AC
  can0  75E   [8]  00 81 00 2D 18 18 18 18
  can0  205   [8]  06 93 0C 00 00 00 00 00
  can0  073   [8]  06 24 79 6B 00 80 60 FC
  can0  375   [8]  13 10 35 3F 3F 07 00 00
  can0  206   [8]  00 00 0D 20 C1 80 D2 CC
  can0  766   [8]  00 00 00 00 00 00 0D 08
  can0  003   [8]  0F EE 10 00 04 FF D0 5C
  can0  105   [8]  02 6E 7F 00 00 95 63 28
  can0  34F   [8]  10 8E 00 8E 03 E7 07 FF
  can0  20A   [8]  FA FF 00 FC FF FF FF 7F
  can0  201   [8]  0A 0C 0C 0D FF FF 30 E5
  can0  75E   [8]  00 81 00 2D 18 18 18 18
  can0  203   [8]  00 00 00 00 C0 00 C0 00
  can0  245   [8]  80 06 81 7E 7F 7D 30 84
  can0  073   [8]  06 24 79 6B 00 80 70 31
  can0  003   [8]  0F EE 10 00 04 FF E0 16
  can0  249   [8]  3F E8 00 FF FF 00 03 FF
  can0  005   [8]  00 00 00 00 1D 00 48 6C
  can0  75E   [8]  00 81 00 2D 18 18 18 18
  can0  073   [8]  06 24 79 6B 00 80 80 4E
  can0  766   [8]  00 00 00 00 00 00 0D 08
  can0  003   [8]  0F EE 10 00 04 FF F0 DB
  can0  105   [8]  02 6E 7F 00 00 95 73 E5
  can0  201   [8]  0B 0C 0C 0D FF FF 40 E1
  can0  247   [8]  00 00 00 06 00 18 00 00
  can0  203   [8]  00 00 00 00 C0 00 C0 00
  can0  75E   [8]  00 81 00 2D 18 18 18 18
  can0  245   [8]  80 03 81 7E 7F 7D 40 84
  can0  073   [8]  06 24 79 6B 00 80 90 83
  can0  003   [8]  0F EE 10 00 04 FF 00 A4
  can0  2FF   [8]  02 28 00 FF FF FF FF FE
  can0  005   [8]  00 00 00 00 1D 00 58 A1
  can0  75E   [8]  00 81 00 2D 18 18 18 18
  can0  073   [8]  06 24 79 6B 00 80 A0 C9
  can0  766   [8]  00 00 00 00 00 00 0D 08
  can0  003   [8]  0F EE 10 00 04 FF 10 69
  can0  400   [8]  FD 13 04 0F E0 81 00 05
  can0  105   [8]  02 6E 7F 00 00 95 83 9A
  can0  201   [8]  0B 0C 0C 0D FF FF 50 2C
  can0  203   [8]  00 00 00 00 C0 00 C0 00
  can0  245   [8]  80 05 81 7E 7F 7D 50 84
  can0  75E   [8]  00 81 00 2D 18 18 18 18
  can0  76E   [8]  00 00 00 00 00 00 00 00
  can0  073   [8]  06 24 79 6B 00 80 B0 04
  can0  388   [8]  36 FF 1F CF FF 0F 07 FF
  can0  003   [8]  0F EE 10 00 04 FF 20 23
  can0  005   [8]  00 00 00 00 1D 00 68 EB
  can0  04B   [6]  01 00 0C 06 FF 04
  can0  75E   [8]  00 81 00 2D 18 18 18 18
  can0  073   [8]  06 24 79 6B 00 80 C0 5D
  can0  283   [8]  F6 0D 08 03 C0 6C 3F FF
  can0  766   [8]  00 00 00 00 00 00 0D 08
  can0  003   [8]  0F EE 10 00 04 FF 30 EE
  can0  105   [8]  02 6E 7F 00 00 95 93 57
  can0  201   [8]  0B 0C 0C 0D FF FF 60 66
  can0  001   [8]  CC 81 1F AE AA 03 10 D6
  can0  203   [8]  00 00 00 00 C0 00 C0 00
  can0  245   [8]  80 03 81 7E 80 7D 60 84
  can0  75E   [8]  00 81 00 2D 18 18 18 18
  can0  073   [8]  06 24 79 6B 00 80 D0 90
  can0  12D   [8]  01 0F 00 00 50 53 56 79
  can0  003   [8]  0F EE 10 00 04 FF 40 B7
  can0  30D   [8]  7D 5B 7C FF FF 01 F4 81
  can0  005   [8]  00 00 00 00 1D 00 78 26
  can0  75E   [8]  00 81 00 2D 18 18 18 18
  can0  3D1   [4]  C9 0A 00 00
  can0  39D   [8]  20 02 01 31 FF 0E 00 27
  can0  073   [8]  06 24 79 6B 00 80 E0 DA
  can0  766   [8]  00 00 00 00 00 00 0D 08
  can0  003   [8]  0F EE 10 00 04 FF 50 7A
  can0  045   [8]  00 FF 00 00 00 00 50 DD
  can0  34E   [8]  00 00 A3 00 00 A3 11 40
  can0  105   [8]  02 6E 7F 00 00 95 A3 1D
  can0  201   [8]  0B 0D 0C 0D FF FF 70 ED
  can0  203   [8]  00 00 00 00 C0 00 C0 00
  can0  245   [8]  80 03 81 7E 80 7D 70 84
  can0  007   [8]  F0 05 38 00 3F FC AF 79
  can0  75E   [8]  00 81 00 2D 18 18 18 18
  can0  073   [8]  06 24 79 6B 00 80 F0 17
  can0  003   [8]  0F EE 10 00 04 FF 60 30
  can0  33D   [8]  00 42 00 00 64 00 00 00
  can0  3F2   [8]  00 26 00 0C 00 00 3F FD
  can0  005   [8]  00 00 00 00 1D 00 88 59
  can0  205   [8]  06 93 0C 00 00 00 00 00
  can0  75E   [8]  00 81 00 2D 18 18 18 18
  can0  073   [8]  06 24 79 6B 00 80 00 68
  can0  375   [8]  13 10 35 3F 3F 07 00 00
  can0  336   [8]  62 42 00 00 00 00 00 00
  can0  003   [8]  0F EE 10 00 04 FF 70 FD
  can0  3F6   [5]  02 00 00 00 00
  can0  766   [8]  00 00 00 00 00 00 0D 08
  can0  105   [8]  02 6E 7F 00 00 95 B3 D0
  can0  201   [8]  0B 0D 0D 0E FF FF 80 42
  can0  203   [8]  00 00 00 00 C0 00 C0 00
  can0  245   [8]  7F FF 81 7E 7F 7C 80 84
  can0  34F   [8]  10 8E 00 8E 03 E7 07 FF
  can0  75E   [8]  00 81 00 2D 18 18 18 18
  can0  073   [8]  06 24 79 6B 00 80 10 A5
  can0  003   [8]  0F EE 10 00 04 FF 80 82
  can0  1C1   [4]  00 00 00 00
  can0  249   [8]  07 E8 00 0B E8 00 FF FF
  can0  005   [8]  00 00 00 00 1D 00 98 94
  can0  75E   [8]  00 81 00 2D 18 18 18 18
  can0  073   [8]  06 24 79 6B 00 80 20 EF
  can0  003   [8]  0F EE 10 00 04 FF 90 4F
  can0  766   [8]  00 00 00 00 00 00 0D 08
  can0  105   [8]  02 6F 7F 00 00 95 C3 CF
  can0  201   [8]  0B 0D 0D 0E FF FF 90 8F
  can0  247   [8]  00 00 00 06 00 18 00 00
  can0  203   [8]  00 00 00 00 C0 00 C0 00
  can0  245   [8]  7F F7 81 7E 7F 7D 90 84
  can0  39F   [8]  10 30 0F 02 0B 19 0A FF
  can0  75E   [8]  00 81 00 2D 18 18 18 18
  can0  073   [8]  06 24 79 6B 00 80 30 22
  can0  003   [8]  0F EE 10 00 04 FF A0 05
  can0  19F   [8]  00 00 84 F0 3D 22 61 ED
  can0  328   [2]  07 60
  can0  26F   [2]  6F C0
  can0  005   [8]  00 00 00 00 1D 00 A8 DE
  can0  413   [8]  FD 00 04 0F 10 00 00 05
  can0  75E   [8]  00 81 00 2D 18 18 18 18
  can0  073   [8]  06 24 79 6B 00 80 40 7B
  can0  2EF   [8]  F7 00 FF 0F FF FF FF 00
  can0  003   [8]  0F EE 10 00 04 FF B0 C8
  can0  766   [8]  00 00 00 00 00 00 0D 08
  can0  105   [8]  02 6F 7F 00 00 95 D3 02
  can0  201   [8]  0B 0D 0D 0E FF FF A0 C5
  can0  203   [8]  00 00 00 00 C0 00 C0 00
  can0  245   [8]  7F F8 81 7E 80 7C A0 84
  can0  75E   [8]  00 81 00 2D 18 18 18 18
  can0  073   [8]  06 24 79 6B 00 80 50 B6
  can0  76E   [8]  00 00 00 00 00 00 00 00
  can0  003   [8]  0F EE 10 00 04 FF C0 91
  can0  3B8   [8]  00 00 00 60 41 05 00 00
  can0  388   [8]  36 FF 1F CF FF 0F 07 FF
  can0  005   [8]  00 00 00 00 1D 00 B8 13
  can0  37D   [8]  02 00 04 AB 10 00 FF FF
  can0  04B   [6]  01 00 0C 06 FF 04
  can0  75E   [8]  00 81 00 2D 18 18 18 18
  can0  073   [8]  06 24 79 6B 00 80 60 FC
  can0  003   [8]  0F EE 10 00 04 FF D0 5C
  can0  283   [8]  F6 0D 08 03 C0 6C 3F FF
  can0  766   [8]  00 00 00 00 00 00 0D 08
  can0  105   [8]  02 70 7F 00 00 95 E3 99
  can0  35C   [8]  02 00 E0 00 00 FF FF 01
  can0  201   [8]  0B 0D 0D 0E FF FF B0 08
  can0  001   [8]  CC 81 1F AE AA 03 20 9C
  can0  203   [8]  00 00 00 00 C0 00 C0 00
  can0  245   [8]  80 03 81 7E 7F 7C B0 84
  can0  3D3   [4]  C0 00 00 00
  can0  068   [1]  01
  can0  75E   [8]  00 81 00 2D 18 18 18 18
  can0  073   [8]  06 24 79 6B 00 80 70 31
  can0  12D   [8]  01 0F 00 00 50 53 56 79
  can0  003   [8]  0F EE 10 00 04 FF E0 16
  can0  2C4   [8]  00 00 FC 3F 7F FF 3F FF
  can0  10C   [8]  3B 7F FF 07 03 FF C3 67
  can0  30D   [8]  7D 5B 7C FF FF 01 FA 81
  can0  005   [8]  00 00 00 00 1D 00 C8 4A
  can0  3E3   [8]  5A FC B9 6B 29 CF DC FA
  can0  39D   [8]  20 02 01 31 FF 0E 00 2F
  can0  20E   [8]  3F 00 01 F0 FF FF 3F 68
  can0  073   [8]  06 24 79 6B 00 80 80 4E
  can0  75E   [8]  00 81 00 2D 18 18 18 18
  can0  003   [8]  0F EE 10 00 04 FF F0 DB
  can0  045   [8]  00 FF 00 00 00 00 60 97
  can0  34E   [8]  00 00 A3 00 00 A3 11 40
  can0  351   [8]  00 00 00 00 00 00 00 00
  can0  766   [8]  00 00 00 00 00 00 0D 08
  can0  105   [8]  02 70 7F 00 00 95 F3 54
  can0  3E5   [8]  0C 14 0A 14 04 FF FF 00
  can0  201   [8]  0B 0D 0D 0E FF FF C0 51
  can0  203   [8]  00 00 00 00 C0 00 C0 00
  can0  3E7   [8]  5A FC B8 AF 29 CF DE 92
  can0  245   [8]  80 07 81 7E 7F 7D C0 84
  can0  007   [8]  F0 05 38 00 3F FC AF 79
  can0  073   [8]  06 24 79 6B 00 80 90 83
  can0  75E   [8]  00 81 00 2D 18 18 18 18
  can0  776   [8]  00 00 00 00 00 00 00 00
  can0  003   [8]  0F EE 10 00 04 FF 00 A4
  can0  33D   [8]  00 42 00 00 64 00 00 00
  can0  3E9   [8]  07 E9 0B 03 00 30 05 DC
  can0  005   [8]  00 00 00 00 1D 00 D8 87
  can0  3EB   [8]  00 01 00 00 0D 30 0D 8D
  can0  205   [8]  06 93 0C 00 00 00 00 00
  can0  073   [8]  06 24 79 6B 00 80 A0 C9
  can0  375   [8]  13 10 35 3F 3F 07 00 00
  can0  75E   [8]  00 81 00 2D 18 18 18 18
  can0  003   [8]  0F EE 10 00 04 FF 10 69
  can0  105   [8]  02 70 7F 00 00 95 03 2B
  can0  766   [8]  00 00 00 00 00 00 0D 08
  can0  201   [8]  0C 0D 0D 0E FF FF D0 12
  can0  203   [8]  00 00 00 00 C0 00 C0 00
  can0  34F   [8]  10 8E 00 8E 03 E7 07 FF
  can0  245   [8]  80 07 81 7E 80 7D D0 84
  can0  073   [8]  06 24 79 6B 00 80 B0 04
  can0  75E   [8]  00 81 00 2D 18 18 18 18
  can0  003   [8]  0F EE 10 00 04 FF 20 23
  can0  249   [8]  0F E8 00 13 E8 00 FF FF
  can0  005   [8]  00 00 00 00 1D 00 E8 CD
  can0  073   [8]  06 24 79 6B 00 80 C0 5D
  can0  75E   [8]  00 81 00 2D 18 18 18 18
  can0  003   [8]  0F EE 10 00 04 FF 30 EE
  can0  105   [8]  02 6E 7F 00 00 95 13 71
  can0  201   [8]  0C 0D 0D 0E FF FF E0 58
  can0  247   [8]  00 00 00 06 00 18 00 00
  can0  203   [8]  00 00 00 00 C0 00 C0 00
  can0  766   [8]  00 00 00 00 00 00 0D 08
  can0  245   [8]  80 0A 81 7E 80 7D E0 84
  can0  400   [8]  FD 13 04 0F E0 81 00 05
  can0  073   [8]  06 24 79 6B 00 80 D0 90
  can0  75E   [8]  00 81 00 2D 18 18 18 18
  can0  003   [8]  0F EE 10 00 04 FF 40 B7
  can0  005   [8]  00 00 00 00 1D 00 F8 00
  can0  073   [8]  06 24 79 6B 00 80 E0 DA
  can0  75E   [8]  00 81 00 2D 18 18 18 18
  can0  003   [8]  0F EE 10 00 04 FF 50 7A
  can0  105   [8]  02 6E 7F 00 00 95 23 3B
  can0  201   [8]  0C 0E 0D 0E FF FF F0 5F
  can0  766   [8]  00 00 00 00 00 00 0D 08
  can0  203   [8]  00 00 00 00 C0 00 C0 00
  can0  245   [8]  80 09 81 7E 7F 7D F0 84
  can0  073   [8]  06 24 79 6B 00 80 F0 17
  can0  75E   [8]  00 81 00 2D 18 18 18 18
  can0  76E   [8]  00 00 00 00 00 00 00 00
  can0  003   [8]  0F EE 10 00 04 FF 60 30
  can0  005   [8]  00 00 00 00 1D 00 08 7F
  can0  388   [8]  36 FF 1F CF FF 0F 07 FF
  can0  073   [8]  06 24 79 6B 00 80 00 68
  can0  04B   [6]  01 00 0C 06 FF 04
  can0  75E   [8]  00 81 00 2D 18 18 18 18
  can0  003   [8]  0F EE 10 00 04 FF 70 FD
  can0  105   [8]  02 6E 7F 00 00 95 33 F6
  can0  283   [8]  F6 0D 08 03 C0 6C 3F FF
  can0  201   [8]  0C 0E 0D 0E FF FF 00 20
  can0  001   [8]  CC 81 1F AE AA 03 30 51
  can0  203   [8]  00 00 00 00 C0 00 C0 00
  can0  245   [8]  80 06 81 7E 7F 7D 00 84
  can0  766   [8]  00 00 00 00 00 00 0D 08
  can0  073   [8]  06 24 79 6B 00 80 10 A5
  can0  75E   [8]  00 81 00 2D 18 18 18 18
  can0  12D   [8]  01 0F 00 00 50 53 56 79
  can0  003   [8]  0F EE 10 00 04 FF 80 82
  can0  30D   [8]  7D 5B 7C FF FF 01 FA 81
  can0  005   [8]  00 00 00 00 1D 00 18 B2
  can0  3D1   [4]  C9 0A 00 00
  can0  39D   [8]  20 02 01 31 FF 0E 00 37
  can0  073   [8]  06 24 79 6B 00 80 20 EF
  can0  75E   [8]  00 81 00 2D 18 18 18 18
  can0  003   [8]  0F EE 10 00 04 FF 90 4F
  can0  045   [8]  00 FF 00 00 00 00 70 5A
  can0  34E   [8]  00 00 A3 00 00 A3 11 40
  can0  105   [8]  02 6E 7F 00 00 95 43 AF
  can0  201   [8]  0C 0E 0E 0F FF FF 10 CE
  can0  203   [8]  00 00 00 00 C0 00 C0 00
  can0  766   [8]  00 00 00 00 00 00 0D 08
  can0  245   [8]  80 00 81 7E 7F 7C 10 84
  can0  007   [8]  F0 05 38 00 3F FC AF 79
  can0  073   [8]  06 24 79 6B 00 80 30 22
  can0  75E   [8]  00 81 00 2D 18 18 18 18
  can0  003   [8]  0F EE 10 00 04 FF A0 05
  can0  33D   [8]  00 42 00 00 64 00 00 00
  can0  005   [8]  00 00 00 00 1D 00 28 F8
  can0  205   [8]  06 93 0C 00 00 00 00 00
  can0  073   [8]  06 24 79 6B 00 80 40 7B
  can0  375   [8]  13 10 35 3F 3F 07 00 00
  can0  336   [8]  62 42 00 00 00 00 00 00
  can0  75E   [8]  00 81 00 2D 18 18 18 18
