 (000.000000)  can0  75E   [8]  00 81 00 2D 18 18 18 18
 (000.000948)  can0  105   [8]  02 72 7F 00 00 95 A3 06
 (000.001925)  can0  003   [8]  10 00 10 00 04 FF 50 C4
 (000.003528)  can0  201   [8]  DA 5B 7E 02 FF FF 70 B7
 (000.003821)  can0  203   [8]  00 00 00 00 C0 00 C0 00
 (000.004122)  can0  245   [8]  80 06 7F 7E 81 84 70 85
 (000.006031)  can0  766   [8]  00 00 00 00 00 00 0F 08
 (000.006294)  can0  073   [8]  05 20 93 67 00 40 F0 DA
 (000.011026)  can0  75E   [8]  00 81 00 2D 18 18 18 18
 (000.011268)  can0  30D   [8]  85 50 81 FF FF 02 61 81
 (000.011891)  can0  003   [8]  10 00 10 00 04 FF 60 8E
 (000.012488)  can0  045   [8]  00 FF 00 00 00 00 70 5A
 (000.013173)  can0  005   [8]  11 00 02 1C 0D 00 88 86
 (000.016283)  can0  073   [8]  05 20 93 67 00 40 00 A5
 (000.020948)  can0  105   [8]  02 72 7F 00 00 95 B3 CB
 (000.021317)  can0  75E   [8]  00 81 00 2D 18 18 18 18
 (000.021915)  can0  003   [8]  10 00 10 00 04 FF 70 43
 (000.023720)  can0  201   [8]  DA 5B 7E 02 FF FF 80 C8
 (000.024118)  can0  203   [8]  00 00 00 00 C0 00 C0 00
 (000.024364)  can0  245   [8]  80 02 7F 7E 81 84 80 85
 (000.026152)  can0  073   [8]  05 20 93 67 00 40 10 68
 (000.027047)  can0  766   [8]  00 00 00 00 00 00 0F 08
 (000.031096)  can0  33D   [8]  00 42 00 00 64 00 00 00
 (000.031809)  can0  003   [8]  10 00 10 00 04 FF 80 3C
 (000.032164)  can0  75E   [8]  00 81 00 2D 18 18 18 18
 (000.032464)  can0  76E   [8]  00 00 00 00 00 00 00 00
 (000.033070)  can0  005   [8]  11 00 02 1C 0D 00 98 4B
 (000.036122)  can0  073   [8]  05 20 93 67 00 40 20 22
 (000.037042)  can0  388   [8]  35 FF 1F CF FF 0F 07 FF
 (000.038177)  can0  375   [8]  13 10 34 3F 3F 07 00 00
 (000.040899)  can0  105   [8]  02 72 7F 00 00 95 C3 92
 (000.041874)  can0  003   [8]  10 00 10 00 04 FF 90 F1
 (000.042142)  can0  34F   [8]  10 A0 00 A0 03 E7 07 FF
 (000.042362)  can0  04B   [6]  01 00 0C 06 FF 04
 (000.042637)  can0  75E   [8]  00 81 00 2D 18 18 18 18
 (000.043500)  can0  201   [8]  DA 5B 7E 02 FF FF 90 05
 (000.043992)  can0  203   [8]  00 00 00 00 C0 00 C0 00
 (000.044264)  can0  245   [8]  80 03 7F 7E 81 84 90 85
 (000.046121)  can0  073   [8]  05 20 93 67 00 40 30 EF
 (000.047994)  can0  283   [8]  F5 0D 08 03 C0 6F 3F FF
 (000.048264)  can0  766   [8]  00 00 00 00 00 00 0F 08
 (000.049043)  can0  400   [8]  FD 13 04 0F E0 81 00 05
 (000.051344)  can0  249   [8]  16 0B 00 19 47 00 FF FF
 (000.051844)  can0  003   [8]  10 00 10 00 04 FF A0 BB
 (000.052850)  can0  068   [1]  01
 (000.053138)  can0  75E   [8]  00 81 00 2D 18 18 18 18
 (000.053411)  can0  005   [8]  11 00 02 1C 0D 00 A8 01
 (000.054917)  can0  004   [5]  01 00 00 37 07
 (000.056148)  can0  073   [8]  05 20 93 67 00 40 40 B6
 (000.057997)  can0  10C   [8]  3B 7F FF 07 03 FF C3 67
 (000.059068)  can0  007   [8]  F0 05 3A 00 3F FC AF 79
 (000.060892)  can0  105   [8]  02 73 7F 00 00 95 D3 19
 (000.061136)  can0  39D   [8]  1D 02 00 C7 FF 0E 00 17
 (000.061361)  can0  3F6   [5]  02 00 00 00 00
 (000.061876)  can0  003   [8]  10 00 10 00 04 FF B0 76
 (000.062036)  can0  3D1   [4]  C9 08 00 00
 (000.063720)  can0  201   [8]  DA 5B 7E 02 FF FF A0 4F
 (000.064091)  can0  247   [8]  00 00 00 06 00 18 00 00
 (000.064387)  can0  203   [8]  00 00 00 00 C0 00 C0 00
 (000.064676)  can0  245   [8]  80 07 7F 7E 81 84 A0 85
 (000.065014)  can0  20E   [8]  3F 00 01 F0 FF FF 3F 68
 (000.065288)  can0  75E   [8]  00 81 00 2D 18 18 18 18
 (000.065997)  can0  34E   [8]  00 00 B7 00 00 B7 11 27
 (000.066236)  can0  073   [8]  05 20 93 67 00 40 50 7B
 (000.069094)  can0  205   [8]  06 93 0C 00 00 00 00 00
 (000.070018)  can0  351   [8]  00 00 00 00 00 00 00 00
 (000.070311)  can0  766   [8]  00 00 00 00 00 00 0F 08
 (000.071829)  can0  003   [8]  10 00 10 00 04 FF C0 2F
 (000.073296)  can0  005   [8]  11 00 02 1A 0D 00 B8 A5
 (000.075021)  can0  75E   [8]  00 81 00 2D 18 18 18 18
 (000.075285)  can0  776   [8]  00 00 00 00 00 00 00 00
 (000.076223)  can0  073   [8]  05 20 93 67 00 40 60 31
 (000.080943)  can0  105   [8]  02 74 7F 00 00 96 E3 48
 (000.081918)  can0  003   [8]  10 00 10 00 04 FF D0 E2
 (000.083368)  can0  201   [8]  DA 5B 7E 02 FF FF B0 82
 (000.083713)  can0  203   [8]  00 00 00 00 C0 00 C0 00
 (000.083960)  can0  245   [8]  80 06 7F 7E 81 84 B0 85
 (000.084244)  can0  336   [8]  71 42 00 00 00 00 00 00
 (000.085035)  can0  75E   [8]  00 81 00 2D 18 18 18 18
 (000.086042)  can0  001   [8]  CC 83 1F 9E 55 03 01 EB
 (000.086311)  can0  073   [8]  05 20 93 67 00 40 70 FC
 (000.090022)  can0  766   [8]  00 00 00 00 00 00 0F 08
 (000.091062)  can0  12D   [8]  01 0F 00 00 50 53 56 79
 (000.091822)  can0  003   [8]  10 00 10 00 04 FF E0 A8
 (000.093148)  can0  005   [8]  11 00 02 1A 0D 00 C8 FC
 (000.095025)  can0  75E   [8]  00 81 00 2D 18 18 18 18
 (000.096140)  can0  073   [8]  05 20 93 67 00 40 80 83
 (000.100934)  can0  105   [8]  02 74 7F 00 00 96 F3 85
 (000.101916)  can0  003   [8]  10 00 10 00 04 FF F0 65
 (000.103632)  can0  201   [8]  DA 5B 7E 02 FF FF C0 DB
 (000.103985)  can0  203   [8]  00 00 00 00 C0 00 C0 00
 (000.104234)  can0  245   [8]  80 05 7F 7E 80 84 C0 85
 (000.105031)  can0  75E   [8]  00 81 00 2D 18 18 18 18
 (000.106189)  can0  073   [8]  05 20 93 67 00 40 90 4E
 (000.106418)  can0  328   [2]  07 60
 (000.110043)  can0  766   [8]  00 00 00 00 00 00 0F 08
 (000.111091)  can0  30D   [8]  85 50 81 FF FF 02 61 81
 (000.111823)  can0  003   [8]  10 00 10 00 04 FF 00 1A
 (000.112339)  can0  045   [8]  00 FF 00 00 00 00 80 25
 (000.113090)  can0  005   [8]  11 00 02 1B 0D 00 D8 AC
 (000.114718)  can0  3D3   [4]  C0 02 00 00
 (000.115088)  can0  75E   [8]  00 81 00 2D 18 18 18 18
 (000.115866)  can0  35C   [8]  02 10 E0 00 00 FF FF 01
 (000.116163)  can0  073   [8]  05 20 93 67 00 40 A0 04
 (000.120953)  can0  105   [8]  02 75 7F 00 00 96 03 BC
 (000.121918)  can0  003   [8]  10 00 10 00 04 FF 10 D7
 (000.123329)  can0  201   [8]  DA 5B 7E 02 FF FF D0 16
 (000.123611)  can0  203   [8]  00 00 00 00 C0 00 C0 00
 (000.123885)  can0  245   [8]  80 03 7F 7E 80 84 D0 85
 (000.126023)  can0  75E   [8]  00 81 00 2D 18 18 18 18
 (000.126258)  can0  073   [8]  05 20 93 67 00 40 B0 C9
 (000.129091)  can0  37D   [8]  02 00 04 B4 12 00 FF FF
 (000.131015)  can0  766   [8]  00 00 00 00 00 00 0F 08
 (000.131634)  can0  33D   [8]  00 42 00 00 64 00 00 00
 (000.131910)  can0  003   [8]  10 00 10 00 04 FF 20 9D
 (000.133087)  can0  005   [8]  11 00 02 1A 0D 00 E8 7B
 (000.136013)  can0  75E   [8]  00 81 00 2D 18 18 18 18
 (000.136255)  can0  073   [8]  05 20 93 67 00 40 C0 90
 (000.136556)  can0  76E   [8]  00 00 00 00 00 00 00 00
 (000.138310)  can0  375   [8]  13 10 34 3F 3F 07 00 00
 (000.140900)  can0  105   [8]  02 75 7F 00 00 96 13 71
 (000.141290)  can0  388   [8]  35 FF 1F CF FF 0F 07 FF
 (000.141838)  can0  003   [8]  10 00 10 00 04 FF 30 50
 (000.142972)  can0  34F   [8]  10 A0 00 A0 03 E7 07 FF
 (000.143616)  can0  201   [8]  DA 5B 7E 02 FF FF E0 5C
 (000.144110)  can0  203   [8]  00 00 00 00 C0 00 C0 00
 (000.144381)  can0  245   [8]  80 01 7F 7E 80 84 E0 85
 (000.146113)  can0  073   [8]  05 20 93 67 00 40 D0 5D
 (000.146961)  can0  04B   [6]  01 00 0C 06 FF 04
 (000.147257)  can0  75E   [8]  00 81 00 2D 18 18 18 18
 (000.148313)  can0  413   [8]  FD 00 04 0F 10 00 00 05
 (000.151866)  can0  003   [8]  10 00 10 00 04 FF 40 09
 (000.152105)  can0  249   [8]  1C 70 00 22 B4 00 FF FF
 (000.152381)  can0  283   [8]  F5 0D 08 03 C0 6F 3F FF
 (000.152718)  can0  766   [8]  00 00 00 00 00 00 0F 08
 (000.153158)  can0  005   [8]  11 00 02 1B 0D 00 F8 2B
 (000.156156)  can0  073   [8]  05 20 93 67 00 40 E0 17
 (000.157047)  can0  75E   [8]  00 81 00 2D 18 18 18 18
 (000.159138)  can0  007   [8]  F0 05 3A 00 3F FC AF 79
 (000.160786)  can0  39D   [8]  1D 02 00 C7 FF 0E 00 1F
 (000.161056)  can0  105   [8]  02 74 7F 00 00 96 23 7D
 (000.161914)  can0  003   [8]  10 00 10 00 04 FF 50 C4
 (000.163267)  can0  201   [8]  DA 5B 7E 02 FF FF F0 91
 (000.163632)  can0  247   [8]  00 00 00 06 00 18 00 00
 (000.163906)  can0  203   [8]  00 00 00 00 C0 00 C0 00
 (000.164155)  can0  245   [8]  80 02 7F 7E 80 84 F0 85
 (000.165712)  can0  34E   [8]  00 00 B7 00 00 B7 11 27
 (000.166207)  can0  073   [8]  05 20 93 67 00 40 F0 DA
 (000.168019)  can0  75E   [8]  00 81 00 2D 18 18 18 18
 (000.169062)  can0  205   [8]  06 93 0C 00 00 00 00 00
 (000.171821)  can0  003   [8]  10 00 10 00 04 FF 60 8E
 (000.173014)  can0  766   [8]  00 00 00 00 00 00 0F 08
 (000.173458)  can0  005   [8]  11 00 02 1B 0D 00 08 54
 (000.176113)  can0  073   [8]  05 20 93 67 00 40 00 A5
 (000.178036)  can0  75E   [8]  00 81 00 2D 18 18 18 18
 (000.180909)  can0  105   [8]  02 72 7F 00 00 96 33 39
 (000.181884)  can0  003   [8]  10 00 10 00 04 FF 70 43
 (000.183710)  can0  201   [8]  DA 5B 7E 02 FF FF 00 EE
 (000.184119)  can0  203   [8]  00 00 00 00 C0 00 C0 00
 (000.184387)  can0  245   [8]  80 02 7F 7E 80 84 00 85
 (000.186035)  can0  001   [8]  CC 83 1F 9E 55 03 11 26
 (000.186278)  can0  073   [8]  05 20 93 67 00 40 10 68
 (000.189166)  can0  75E   [8]  00 81 00 2D 18 18 18 18
 (000.191174)  can0  12D   [8]  01 0F 00 00 50 53 56 79
 (000.191812)  can0  003   [8]  10 00 10 00 04 FF 80 3C
 (000.193011)  can0  005   [8]  11 00 02 1B 0D 00 18 99
 (000.194238)  can0  2EF   [8]  F7 00 FF 0F FF FF FF 00
 (000.194530)  can0  766   [8]  00 00 00 00 00 00 0F 08
 (000.196133)  can0  073   [8]  05 20 93 67 00 40 20 22
 (000.199107)  can0  75E   [8]  00 81 00 2D 18 18 18 18
 (000.200957)  can0  105   [8]  02 72 7F 00 00 96 43 60
 (000.201275)  can0  002   [5]  01 00 C0 00 07
 (000.201894)  can0  003   [8]  10 00 10 00 04 FF 90 F1
 (000.203285)  can0  201   [8]  DA 5B 7E 02 FF FF 10 23
 (000.203603)  can0  203   [8]  00 00 00 00 C0 00 C0 00
 (000.203852)  can0  245   [8]  80 07 7F 7E 81 84 10 85
 (000.206161)  can0  073   [8]  05 20 93 67 00 40 30 EF
 (000.208139)  can0  34D   [2]  10 00
 (000.210228)  can0  75E   [8]  00 81 00 2D 18 18 18 18
 (000.211143)  can0  30D   [8]  85 50 81 FF FF 02 61 81
 (000.211806)  can0  003   [8]  10 00 10 00 04 FF A0 BB
 (000.212330)  can0  045   [8]  00 FF 00 00 00 00 90 E8
 (000.213180)  can0  005   [8]  11 00 02 1C 0D 00 28 27
 (000.215056)  can0  766   [8]  00 00 00 00 00 00 0F 08
 (000.216131)  can0  073   [8]  05 20 93 67 00 40 40 B6
 (000.216628)  can0  10E   [4]  00 80 3A 00
 (000.220087)  can0  75E   [8]  00 81 00 2D 18 18 18 18
 (000.220870)  can0  105   [8]  02 70 7F 00 00 96 53 21
 (000.221659)  can0  10D   [4]  00 C0 00 02
 (000.221955)  can0  003   [8]  10 00 10 00 04 FF B0 76
 (000.223741)  can0  201   [8]  DA 5B 7E 02 FF FF 20 69
 (000.224081)  can0  203   [8]  00 00 00 00 C0 00 C0 00
 (000.224355)  can0  245   [8]  80 07 7F 7E 81 84 20 85
 (000.226134)  can0  073   [8]  05 20 93 67 00 40 50 7B
 (000.230032)  can0  75E   [8]  00 81 00 2D 18 18 18 18
 (000.231082)  can0  33D   [8]  00 42 00 00 64 00 00 00
 (000.231804)  can0  003   [8]  10 00 10 00 04 FF C0 2F
 (000.233030)  can0  005   [8]  11 00 02 1B 0D 00 38 1E
 (000.235059)  can0  766   [8]  00 00 00 00 00 00 0F 08
 (000.236036)  can0  400   [8]  FD 13 04 0F E0 81 00 05
 (000.236327)  can0  073   [8]  05 20 93 67 00 40 60 31
 (000.238170)  can0  375   [8]  13 10 34 3F 3F 07 00 00
 (000.240114)  can0  75E   [8]  00 81 00 2D 18 18 18 18
 (000.240378)  can0  76E   [8]  00 00 00 00 00 00 00 00
 (000.240882)  can0  105   [8]  02 71 7F 00 00 96 63 2D
 (000.241831)  can0  003   [8]  10 00 10 00 04 FF D0 E2
 (000.242558)  can0  34F   [8]  10 A0 00 A0 03 E7 07 FF
 (000.243279)  can0  201   [8]  DA 5B 7E 02 FF FF 30 A4
 (000.243778)  can0  203   [8]  00 00 00 00 C0 00 C0 00
 (000.244076)  can0  245   [8]  80 01 7F 7E 81 84 30 85
 (000.246005)  can0  388   [8]  35 FF 1F CF FF 0F 07 FF
 (000.246250)  can0  073   [8]  05 20 93 67 00 40 70 FC
 (000.250953)  can0  04B   [6]  01 00 0C 06 FF 04
 (000.251236)  can0  75E   [8]  00 81 00 2D 18 18 18 18
 (000.251475)  can0  249   [8]  24 B6 00 2B E8 00 FF FF
 (000.251837)  can0  003   [8]  10 00 10 00 04 FF E0 A8
 (000.253106)  can0  005   [8]  11 00 02 1A 0D 00 48 DA
 (000.256023)  can0  283   [8]  F5 0D 08 03 C0 6F 3F FF
 (000.256272)  can0  073   [8]  05 20 93 67 00 40 80 83
 (000.256550)  can0  766   [8]  00 00 00 00 00 00 0F 08
 (000.259032)  can0  007   [8]  F0 05 3A 00 3F FC AF 79
 (000.260880)  can0  105   [8]  02 71 7F 00 00 96 73 E0
 (000.261150)  can0  39D   [8]  1D 02 00 C7 FF 0E 00 27
 (000.261345)  can0  3D1   [4]  C9 08 00 00
 (000.261623)  can0  068   [1]  01
 (000.261925)  can0  75E   [8]  00 81 00 2D 18 18 18 18
 (000.262198)  can0  003   [8]  10 00 10 00 04 FF F0 65
 (000.262877)  can0  3F6   [5]  02 00 00 00 00
 (000.263703)  can0  201   [8]  DA 5B 7E 02 FF FF 40 FD
 (000.264004)  can0  247   [8]  00 00 00 06 00 18 00 00
 (000.264273)  can0  203   [8]  00 00 00 00 C0 00 C0 00
 (000.264649)  can0  245   [8]  80 00 7F 7E 80 84 40 85
 (000.265728)  can0  34E   [8]  00 00 B7 00 00 B7 11 27
 (000.266253)  can0  073   [8]  05 20 93 67 00 40 90 4E
 (000.267003)  can0  10C   [8]  3B 7F FF 07 03 FF C3 67
 (000.269055)  can0  205   [8]  06 93 0C 00 00 00 00 00
 (000.271807)  can0  003   [8]  10 00 10 00 04 FF 00 1A
 (000.272149)  can0  20E   [8]  3F 00 01 F0 FF FF 3F 68
 (000.272422)  can0  75E   [8]  00 81 00 2D 18 18 18 18
 (000.273229)  can0  005   [8]  11 00 02 1A 0D 00 58 17
 (000.276482)  can0  073   [8]  05 20 93 67 00 40 A0 04
 (000.277051)  can0  351   [8]  00 00 00 00 00 00 00 00
 (000.277322)  can0  766   [8]  00 00 00 00 00 00 0F 08
 (000.280855)  can0  105   [8]  02 71 7F 00 00 96 83 9F
 (000.282053)  can0  003   [8]  10 00 10 00 04 FF 10 D7
 (000.282324)  can0  75E   [8]  00 81 00 2D 18 18 18 18
 (000.282622)  can0  776   [8]  00 00 00 00 00 00 00 00
 (000.283277)  can0  201   [8]  DA 5B 7E 02 FF FF 50 30
 (000.283577)  can0  203   [8]  00 00 00 00 C0 00 C0 00
 (000.283849)  can0  336   [8]  71 42 00 00 00 00 00 00
 (000.284096)  can0  245   [8]  80 03 7F 7E 80 84 50 85
 (000.286102)  can0  073   [8]  05 20 93 67 00 40 B0 C9
 (000.286827)  can0  001   [8]  CC 83 1F 9E 55 03 21 6C
 (000.291182)  can0  12D   [8]  01 0F 00 00 50 53 56 79
 (000.291802)  can0  003   [8]  10 00 10 00 04 FF 20 9D
 (000.293003)  can0  75E   [8]  00 81 00 2D 18 18 18 18
 (000.293273)  can0  005   [8]  11 00 02 1B 0D 00 68 C0
 (000.296129)  can0  073   [8]  05 20 93 67 00 40 C0 90
 (000.298052)  can0  766   [8]  00 00 00 00 00 00 0F 08
 (000.300866)  can0  105   [8]  02 71 7F 00 00 96 93 52
 (000.301849)  can0  003   [8]  10 00 10 00 04 FF 30 50
 (000.303533)  can0  201   [8]  DA 5B 7E 02 FF FF 60 7A
 (000.303872)  can0  203   [8]  00 00 00 00 C0 00 C0 00
 (000.304119)  can0  245   [8]  80 05 7F 7E 80 84 60 85
 (000.304423)  can0  75E   [8]  00 81 00 2D 18 18 18 18
 (000.306131)  can0  073   [8]  05 20 93 67 00 40 D0 5D
 (000.306422)  can0  328   [2]  07 60
 (000.311327)  can0  30D   [8]  85 50 81 FF FF 02 61 81
 (000.311801)  can0  003   [8]  10 00 10 00 04 FF 40 09
 (000.312346)  can0  045   [8]  00 FF 00 00 00 00 A0 A2
 (000.313076)  can0  005   [8]  11 00 02 1B 0D 00 78 0D
 (000.314199)  can0  75E   [8]  00 81 00 2D 18 18 18 18
 (000.314595)  can0  3D3   [4]  C0 02 00 00
 (000.315849)  can0  35C   [8]  02 10 E0 00 00 FF FF 01
 (000.316147)  can0  073   [8]  05 20 93 67 00 40 E0 17
 (000.319077)  can0  766   [8]  00 00 00 00 00 00 0F 08
 (000.320932)  can0  105   [8]  02 71 7F 00 00 96 A3 18
 (000.321923)  can0  003   [8]  10 00 10 00 04 FF 50 C4
 (000.323304)  can0  201   [8]  DA 5B 7E 02 FF FF 70 B7
 (000.323595)  can0  203   [8]  00 00 00 00 C0 00 C0 00
 (000.323846)  can0  245   [8]  80 03 7F 7E 80 84 70 85
 (000.324119)  can0  75E   [8]  00 81 00 2D 18 18 18 18
 (000.326101)  can0  073   [8]  05 20 93 67 00 40 F0 DA
 (000.328300)  can0  413   [8]  FD 00 04 0F 10 00 00 05
 (000.330904)  can0  37D   [8]  02 00 04 B4 12 00 FF FF
 (000.331194)  can0  33D   [8]  00 42 00 00 64 00 00 00
 (000.331796)  can0  003   [8]  10 00 10 00 04 FF 60 8E
 (000.333073)  can0  005   [8]  11 00 02 1C 0D 00 88 86
 (000.334623)  can0  75E   [8]  00 81 00 2D 18 18 18 18
 (000.336152)  can0  073   [8]  05 20 93 67 00 40 00 A5
 (000.338260)  can0  375   [8]  13 10 34 3F 3F 07 00 00
 (000.340131)  can0  766   [8]  00 00 00 00 00 00 0F 08
 (000.340901)  can0  105   [8]  02 71 7F 00 00 96 B3 D5
 (000.341924)  can0  003   [8]  10 00 10 00 04 FF 70 43
 (000.342948)  can0  34F   [8]  10 A0 00 A0 03 E7 07 FF
 (000.343573)  can0  201   [8]  DA 5B 7E 02 FF FF 80 C8
 (000.344072)  can0  203   [8]  00 00 00 00 C0 00 C0 00
 (000.344343)  can0  245   [8]  80 02 7F 7E 81 84 80 85
 (000.345999)  can0  75E   [8]  00 81 00 2D 18 18 18 18
 (000.346268)  can0  073   [8]  05 20 93 67 00 40 10 68
 (000.346542)  can0  76E   [8]  00 00 00 00 00 00 00 00
 (000.351136)  can0  388   [8]  35 FF 1F CF FF 0F 07 FF
 (000.351419)  can0  249   [8]  2F E8 00 33 E8 00 FF FF
 (000.351804)  can0  003   [8]  10 00 10 00 04 FF 80 3C
 (000.353102)  can0  005   [8]  11 00 02 1A 0D 00 98 22
 (000.355982)  can0  04B   [6]  01 00 0C 06 FF 04
 (000.356206)  can0  073   [8]  05 20 93 67 00 40 20 22
 (000.356471)  can0  75E   [8]  00 81 00 2D 18 18 18 18
 (000.359126)  can0  007   [8]  F0 05 3A 00 3F FC AF 79
 (000.360949)  can0  105   [8]  02 71 7F 00 00 96 C3 8C
 (000.361217)  can0  39D   [8]  1D 02 00 C7 FF 0E 00 2F
 (000.361921)  can0  003   [8]  10 00 10 00 04 FF 90 F1
 (000.362470)  can0  283   [8]  F5 0D 08 03 C0 6F 3F FF
 (000.362742)  can0  766   [8]  00 00 00 00 00 00 0F 08
 (000.363495)  can0  201   [8]  DA 5B 7E 02 FF FF 90 05
 (000.363794)  can0  247   [8]  00 00 00 06 00 18 00 00
 (000.364068)  can0  203   [8]  00 00 00 00 C0 00 C0 00
 (000.364342)  can0  245   [8]  80 01 7F 7E 81 84 90 85
 (000.365695)  can0  34E   [8]  00 00 B7 00 00 B7 11 27
 (000.366193)  can0  073   [8]  05 20 93 67 00 40 30 EF
 (000.368003)  can0  75E   [8]  00 81 00 2D 18 18 18 18
 (000.369047)  can0  205   [8]  06 93 0C 00 00 00 00 00
 (000.371798)  can0  003   [8]  10 00 10 00 04 FF A0 BB
 (000.373178)  can0  005   [8]  11 00 02 1A 0D 00 A8 68
 (000.376123)  can0  073   [8]  05 20 93 67 00 40 40 B6
 (000.378047)  can0  75E   [8]  00 81 00 2D 18 18 18 18
 (000.380847)  can0  105   [8]  02 70 7F 00 00 96 D3 07
 (000.381823)  can0  003   [8]  10 00 10 00 04 FF B0 76
 (000.383696)  can0  201   [8]  DA 5B 7E 02 FF FF A0 4F
 (000.384098)  can0  203   [8]  00 00 00 00 C0 00 C0 00
 (000.384373)  can0  245   [8]  80 00 7F 7E 80 84 A0 85
 (000.384644)  can0  766   [8]  00 00 00 00 00 00 0F 08
 (000.386096)  can0  073   [8]  05 20 93 67 00 40 50 7B
 (000.386339)  can0  001   [8]  CC 83 1F 9E 55 03 31 A1
 (000.389146)  can0  75E   [8]  00 81 00 2D 18 18 18 18
 (000.391001)  can0  12D   [8]  01 0F 00 00 50 53 56 79
 (000.391829)  can0  003   [8]  10 00 10 00 04 FF C0 2F
 (000.392995)  can0  005   [8]  11 00 02 1B 0D 00 B8 38
 (000.394046)  can0  2EF   [8]  F7 00 FF 0F FF FF FF 00
 (000.395546)  can0  1C1   [4]  00 00 00 00
 (000.396119)  can0  073   [8]  05 20 93 67 00 40 60 31
 (000.399119)  can0  75E   [8]  00 81 00 2D 18 18 18 18
 (000.400963)  can0  105   [8]  02 70 7F 00 00 96 E3 4D
 (000.401918)  can0  003   [8]  10 00 10 00 04 FF D0 E2
 (000.403351)  can0  201   [8]  DA 5B 7E 02 FF FF B0 82
 (000.403690)  can0  203   [8]  00 00 00 00 C0 00 C0 00
 (000.403964)  can0  245   [8]  80 00 7F 7E 80 84 B0 85
 (000.405061)  can0  766   [8]  00 00 00 00 00 00 0F 08
 (000.406172)  can0  073   [8]  05 20 93 67 00 40 70 FC
 (000.410031)  can0  75E   [8]  00 81 00 2D 18 18 18 18
 (000.411043)  can0  30D   [8]  85 50 81 FF FF 02 61 81
 (000.411791)  can0  003   [8]  10 00 10 00 04 FF E0 A8
 (000.412339)  can0  045   [8]  00 FF 00 00 00 00 B0 6F
 (000.413166)  can0  005   [8]  11 00 02 1D 0D 00 C8 08
 (000.416125)  can0  073   [8]  05 20 93 67 00 40 80 83
 (000.420078)  can0  75E   [8]  00 81 00 2D 18 18 18 18
 (000.420851)  can0  105   [8]  02 70 7F 00 00 96 F3 80
 (000.421837)  can0  003   [8]  10 00 10 00 04 FF F0 65
 (000.423802)  can0  201   [8]  DA 5B 7E 02 FF FF C0 DB
 (000.424091)  can0  203   [8]  00 00 00 00 C0 00 C0 00
 (000.424363)  can0  245   [8]  80 05 7F 7E 81 84 C0 85
 (000.425018)  can0  766   [8]  00 00 00 00 00 00 0F 08
 (000.426047)  can0  400   [8]  FD 13 04 0F E0 81 00 05
 (000.426313)  can0  073   [8]  05 20 93 67 00 40 90 4E
 (000.430028)  can0  75E   [8]  00 81 00 2D 18 18 18 18
 (000.431226)  can0  33D   [8]  00 42 00 00 64 00 00 00
 (000.431793)  can0  003   [8]  10 00 10 00 04 FF 00 1A
 (000.433045)  can0  005   [8]  11 00 02 1A 0D 00 D8 31
 (000.436123)  can0  073   [8]  05 20 93 67 00 40 A0 04
 (000.438152)  can0  375   [8]  13 10 34 3F 3F 07 00 00
 (000.440070)  can0  75E   [8]  00 81 00 2D 18 18 18 18
 (000.440845)  can0  105   [8]  02 71 7F 00 00 96 03 B9
 (000.441793)  can0  34F   [8]  10 A0 00 A0 03 E7 07 FF
 (000.442087)  can0  003   [8]  10 00 10 00 04 FF 10 D7
 (000.443243)  can0  201   [8]  DA 5B 7E 02 FF FF D0 16
 (000.443740)  can0  203   [8]  00 00 00 00 C0 00 C0 00
 (000.444036)  can0  245   [8]  80 01 7F 7E 81 84 D0 85
 (000.446019)  can0  766   [8]  00 00 00 00 00 00 0F 08
 (000.446259)  can0  073   [8]  05 20 93 67 00 40 B0 C9
 (000.451034)  can0  75E   [8]  00 81 00 2D 18 18 18 18
 (000.451338)  can0  76E   [8]  00 00 00 00 00 00 00 00
 (000.451690)  can0  249   [8]  37 E8 00 3B E8 00 FF FF
 (000.451910)  can0  003   [8]  10 00 10 00 04 FF 20 9D
 (000.453069)  can0  005   [8]  11 00 02 1A 0D 00 E8 7B
 (000.456027)  can0  388   [8]  35 FF 1F CF FF 0F 07 FF
 (000.456260)  can0  073   [8]  05 20 93 67 00 40 C0 90
 (000.459070)  can0  007   [8]  F0 05 3A 00 3F FC AF 79
 (000.460868)  can0  105   [8]  02 71 7F 00 00 96 13 74
 (000.461263)  can0  39D   [8]  1D 02 00 C7 FF 0E 00 37
 (000.461484)  can0  04B   [6]  01 00 0C 06 FF 04
 (000.461685)  can0  3D1   [4]  C9 08 00 00
 (000.461960)  can0  003   [8]  10 00 10 00 04 FF 30 50
 (000.462235)  can0  75E   [8]  00 81 00 2D 18 18 18 18
 (000.462914)  can0  3F6   [5]  02 00 00 00 00
 (000.463695)  can0  201   [8]  DA 5B 7E 02 FF FF E0 5C
 (000.464035)  can0  247   [8]  00 00 00 06 00 18 00 00
 (000.464308)  can0  203   [8]  00 00 00 00 C0 00 C0 00
 (000.464633)  can0  245   [8]  80 01 7F 7E 81 84 E0 85
 (000.465740)  can0  34E   [8]  00 00 B7 00 00 B7 11 27
 (000.466262)  can0  073   [8]  05 20 93 67 00 40 D0 5D
 (000.467030)  can0  283   [8]  F5 0D 08 03 C0 6F 3F FF
 (000.467337)  can0  766   [8]  00 00 00 00 00 00 0F 08
 (000.469374)  can0  205   [8]  06 93 0C 00 00 00 00 00
 (000.471809)  can0  003   [8]  10 00 10 00 04 FF 40 09
 (000.471986)  can0  068   [1]  01
 (000.472264)  can0  75E   [8]  00 81 00 2D 18 18 18 18
 (000.473139)  can0  005   [8]  11 00 02 1B 0D 00 F8 2B
 (000.476189)  can0  073   [8]  05 20 93 67 00 40 E0 17
 (000.477059)  can0  10C   [8]  3B 7F FF 07 03 FF C3 67
 (000.480842)  can0  105   [8]  02 71 7F 00 00 96 23 3E
 (000.481939)  can0  003   [8]  10 00 10 00 04 FF 50 C4
 (000.482286)  can0  20E   [8]  3F 00 01 F0 FF FF 3F 68
 (000.482559)  can0  75E   [8]  00 81 00 2D 18 18 18 18
 (000.483267)  can0  201   [8]  DA 5B 7E 02 FF FF F0 91
 (000.483584)  can0  203   [8]  00 00 00 00 C0 00 C0 00
 (000.483835)  can0  336   [8]  71 42 00 00 00 00 00 00
 (000.484108)  can0  245   [8]  80 01 7F 7E 80 84 F0 85
 (000.486015)  can0  001   [8]  CC 83 1F 9E 55 03 41 F8
 (000.486258)  can0  073   [8]  05 20 93 67 00 40 F0 DA
 (000.488024)  can0  351   [8]  00 00 00 00 00 00 00 00
 (000.488287)  can0  766   [8]  00 00 00 00 00 00 0F 08
 (000.491021)  can0  12D   [8]  01 0F 00 00 50 53 56 79
 (000.491808)  can0  003   [8]  10 00 10 00 04 FF 60 8E
 (000.493013)  can0  75E   [8]  00 81 00 2D 18 18 18 18
 (000.493281)  can0  005   [8]  11 00 02 1A 0D 00 08 C9
 (000.493631)  can0  776   [8]  00 00 00 00 00 00 00 00
 (000.496095)  can0  073   [8]  05 20 93 67 00 40 00 A5
 (000.498020)  can0  208   [8]  1F 40 11 80 00 06 40 A8
 (000.500909)  can0  105   [8]  02 71 7F 00 00 96 33 F3
 (000.501889)  can0  003   [8]  10 00 10 00 04 FF 70 43
 (000.503039)  can0  207   [8]  10 09 3D 22 0F CB 4D AC
 (000.503308)  can0  75E   [8]  00 81 00 2D 18 18 18 18
 (000.503582)  can0  201   [8]  DA 5B 7E 02 FF FF 00 EE
 (000.503883)  can0  203   [8]  00 00 00 00 C0 00 C0 00
 (000.504130)  can0  245   [8]  80 01 7F 7E 81 84 00 85
 (000.506129)  can0  073   [8]  05 20 93 67 00 40 10 68
 (000.506387)  can0  328   [2]  07 60
 (000.507989)  can0  206   [8]  00 00 0D 20 C1 80 D2 CC
 (000.508256)  can0  766   [8]  00 00 00 00 00 00 0F 08
 (000.511040)  can0  30D   [8]  85 50 81 FF FF 02 5C 81
 (000.511786)  can0  003   [8]  10 00 10 00 04 FF 80 3C
 (000.512358)  can0  045   [8]  00 FF 00 00 00 00 C0 36
 (000.513035)  can0  20A   [8]  FA FF 00 FC FF FF FF 7F
 (000.513281)  can0  005   [8]  11 00 02 1B 0D 00 18 99
 (000.513631)  can0  75E   [8]  00 81 00 2D 18 18 18 18
 (000.514514)  can0  3D3   [4]  C0 02 00 00
 (000.515845)  can0  35C   [8]  02 10 E0 00 00 FF FF 01
 (000.516131)  can0  073   [8]  05 20 93 67 00 40 20 22
 (000.518294)  can0  413   [8]  FD 00 04 0F 10 00 00 05
 (000.520947)  can0  105   [8]  02 71 7F 00 00 96 43 AA
 (000.521905)  can0  003   [8]  10 00 10 00 04 FF 90 F1
 (000.523267)  can0  201   [8]  DA 5B 7E 02 FF FF 10 23
 (000.523685)  can0  203   [8]  00 00 00 00 C0 00 C0 00
 (000.523981)  can0  245   [8]  7F FF 7F 7E 80 84 10 85
 (000.524258)  can0  75E   [8]  00 81 00 2D 18 18 18 18
 (000.526065)  can0  073   [8]  05 20 93 67 00 40 30 EF
 (000.529038)  can0  766   [8]  00 00 00 00 00 00 0F 08
 (000.529304)  can0  37D   [8]  02 00 04 B4 12 00 FF FF
 (000.531087)  can0  33D   [8]  00 42 00 00 64 00 00 00
 (000.531784)  can0  003   [8]  10 00 10 00 04 FF A0 BB
 (000.533087)  can0  005   [8]  11 00 02 1C 0D 00 28 27
 (000.534228)  can0  75E   [8]  00 81 00 2D 18 18 18 18
 (000.536268)  can0  073   [8]  05 20 93 67 00 40 40 B6
 (000.538268)  can0  375   [8]  13 10 34 3F 3F 07 00 00
 (000.540841)  can0  105   [8]  02 71 7F 00 00 96 53 67
 (000.541787)  can0  003   [8]  10 00 10 00 04 FF B0 76
 (000.542868)  can0  34F   [8]  10 A0 00 A0 03 E7 07 FF
 (000.543535)  can0  201   [8]  DA 5B 7E 02 FF FF 20 69
 (000.544033)  can0  203   [8]  00 00 00 00 C0 00 C0 00
 (000.544381)  can0  245   [8]  7F FF 7F 7E 80 84 20 85
 (000.545010)  can0  75E   [8]  00 81 00 2D 18 18 18 18
 (000.546083)  can0  073   [8]  05 20 93 67 00 40 50 7B
 (000.550012)  can0  766   [8]  00 00 00 00 00 00 0F 08
 (000.551256)  can0  249   [8]  3F E8 00 FF FF 00 03 FF
 (000.551811)  can0  003   [8]  10 00 10 00 04 FF C0 2F
 (000.553034)  can0  005   [8]  11 00 02 1C 0D 00 38 EA
 (000.555001)  can0  004   [5]  01 00 00 37 07
 (000.555252)  can0  75E   [8]  00 81 00 2D 18 18 18 18
 (000.555525)  can0  76E   [8]  00 00 00 00 00 00 00 00
 (000.556083)  can0  073   [8]  05 20 93 67 00 40 60 31
 (000.559169)  can0  007   [8]  F0 05 3A 00 3F FC AF 79
 (000.560815)  can0  388   [8]  35 FF 1F CF FF 0F 07 FF
 (000.561078)  can0  105   [8]  02 71 7F 00 00 96 63 2D
 (000.561328)  can0  39D   [8]  1D 02 00 C7 FF 0E 00 3F
 (000.561882)  can0  003   [8]  10 00 10 00 04 FF D0 E2
 (000.563257)  can0  201   [8]  DA 5B 7E 02 FF FF 30 A4
 (000.563579)  can0  247   [8]  00 00 00 06 00 18 00 00
 (000.563854)  can0  203   [8]  00 00 00 00 C0 00 C0 00
 (000.564127)  can0  245   [8]  80 01 7F 7E 81 84 30 85
 (000.565709)  can0  34E   [8]  00 00 B7 00 00 B7 11 27
 (000.566003)  can0  04B   [6]  01 00 0C 06 FF 04
 (000.566277)  can0  073   [8]  05 20 93 67 00 40 70 FC
 (000.566551)  can0  75E   [8]  00 81 00 2D 18 18 18 18
 (000.569033)  can0  205   [8]  06 93 0C 00 00 00 00 00
 (000.570991)  can0  283   [8]  F5 0D 08 03 C0 6F 3F FF
 (000.571282)  can0  766   [8]  00 00 00 00 00 00 0F 08
 (000.571781)  can0  003   [8]  10 00 10 00 04 FF E0 A8
 (000.573408)  can0  005   [8]  11 00 02 1A 0D 00 48 DA
 (000.576011)  can0  75E   [8]  00 81 00 2D 18 18 18 18
 (000.576275)  can0  073   [8]  05 20 93 67 00 40 80 83
 (000.580838)  can0  105   [8]  02 71 7F 00 00 96 73 E0
 (000.581810)  can0  003   [8]  10 00 10 00 04 FF F0 65
 (000.583773)  can0  201   [8]  DA 5B 7E 02 FF FF 40 FD
 (000.584129)  can0  203   [8]  00 00 00 00 C0 00 C0 00
 (000.584400)  can0  245   [8]  80 07 7F 7E 81 84 40 85
 (000.585970)  can0  001   [8]  CC 83 1F 9E 55 03 51 35
 (000.586230)  can0  073   [8]  05 20 93 67 00 40 90 4E
 (000.586505)  can0  75E   [8]  00 81 00 2D 18 18 18 18
 (000.591161)  can0  766   [8]  00 00 00 00 00 00 0F 08
 (000.591426)  can0  12D   [8]  01 0F 00 00 50 53 56 79
 (000.591777)  can0  003   [8]  10 00 10 00 04 FF 00 1A
 (000.592961)  can0  005   [8]  11 00 02 1A 0D 00 58 17
 (000.594011)  can0  2EF   [8]  F7 00 FF 0F FF FF FF 00
 (000.596018)  can0  75E   [8]  00 81 00 2D 18 18 18 18
 (000.596274)  can0  073   [8]  05 20 93 67 00 40 A0 04
 (000.600985)  can0  105   [8]  02 70 7F 00 00 96 83 D9
 (000.601930)  can0  003   [8]  10 00 10 00 04 FF 10 D7
 (000.603282)  can0  201   [8]  DA 5B 7E 02 FF FF 50 30
 (000.603601)  can0  203   [8]  00 00 00 00 C0 00 C0 00
 (000.603851)  can0  245   [8]  80 05 7F 7E 81 84 50 85
 (000.606010)  can0  75E   [8]  00 81 00 2D 18 18 18 18
 (000.606275)  can0  073   [8]  05 20 93 67 00 40 B0 C9
 (000.611035)  can0  766   [8]  00 00 00 00 00 00 0F 08
 (000.611375)  can0  30D   [8]  85 50 81 FF FF 02 5C 81
 (000.611876)  can0  003   [8]  10 00 10 00 04 FF 20 9D
 (000.612224)  can0  400   [8]  FD 13 04 0F E0 81 00 05
 (000.612500)  can0  045   [8]  00 FF 00 00 00 00 D0 FB
 (000.613110)  can0  005   [8]  11 00 02 1B 0D 00 68 C0
 (000.616013)  can0  75E   [8]  00 81 00 2D 18 18 18 18
 (000.616273)  can0  073   [8]  05 20 93 67 00 40 C0 90
 (000.620813)  can0  105   [8]  02 70 7F 00 00 96 93 14
 (000.621781)  can0  003   [8]  10 00 10 00 04 FF 30 50
 (000.623631)  can0  201   [8]  DA 5B 7E 02 FF FF 60 7A
 (000.624026)  can0  203   [8]  00 00 00 00 C0 00 C0 00
 (000.624298)  can0  245   [8]  80 00 7F 7E 81 84 60 85
 (000.626029)  can0  75E   [8]  00 81 00 2D 18 18 18 18
 (000.626298)  can0  073   [8]  05 20 93 67 00 40 D0 5D
 (000.631032)  can0  766   [8]  00 00 00 00 00 00 0F 08
 (000.631500)  can0  33D   [8]  00 42 00 00 64 00 00 00
 (000.631825)  can0  003   [8]  10 00 10 00 04 FF 40 09
 (000.633051)  can0  005   [8]  11 00 02 1B 0D 00 78 0D
 (000.636006)  can0  75E   [8]  00 81 00 2D 18 18 18 18
 (000.636298)  can0  073   [8]  05 20 93 67 00 40 E0 17
 (000.638128)  can0  375   [8]  13 10 34 3F 3F 07 00 00
 (000.640828)  can0  105   [8]  02 70 7F 00 00 96 A3 5E
 (000.641752)  can0  34F   [8]  10 A0 00 A0 03 E7 07 FF
 (000.642048)  can0  003   [8]  10 00 10 00 04 FF 50 C4
 (000.643277)  can0  201   [8]  DA 5B 7E 02 FF FF 70 B7
 (000.643775)  can0  203   [8]  00 00 00 00 C0 00 C0 00
 (000.644022)  can0  245   [8]  7F FF 7F 7E 80 84 70 85
 (000.646000)  can0  75E   [8]  00 81 00 2D 18 18 18 18
 (000.646272)  can0  073   [8]  05 20 93 67 00 40 F0 DA
 (000.651208)  can0  249   [8]  04 FC 00 09 58 00 FF FF
 (000.651499)  can0  766   [8]  00 00 00 00 00 00 0F 08
 (000.651848)  can0  003   [8]  10 00 10 00 04 FF 60 8E
 (000.653055)  can0  005   [8]  11 00 02 1B 0D 00 88 72
 (000.656031)  can0  75E   [8]  00 81 00 2D 18 18 18 18
 (000.656270)  can0  073   [8]  05 20 93 67 00 40 00 A5
 (000.656570)  can0  76E   [8]  00 00 00 00 00 00 00 00
 (000.659014)  can0  007   [8]  F0 05 3A 00 3F FC AF 79
 (000.660775)  can0  39D   [8]  1D 02 00 C6 FF 0E 00 47
 (000.661070)  can0  105   [8]  02 6E 7F 00 00 96 B3 04
 (000.661318)  can0  3D1   [4]  C9 08 00 00
 (000.661872)  can0  003   [8]  10 00 10 00 04 FF 70 43
 (000.662070)  can0  3F6   [5]  02 00 00 00 00
 (000.662394)  can0  388   [8]  35 FF 1F CF FF 0F 07 FF
 (000.663426)  can0  204   [8]  00 57 44 44 4B 4A 36 46
 (000.663697)  can0  201   [8]  DA 5B 7E 02 FF FF 80 C8
 (000.663970)  can0  247   [8]  00 00 00 06 00 18 00 00
 (000.664245)  can0  203   [8]  00 00 00 00 C0 00 C0 00
 (000.664622)  can0  245   [8]  7F FE 7F 7E 80 84 80 85
 (000.665699)  can0  34E   [8]  00 00 B7 00 00 B7 11 27
 (000.666219)  can0  073   [8]  05 20 93 67 00 40 10 68
 (000.666971)  can0  04B   [6]  01 00 0C 06 FF 04
 (000.667254)  can0  75E   [8]  00 81 00 2D 18 18 18 18
 (000.669025)  can0  205   [8]  06 93 0C 00 00 00 00 00
 (000.671852)  can0  003   [8]  10 00 10 00 04 FF 80 3C
 (000.672094)  can0  283   [8]  F5 0D 08 03 C0 6F 3F FF
 (000.672417)  can0  766   [8]  00 00 00 00 00 00 0F 08
 (000.673195)  can0  005   [8]  11 00 02 1A 0D 00 98 22
 (000.676256)  can0  073   [8]  05 20 93 67 00 40 20 22
 (000.676896)  can0  068   [1]  01
 (000.677168)  can0  75E   [8]  00 81 00 2D 18 18 18 18
 (000.680799)  can0  105   [8]  02 6E 7F 00 00 96 C3 5D
 (000.682002)  can0  003   [8]  10 00 10 00 04 FF 90 F1
 (000.682270)  can0  10C   [8]  3B 7F FF 07 03 FF C3 67
 (000.683349)  can0  201   [8]  DA 5B 7E 02 FF FF 90 05
 (000.683619)  can0  204   [8]  01 42 31 47 46 33 31 34
 (000.683896)  can0  203   [8]  00 00 00 00 C0 00 C0 00
 (000.684169)  can0  336   [8]  71 42 00 00 00 00 00 00
 (000.684444)  can0  245   [8]  80 00 7F 7E 80 84 90 85
 (000.685949)  can0  001   [8]  CC 83 1F 9E 55 03 61 7F
 (000.686219)  can0  073   [8]  05 20 93 67 00 40 30 EF
 (000.687023)  can0  20E   [8]  3F 00 01 F0 FF FF 3F 68
 (000.687345)  can0  75E   [8]  00 81 00 2D 18 18 18 18
 (000.687493)  can0  1C0   [2]  00 00
 (000.690956)  can0  12D   [8]  01 0F 00 00 50 53 56 79
 (000.691849)  can0  003   [8]  10 00 10 00 04 FF A0 BB
 (000.692119)  can0  351   [8]  00 00 00 00 00 00 00 00
 (000.692471)  can0  766   [8]  00 00 00 00 00 00 0F 08
 (000.693131)  can0  005   [8]  11 00 02 1A 0D 00 A8 68
 (000.696103)  can0  073   [8]  05 20 93 67 00 40 40 B6
 (000.697049)  can0  75E   [8]  00 81 00 2D 18 18 18 18
 (000.697317)  can0  776   [8]  00 00 00 00 00 00 00 00
 (000.700805)  can0  105   [8]  02 6D 7F 00 00 96 D3 5A
 (000.701144)  can0  002   [5]  01 00 C0 00 07
 (000.701776)  can0  003   [8]  10 00 10 00 04 FF B0 76
 (000.703501)  can0  204   [8]  02 33 33 35 FF FF FF FF
 (000.703769)  can0  201   [8]  DA 5B 7E 02 FF FF A0 4F
 (000.704043)  can0  203   [8]  00 00 00 00 C0 00 C0 00
 (000.704291)  can0  245   [8]  80 05 7F 7E 81 84 A0 85
 (000.706101)  can0  073   [8]  05 20 93 67 00 40 50 7B
 (000.706441)  can0  328   [2]  07 60
 (000.707143)  can0  75E   [8]  00 81 00 2D 18 18 18 18
 (000.708273)  can0  413   [8]  FD 00 04 0F 10 00 00 05
 (000.709446)  can0  34D   [2]  10 00
 (000.711023)  can0  30D   [8]  85 50 81 FF FF 02 5C 81
 (000.711795)  can0  003   [8]  10 00 10 00 04 FF C0 2F
 (000.712144)  can0  766   [8]  00 00 00 00 00 00 0F 08
 (000.712416)  can0  045   [8]  00 FF 00 00 00 00 E0 B1
 (000.713223)  can0  005   [8]  11 00 02 18 0D 00 B8 82
 (000.714379)  can0  3D3   [4]  C0 02 00 00
 (000.715830)  can0  35C   [8]  02 10 E0 00 00 FF FF 01
 (000.716121)  can0  073   [8]  05 20 93 67 00 40 60 31
 (000.716521)  can0  10E   [4]  00 80 3A 00
 (000.717059)  can0  75E   [8]  00 81 00 2D 18 18 18 18
 (000.720848)  can0  105   [8]  02 6D 7F 00 00 96 E3 10
 (000.721595)  can0  10D   [4]  00 C0 00 02
 (000.722045)  can0  003   [8]  10 00 10 00 04 FF D0 E2
 (000.723272)  can0  201   [8]  DA 5B 7E 02 FF FF B0 82
 (000.723592)  can0  203   [8]  00 00 00 00 C0 00 C0 00
 (000.723841)  can0  245   [8]  80 03 7F 7E 81 84 B0 85
 (000.726074)  can0  073   [8]  05 20 93 67 00 40 70 FC
 (000.727046)  can0  75E   [8]  00 81 00 2D 18 18 18 18
 (000.729026)  can0  37D   [8]  02 00 04 B4 12 00 FF FF
 (000.731203)  can0  33D   [8]  00 42 00 00 64 00 00 00
 (000.731802)  can0  003   [8]  10 00 10 00 04 FF E0 A8
 (000.732220)  can0  766   [8]  00 00 00 00 00 00 0F 08
 (000.733046)  can0  005   [8]  11 00 02 1D 0D 00 C8 08
 (000.736097)  can0  073   [8]  05 20 93 67 00 40 80 83
 (000.737048)  can0  75E   [8]  00 81 00 2D 18 18 18 18
 (000.738203)  can0  375   [8]  13 10 34 3F 3F 07 00 00
 (000.740827)  can0  105   [8]  02 6D 7F 00 00 96 F3 DD
 (000.741778)  can0  003   [8]  10 00 10 00 04 FF F0 65
 (000.742877)  can0  34F   [8]  10 A0 00 A0 03 E7 07 FF
 (000.743555)  can0  201   [8]  DA 5B 7E 02 FF FF C0 DB
 (000.744048)  can0  203   [8]  00 00 00 00 C0 00 C0 00
 (000.744318)  can0  245   [8]  80 01 7F 7E 81 84 C0 85
 (000.746081)  can0  073   [8]  05 20 93 67 00 40 90 4E
 (000.747054)  can0  75E   [8]  00 81 00 2D 18 18 18 18
 (000.751202)  can0  249   [8]  0E 1D 00 13 E8 00 FF FF
 (000.751776)  can0  003   [8]  10 00 10 00 04 FF 00 1A
 (000.752145)  can0  766   [8]  00 00 00 00 00 00 0F 08
 (000.752999)  can0  005   [8]  11 00 02 1D 0D 00 D8 C5
 (000.756100)  can0  073   [8]  05 20 93 67 00 40 A0 04
 (000.757045)  can0  75E   [8]  00 81 00 2D 18 18 18 18
 (000.757313)  can0  76E   [8]  00 00 00 00 00 00 00 00
 (000.759126)  can0  007   [8]  F0 05 3A 00 3F FC AF 79
 (000.760951)  can0  105   [8]  02 6D 7F 00 00 96 03 A2
 (000.761242)  can0  39D   [8]  1D 02 00 C6 FF 0E 00 4F
 (000.761897)  can0  003   [8]  10 00 10 00 04 FF 10 D7
 (000.763052)  can0  388   [8]  35 FF 1F CF FF 0F 07 FF
 (000.763163)  can0  317   [2]  0A 00
 (000.763413)  can0  201   [8]  DA 5B 7E 02 FF FF D0 16
 (000.763690)  can0  247   [8]  00 00 00 06 00 18 00 00
 (000.763988)  can0  203   [8]  00 00 00 00 C0 00 C0 00
 (000.764238)  can0  245   [8]  80 07 7F 7E 80 84 D0 85
 (000.765700)  can0  34E   [8]  00 00 B7 00 00 B7 11 27
 (000.766228)  can0  073   [8]  05 20 93 67 00 40 B0 C9
 (000.767949)  can0  04B   [6]  01 00 0C 06 FF 04
 (000.768215)  can0  75E   [8]  00 81 00 2D 18 18 18 18
 (000.769020)  can0  205   [8]  06 93 0C 00 00 00 00 00
 (000.771780)  can0  003   [8]  10 00 10 00 04 FF 20 9D
 (000.772999)  can0  283   [8]  F5 0D 08 03 C0 6F 3F FF
 (000.773265)  can0  005   [8]  11 00 02 1D 0D 00 E8 8F
 (000.773539)  can0  766   [8]  00 00 00 00 00 00 0F 08
 (000.776121)  can0  073   [8]  05 20 93 67 00 40 C0 90
 (000.778048)  can0  75E   [8]  00 81 00 2D 18 18 18 18
 (000.780821)  can0  105   [8]  02 6D 7F 00 00 97 13 23
 (000.781766)  can0  003   [8]  10 00 10 00 04 FF 30 50
 (000.783716)  can0  201   [8]  DA 5B 7E 02 FF FF E0 5C
 (000.784147)  can0  203   [8]  00 00 00 00 C0 00 C0 00
 (000.784390)  can0  245   [8]  80 05 7F 7E 80 84 E0 85
 (000.785943)  can0  001   [8]  CC 83 1F 9E 55 03 71 B2
 (000.786189)  can0  073   [8]  05 20 93 67 00 40 D0 5D
 (000.789069)  can0  75E   [8]  00 81 00 2D 18 18 18 18
 (000.790954)  can0  12D   [8]  01 0F 00 00 50 53 56 79
 (000.791937)  can0  003   [8]  10 00 10 00 04 FF 40 09
 (000.793017)  can0  005   [8]  11 00 02 1C 0D 00 F8 DF
 (000.794090)  can0  766   [8]  00 00 00 00 00 00 0F 08
 (000.794361)  can0  2EF   [8]  F7 00 FF 0F FF FF FF 00
 (000.795038)  can0  400   [8]  FD 13 04 0F E0 81 00 05
 (000.796239)  can0  073   [8]  05 20 93 67 00 40 E0 17
 (000.799115)  can0  75E   [8]  00 81 00 2D 18 18 18 18
 (000.800941)  can0  105   [8]  02 6D 7F 00 00 97 23 69
 (000.801921)  can0  003   [8]  10 00 10 00 04 FF 50 C4
 (000.803318)  can0  201   [8]  DA 5B 7E 02 FF FF F0 91
 (000.803662)  can0  203   [8]  00 00 00 00 C0 00 C0 00
 (000.803909)  can0  245   [8]  80 05 7F 7E 81 84 F0 85
 (000.806116)  can0  073   [8]  05 20 93 67 00 40 F0 DA
 (000.810043)  can0  75E   [8]  00 81 00 2D 18 18 18 18
 (000.810990)  can0  30D   [8]  85 50 81 FF FF 02 5C 81
 (000.811765)  can0  003   [8]  10 00 10 00 04 FF 60 8E
 (000.812363)  can0  045   [8]  00 FF 00 00 00 00 F0 7C
 (000.813089)  can0  005   [8]  11 00 02 1C 0D 00 08 A0
 (000.815015)  can0  766   [8]  00 00 00 00 00 00 0F 08
 (000.816041)  can0  073   [8]  05 20 93 67 00 40 00 A5
 (000.816915)  can0  2FF   [8]  02 28 00 53 FF 54 62 FE
 (000.820270)  can0  75E   [8]  00 81 00 2D 18 18 18 18
 (000.820840)  can0  105   [8]  02 6E 7F 00 00 97 33 6E
 (000.821830)  can0  003   [8]  10 00 10 00 04 FF 70 43
 (000.823675)  can0  201   [8]  DA 5B 7E 02 FF FF 00 EE
 (000.824065)  can0  203   [8]  00 00 00 00 C0 00 C0 00
 (000.824335)  can0  245   [8]  80 03 7F 7E 80 84 00 85
 (000.826066)  can0  073   [8]  05 20 93 67 00 40 10 68
 (000.830015)  can0  75E   [8]  00 81 00 2D 18 18 18 18
 (000.830988)  can0  33D   [8]  00 42 00 00 64 00 00 00
 (000.831762)  can0  003   [8]  10 00 10 00 04 FF 80 3C
 (000.833013)  can0  005   [8]  11 00 02 1A 0D 00 18 04
 (000.836016)  can0  766   [8]  00 00 00 00 00 00 0F 08
 (000.836283)  can0  073   [8]  05 20 93 67 00 40 20 22
 (000.838126)  can0  375   [8]  13 10 34 3F 3F 07 00 00
 (000.839312)  can0  30E   [8]  0C 00 00 00 00 05 FF 03
 (000.840824)  can0  105   [8]  02 6E 7F 00 00 97 43 37
 (000.841338)  can0  75E   [8]  00 81 00 2D 18 18 18 18
 (000.841761)  can0  34F   [8]  10 A0 00 A0 03 E7 07 FF
 (000.842060)  can0  003   [8]  10 00 10 00 04 FF 90 F1
 (000.843267)  can0  201   [8]  DA 5B 7E 02 FF FF 10 23
 (000.843764)  can0  203   [8]  00 00 00 00 C0 00 C0 00
 (000.844237)  can0  245   [8]  80 01 7F 7E 80 84 10 85
 (000.846066)  can0  073   [8]  05 20 93 67 00 40 30 EF
 (000.851222)  can0  249   [8]  16 0B 00 19 47 00 FF FF
 (000.851821)  can0  003   [8]  10 00 10 00 04 FF A0 BB
 (000.852056)  can0  75E   [8]  00 81 00 2D 18 18 18 18
 (000.853091)  can0  005   [8]  11 00 02 1A 0D 00 28 4E
 (000.856090)  can0  073   [8]  05 20 93 67 00 40 40 B6
 (000.857065)  can0  766   [8]  00 00 00 00 00 00 0F 08
 (000.858996)  can0  007   [8]  F0 05 3A 00 3F FC AF 79
 (000.860787)  can0  105   [8]  02 6D 7F 00 00 97 53 30
 (000.861031)  can0  3D1   [4]  C9 08 00 00
 (000.861357)  can0  39D   [8]  1D 02 00 C6 FF 0E 00 57
 (000.861960)  can0  003   [8]  10 00 10 00 04 FF B0 76
 (000.862787)  can0  3F6   [5]  02 00 00 00 00
 (000.863083)  can0  75E   [8]  00 81 00 2D 18 18 18 18
 (000.863381)  can0  76E   [8]  00 00 00 00 00 00 00 00
 (000.863658)  can0  201   [8]  DA 5B 7E 02 FF FF 20 69
 (000.863908)  can0  247   [8]  00 00 00 06 00 18 00 00
 (000.864181)  can0  203   [8]  00 00 00 00 C0 00 C0 00
 (000.864504)  can0  245   [8]  80 01 7F 7E 80 84 20 85
 (000.865836)  can0  34E   [8]  00 00 B7 00 00 B7 11 27
 (000.866107)  can0  073   [8]  05 20 93 68 00 40 50 13
 (000.868058)  can0  388   [8]  35 FF 1F CF FF 0F 07 FF
 (000.869063)  can0  205   [8]  06 93 0C 00 00 00 00 00
 (000.871777)  can0  003   [8]  10 00 10 00 04 FF C0 2F
 (000.873047)  can0  04B   [6]  01 00 0C 06 FF 04
 (000.873294)  can0  005   [8]  11 00 02 1B 0D 00 38 1E
 (000.873560)  can0  75E   [8]  00 81 00 2D 18 18 18 18
 (000.876239)  can0  073   [8]  05 20 93 68 00 40 60 59
 (000.877987)  can0  283   [8]  F5 0D 08 03 C0 6F 3F FF
 (000.878281)  can0  766   [8]  00 00 00 00 00 00 0F 08
 (000.880811)  can0  105   [8]  02 6E 7F 00 00 97 63 B0
 (000.881988)  can0  003   [8]  10 00 10 00 04 FF D0 E2
 (000.883235)  can0  201   [8]  DA 5B 7E 02 FF FF 30 A4
 (000.883555)  can0  203   [8]  00 00 00 00 C0 00 C0 00
 (000.883806)  can0  336   [8]  71 42 00 00 00 00 00 00
 (000.884082)  can0  245   [8]  80 02 7F 7E 80 84 30 85
 (000.884243)  can0  068   [1]  01
 (000.884507)  can0  75E   [8]  00 81 00 2D 18 18 18 18
 (000.885384)  can0  26F   [2]  6F C0
 (000.886060)  can0  073   [8]  05 20 93 68 00 40 70 94
 (000.886404)  can0  001   [8]  CC 83 1F 9E 55 03 81 CD
 (000.888303)  can0  413   [8]  FD 00 04 0F 10 00 00 05
 (000.888986)  can0  10C   [8]  3B 7F FF 07 03 FF C3 67
 (000.891563)  can0  12D   [8]  01 0F 00 00 50 53 56 79
 (000.891833)  can0  003   [8]  10 00 10 00 04 FF E0 A8
 (000.893040)  can0  005   [8]  11 00 02 1B 0D 00 48 47
 (000.894186)  can0  20E   [8]  3F 00 01 F0 FF FF 3F 68
 (000.894487)  can0  75E   [8]  00 81 00 2D 18 18 18 18
 (000.895560)  can0  1C1   [4]  00 00 00 00
 (000.896033)  can0  073   [8]  05 20 93 68 00 40 80 EB
 (000.899008)  can0  351   [8]  00 00 00 00 00 00 00 00
 (000.899303)  can0  766   [8]  00 00 00 00 00 00 0F 08
 (000.901195)  can0  105   [8]  02 6E 7F 00 00 97 73 7D
 (000.901930)  can0  003   [8]  10 00 10 00 04 FF F0 65
 (000.903539)  can0  201   [8]  DA 5B 7E 02 FF FF 40 FD
 (000.903859)  can0  203   [8]  00 00 00 00 C0 00 C0 00
 (000.904104)  can0  245   [8]  80 03 7F 7E 80 84 40 85
 (000.905011)  can0  75E   [8]  00 81 00 2D 18 18 18 18
 (000.905305)  can0  776   [8]  00 00 00 00 00 00 00 00
 (000.906103)  can0  073   [8]  05 20 93 68 00 40 90 26
 (000.907241)  can0  328   [2]  07 60
 (000.911015)  can0  30D   [8]  85 50 81 FF FF 02 5C 81
 (000.911557)  can0  39F   [8]  12 1F 1C 02 0B 19 0A FF
 (000.911880)  can0  003   [8]  10 00 10 00 04 FF 00 1A
 (000.912556)  can0  045   [8]  00 FF 00 00 00 00 00 03
 (000.913081)  can0  005   [8]  11 00 02 1B 0D 00 58 8A
 (000.914258)  can0  3D3   [4]  C0 02 00 00
 (000.915007)  can0  75E   [8]  00 81 00 2D 18 18 18 18
 (000.915782)  can0  19F   [8]  00 00 74 F0 1C 22 62 01
 (000.916105)  can0  073   [8]  05 20 93 68 00 40 A0 6C
 (000.916379)  can0  35C   [8]  02 10 E0 00 00 FF FF 01
 (000.920093)  can0  766   [8]  00 00 00 00 00 00 0F 08
 (000.920937)  can0  105   [8]  02 6E 7F 00 00 97 83 02
 (000.921893)  can0  003   [8]  10 00 10 00 04 FF 10 D7
 (000.923344)  can0  201   [8]  DA 5B 7E 02 FF FF 50 30
 (000.923656)  can0  203   [8]  00 00 00 00 C0 00 C0 00
 (000.923903)  can0  245   [8]  80 07 7F 7E 80 84 50 85
 (000.925736)  can0  3E3   [8]  5A FD 95 C7 29 CF 5E D0
 (000.926055)  can0  073   [8]  05 20 93 68 00 40 B0 A1
 (000.926329)  can0  75E   [8]  00 81 00 2D 18 18 18 18
 (000.928983)  can0  37D   [8]  02 00 04 B3 12 00 FF FF
 (000.931007)  can0  33D   [8]  00 42 00 00 64 00 00 00
 (000.931278)  can0  3F2   [8]  00 17 00 06 00 00 3F FD
 (000.931780)  can0  003   [8]  10 00 10 00 04 FF 20 9D
 (000.933031)  can0  005   [8]  11 00 02 1D 0D 00 68 A9
 (000.935809)  can0  3E5   [8]  0E 0A 0A 0A 04 FF FF 00
 (000.936103)  can0  073   [8]  05 20 93 68 00 40 C0 F8
 (000.936376)  can0  75E   [8]  00 81 00 2D 18 18 18 18
 (000.936728)  can0  3E7   [8]  5A FD 97 89 29 CF 5D E8
 (000.938199)  can0  375   [8]  13 10 34 3F 3F 07 00 00
 (000.940788)  can0  105   [8]  02 6E 7F 00 00 97 93 CF
 (000.941434)  can0  766   [8]  00 00 00 00 00 00 0F 08
 (000.941930)  can0  003   [8]  10 00 10 00 04 FF 30 50
 (000.942657)  can0  34F   [8]  10 A0 00 A0 03 E7 07 FF
 (000.943531)  can0  201   [8]  DA 5B 7E 02 FF FF 60 7A
 (000.944030)  can0  203   [8]  00 00 00 00 C0 00 C0 00
 (000.944304)  can0  245   [8]  80 07 7F 7E 81 84 60 85
 (000.945808)  can0  3E9   [8]  07 E9 0B 03 02 1F 0A F0
 (000.946076)  can0  073   [8]  05 20 93 68 00 40 D0 35
 (000.946737)  can0  3EB   [8]  00 01 06 42 0D 3B 0D 98
 (000.947082)  can0  75E   [8]  00 81 00 2D 18 18 18 18
 (000.951244)  can0  249   [8]  1C 70 00 22 B4 00 FF FF
 (000.951790)  can0  003   [8]  10 00 10 00 04 FF 40 09
 (000.953009)  can0  005   [8]  11 00 02 1C 0D 00 78 F9
 (000.956092)  can0  073   [8]  05 20 93 68 00 40 E0 7F
 (000.957062)  can0  75E   [8]  00 81 00 2D 18 18 18 18
 (000.959108)  can0  007   [8]  F0 05 3A 00 3F FC AF 79
 (000.960930)  can0  105   [8]  02 6E 7F 00 00 97 A3 85
 (000.961226)  can0  39D   [8]  1D 02 00 C6 FF 0E 00 5F
 (000.961879)  can0  003   [8]  10 00 10 00 04 FF 50 C4
 (000.963029)  can0  766   [8]  00 00 00 00 00 00 0F 08
 (000.963275)  can0  2C4   [8]  00 00 FC 3F 7F FF 3F FF
 (000.963500)  can0  201   [8]  DA 5B 7E 02 FF FF 70 B7
 (000.963801)  can0  203   [8]  00 00 00 00 C0 00 C0 00
 (000.964051)  can0  245   [8]  80 07 7F 7E 81 84 70 85
 (000.964324)  can0  247   [8]  00 00 00 06 00 18 00 00
 (000.965680)  can0  34E   [8]  00 00 B7 00 00 B7 11 27
 (000.966204)  can0  073   [8]  05 20 93 68 00 40 F0 B2
 (000.968087)  can0  75E   [8]  00 81 00 2D 18 18 18 18
 (000.968340)  can0  76E   [8]  00 00 00 00 00 00 00 00
 (000.969004)  can0  205   [8]  06 93 0C 00 00 00 00 00
 (000.971800)  can0  003   [8]  10 00 10 00 04 FF 60 8E
 (000.973008)  can0  388   [8]  35 FF 1F CF FF 0F 07 FF
 (000.973352)  can0  005   [8]  11 00 02 1C 0D 00 88 86
 (000.976057)  can0  073   [8]  05 20 93 68 00 40 00 CD
 (000.977958)  can0  04B   [6]  01 00 0C 06 FF 04
 (000.978226)  can0  75E   [8]  00 81 00 2D 18 18 18 18
 (000.980830)  can0  105   [8]  02 6D 7F 00 00 97 B3 82
 (000.981779)  can0  003   [8]  10 00 10 00 04 FF 70 43
 (000.983653)  can0  201   [8]  DA 5B 7E 02 FF FF 80 C8
 (000.984033)  can0  203   [8]  00 00 00 00 C0 00 C0 00
 (000.984276)  can0  245   [8]  80 07 7F 7E 81 84 80 85
 (000.984557)  can0  283   [8]  F5 0D 08 03 C0 6F 3F FF
 (000.984837)  can0  766   [8]  00 00 00 00 00 00 0F 08
 (000.985114)  can0  400   [8]  FD 13 04 0F E0 81 00 05
 (000.985932)  can0  001   [8]  CC 83 1F 9E 55 03 91 00
 (000.986174)  can0  073   [8]  05 20 93 68 00 40 10 00
 (000.989016)  can0  75E   [8]  00 81 00 2D 18 18 18 18
 (000.990921)  can0  12D   [8]  01 0F 00 00 50 53 56 79
 (000.991831)  can0  003   [8]  10 00 10 00 04 FF 80 3C
 (000.993003)  can0  005   [8]  11 00 02 1C 0D 00 98 4B
 (000.994027)  can0  2EF   [8]  F7 00 FF 0F FF FF FF 00
 (000.996056)  can0  073   [8]  05 20 93 68 00 40 20 4A
 (000.999130)  can0  75E   [8]  00 81 00 2D 18 18 18 18
 (001.000960)  can0  105   [8]  02 6D 7F 00 00 97 C3 DB
 (001.001932)  can0  003   [8]  10 00 10 00 04 FF 90 F1
 (001.003282)  can0  201   [8]  DA 5B 7E 02 FF FF 90 05
 (001.003651)  can0  203   [8]  00 00 00 00 C0 00 C0 00
 (001.003921)  can0  245   [8]  80 09 7F 7E 81 84 90 85
 (001.005069)  can0  766   [8]  00 00 00 00 00 00 0F 08
 (001.006081)  can0  073   [8]  05 20 93 68 00 40 30 87
 (001.010040)  can0  75E   [8]  00 81 00 2D 18 18 18 18
 (001.010954)  can0  30D   [8]  85 50 81 FF FF 02 57 81
 (001.011753)  can0  003   [8]  10 00 10 00 04 FF A0 BB
 (001.012279)  can0  045   [8]  00 FF 00 00 00 00 10 CE
 (001.013127)  can0  005   [8]  11 00 02 1C 0D 00 A8 01
 (001.016057)  can0  073   [8]  05 20 93 68 00 40 40 DE
 (001.020080)  can0  75E   [8]  00 81 00 2D 18 18 18 18
 (001.020940)  can0  105   [8]  02 6B 7F 00 00 97 D3 9F
 (001.021882)  can0  003   [8]  10 00 10 00 04 FF B0 76
 (001.023858)  can0  201   [8]  DA 5B 7E 02 FF FF A0 4F
 (001.024145)  can0  203   [8]  00 00 00 00 C0 00 C0 00
 (001.024568)  can0  245   [8]  80 06 7F 7E 80 84 A0 85
 (001.025054)  can0  766   [8]  00 00 00 00 00 00 0F 08
 (001.026069)  can0  073   [8]  05 20 93 68 00 40 50 13
 (001.030008)  can0  75E   [8]  00 81 00 2D 18 18 18 18
 (001.031160)  can0  33D   [8]  00 42 00 00 64 00 00 00
 (001.031754)  can0  003   [8]  10 00 10 00 04 FF C0 2F
 (001.033007)  can0  005   [8]  11 00 02 1C 0D 00 B8 CC
 (001.036059)  can0  073   [8]  05 20 93 68 00 40 60 59
 (001.038096)  can0  375   [8]  13 10 34 3F 3F 07 00 00
 (001.040121)  can0  75E   [8]  00 81 00 2D 18 18 18 18
 (001.040778)  can0  105   [8]  02 69 7F 00 00 97 E3 59
 (001.041735)  can0  34F   [8]  10 A0 00 A0 03 E7 07 FF
 (001.042028)  can0  003   [8]  10 00 10 00 04 FF D0 E2
 (001.043206)  can0  201   [8]  DA 5B 7E 02 FF FF B0 82
 (001.043699)  can0  203   [8]  00 00 00 00 C0 00 C0 00
 (001.044047)  can0  245   [8]  80 03 7F 7E 81 84 B0 85
 (001.045026)  can0  766   [8]  00 00 00 00 00 00 0F 08
 (001.046051)  can0  073   [8]  05 20 93 68 00 40 70 94
 (001.050031)  can0  75E   [8]  00 81 00 2D 18 18 18 18
 (001.051277)  can0  249   [8]  24 B6 00 2B E8 00 FF FF
 (001.051780)  can0  003   [8]  10 00 10 00 04 FF E0 A8
 (001.053052)  can0  005   [8]  11 00 02 1A 0D 00 C8 FC
 (001.054216)  can0  004   [5]  01 00 00 37 07
 (001.056227)  can0  073   [8]  05 20 93 68 00 40 80 EB
 (001.058988)  can0  007   [8]  F0 05 3A 00 3F FC AF 79
 (001.061002)  can0  39D   [8]  1D 02 00 C6 FF 0E 00 67
 (001.061269)  can0  105   [8]  02 69 7F 00 00 97 F3 94
 (001.061467)  can0  3D1   [4]  C9 08 00 00
 (001.061746)  can0  75E   [8]  00 81 00 2D 18 18 18 18
 (001.062019)  can0  003   [8]  10 00 10 00 04 FF F0 65
 (001.062243)  can0  3F6   [5]  02 00 00 00 00
 (001.063497)  can0  201   [8]  DA 5B 7E 02 FF FF C0 DB
 (001.063820)  can0  247   [8]  00 00 00 06 00 18 00 00
 (001.064095)  can0  203   [8]  00 00 00 00 C0 00 C0 00
 (001.064494)  can0  245   [8]  80 06 7F 7E 80 84 C0 85
 (001.065698)  can0  34E   [8]  00 00 B7 00 00 B7 11 27
 (001.066245)  can0  073   [8]  05 20 93 68 00 40 90 26
 (001.067047)  can0  766   [8]  00 00 00 00 00 00 0F 08
 (001.069022)  can0  205   [8]  06 93 0C 00 00 00 00 00
 (001.071800)  can0  003   [8]  10 00 10 00 04 FF 00 1A
 (001.072144)  can0  75E   [8]  00 81 00 2D 18 18 18 18
 (001.072416)  can0  76E   [8]  00 00 00 00 00 00 00 00
 (001.073131)  can0  005   [8]  11 00 02 1C 0D 00 D8 58
 (001.076228)  can0  073   [8]  05 20 93 68 00 40 A0 6C
 (001.077074)  can0  388   [8]  35 FF 1F CF FF 0F 07 FF
 (001.078223)  can0  413   [8]  FD 00 04 0F 10 00 00 05
 (001.081196)  can0  105   [8]  02 6A 7F 00 00 97 03 21
 (001.081920)  can0  003   [8]  10 00 10 00 04 FF 10 D7
 (001.082292)  can0  04B   [6]  01 00 0C 06 FF 04
 (001.082566)  can0  75E   [8]  00 81 00 2D 18 18 18 18
 (001.083195)  can0  336   [8]  71 42 00 00 00 00 00 00
 (001.083466)  can0  201   [8]  DA 5B 7E 02 FF FF D0 16
 (001.083793)  can0  203   [8]  00 00 00 00 C0 00 C0 00
 (001.084248)  can0  245   [8]  80 08 7F 7E 81 84 D0 85
 (001.085924)  can0  001   [8]  CC 83 1F 9E 55 03 A1 4A
 (001.086192)  can0  073   [8]  05 20 93 68 00 40 B0 A1
 (001.088093)  can0  283   [8]  F5 0D 08 03 C0 6F 3F FF
 (001.088346)  can0  766   [8]  00 00 00 00 00 00 0F 08
 (001.090930)  can0  12D   [8]  01 0F 00 00 50 53 56 79
 (001.091776)  can0  003   [8]  10 00 10 00 04 FF 20 9D
 (001.092873)  can0  068   [1]  01
 (001.093115)  can0  005   [8]  11 00 02 1D 0D 00 E8 8F
 (001.093390)  can0  75E   [8]  00 81 00 2D 18 18 18 18
 (001.096046)  can0  073   [8]  05 20 93 68 00 40 C0 F8
 (001.097996)  can0  10C   [8]  3B 7F FF 07 03 FF C3 67
 (001.100785)  can0  105   [8]  02 6A 7F 00 00 97 13 EC
 (001.101884)  can0  003   [8]  10 00 10 00 04 FF 30 50
 (001.103555)  can0  201   [8]  DA 5B 7E 02 FF FF E0 5C
 (001.103891)  can0  203   [8]  00 00 00 00 C0 00 C0 00
 (001.104165)  can0  20E   [8]  3F 00 01 F0 FF FF 3F 68
 (001.104448)  can0  245   [8]  80 07 7F 7E 81 84 E0 85
 (001.104733)  can0  75E   [8]  00 81 00 2D 18 18 18 18
 (001.106073)  can0  073   [8]  05 20 93 68 00 40 D0 35
 (001.106366)  can0  328   [2]  07 60
 (001.109023)  can0  351   [8]  00 00 00 00 00 00 00 00
 (001.109290)  can0  766   [8]  00 00 00 00 00 00 0F 08
 (001.110998)  can0  30D   [8]  85 50 81 FF FF 02 57 81
 (001.111745)  can0  003   [8]  10 00 10 00 04 FF 40 09
 (001.112342)  can0  045   [8]  00 FF 00 00 00 00 20 84
 (001.113043)  can0  005   [8]  11 00 02 1C 0D 00 F8 DF
 (001.114195)  can0  75E   [8]  00 81 00 2D 18 18 18 18
 (001.114413)  can0  3D3   [4]  C0 02 00 00
 (001.114691)  can0  776   [8]  00 00 00 00 00 00 00 00
 (001.115794)  can0  35C   [8]  02 10 E0 00 00 FF FF 01
 (001.116090)  can0  073   [8]  05 20 93 68 00 40 E0 7F
 (001.120930)  can0  105   [8]  02 6C 7F 00 00 97 23 2F
 (001.121872)  can0  003   [8]  10 00 10 00 04 FF 50 C4
 (001.123302)  can0  201   [8]  DA 5B 7E 02 FF FF F0 91
 (001.123642)  can0  203   [8]  00 00 00 00 C0 00 C0 00
 (001.123917)  can0  245   [8]  80 06 7F 7E 80 84 F0 85
 (001.124192)  can0  75E   [8]  00 81 00 2D 18 18 18 18
 (001.126045)  can0  073   [8]  05 20 93 68 00 40 F0 B2
 (001.129094)  can0  766   [8]  00 00 00 00 00 00 0F 08
 (001.130019)  can0  37D   [8]  02 00 04 B3 12 00 FF FF
 (001.131067)  can0  33D   [8]  00 42 00 00 64 00 00 00
 (001.131743)  can0  003   [8]  10 00 10 00 04 FF 60 8E
 (001.133042)  can0  005   [8]  11 00 02 1D 0D 00 08 3D
 (001.134212)  can0  75E   [8]  00 81 00 2D 18 18 18 18
 (001.136046)  can0  073   [8]  05 20 93 68 00 40 00 CD
 (001.138251)  can0  375   [8]  13 10 34 3F 3F 07 00 00
 (001.140784)  can0  105   [8]  02 6B 7F 00 00 97 33 2D
 (001.141929)  can0  003   [8]  10 00 10 00 04 FF 70 43
 (001.142643)  can0  34F   [8]  10 A0 00 A0 03 E7 07 FF
 (001.143541)  can0  201   [8]  DA 5B 7E 02 FF FF 00 EE
 (001.144042)  can0  203   [8]  00 00 00 00 C0 00 C0 00
 (001.144313)  can0  245   [8]  80 03 7F 7E 80 84 00 85
 (001.145018)  can0  75E   [8]  00 81 00 2D 18 18 18 18
 (001.146051)  can0  073   [8]  05 20 93 68 00 40 10 00
 (001.150029)  can0  766   [8]  00 00 00 00 00 00 0F 08
 (001.151196)  can0  249   [8]  2F E8 00 33 E8 00 FF FF
 (001.151789)  can0  003   [8]  10 00 10 00 04 FF 80 3C
 (001.152969)  can0  005   [8]  11 00 02 1D 0D 00 18 F0
 (001.155026)  can0  75E   [8]  00 81 00 2D 18 18 18 18
 (001.156058)  can0  073   [8]  05 20 93 68 00 40 20 4A
 (001.159119)  can0  007   [8]  F0 05 3A 00 3F FC AF 79
 (001.160916)  can0  105   [8]  02 6B 7F 00 00 97 43 74
 (001.161515)  can0  39D   [8]  1D 02 00 C6 FF 0E 00 6F
 (001.161864)  can0  003   [8]  10 00 10 00 04 FF 90 F1
 (001.163166)  can0  201   [8]  DA 5B 7E 02 FF FF 10 23
 (001.163462)  can0  247   [8]  00 00 00 06 00 18 00 00
 (001.163736)  can0  203   [8]  00 00 00 00 C0 00 C0 00
 (001.164037)  can0  245   [8]  7F FF 7F 7E 80 84 10 85
 (001.165691)  can0  34E   [8]  00 00 B7 00 00 B7 11 27
 (001.166089)  can0  75E   [8]  00 81 00 2D 18 18 18 18
 (001.166335)  can0  073   [8]  05 20 93 68 00 40 30 87
 (001.168993)  can0  205   [8]  06 93 0C 00 00 00 00 00
 (001.171080)  can0  766   [8]  00 00 00 00 00 00 0F 08
 (001.171767)  can0  003   [8]  10 00 10 00 04 FF A0 BB
 (001.172177)  can0  400   [8]  FD 13 04 0F E0 81 00 05
 (001.173095)  can0  005   [8]  11 00 02 1D 0D 00 28 BA
 (001.176046)  can0  073   [8]  05 20 93 68 00 40 40 DE
 (001.176310)  can0  75E   [8]  00 81 00 2D 18 18 18 18
 (001.176584)  can0  76E   [8]  00 00 00 00 00 00 00 00
 (001.180872)  can0  105   [8]  02 6B 7F 00 00 97 53 B9
 (001.181263)  can0  388   [8]  35 FF 1F CF FF 0F 07 FF
 (001.181815)  can0  003   [8]  10 00 10 00 04 FF B0 76
 (001.183546)  can0  201   [8]  DA 5B 7E 02 FF FF 20 69
 (001.183887)  can0  203   [8]  00 00 00 00 C0 00 C0 00
 (001.184165)  can0  245   [8]  80 05 7F 7E 80 84 20 85
 (001.185892)  can0  001   [8]  CC 83 1F 9E 55 03 B1 87
 (001.186135)  can0  073   [8]  05 20 93 68 00 40 50 13
 (001.186992)  can0  04B   [6]  01 00 0C 06 FF 04
 (001.187286)  can0  75E   [8]  00 81 00 2D 18 18 18 18
 (001.190904)  can0  12D   [8]  01 0F 00 00 50 53 56 79
 (001.192044)  can0  003   [8]  10 00 10 00 04 FF C0 2F
 (001.192336)  can0  283   [8]  F5 0D 08 03 C0 6F 3F FF
 (001.192634)  can0  766   [8]  00 00 00 00 00 00 0F 08
 (001.193035)  can0  005   [8]  11 00 02 1D 0D 00 38 77
 (001.194016)  can0  2EF   [8]  F7 00 FF 0F FF FF FF 00
 (001.196021)  can0  073   [8]  05 20 93 68 00 40 60 59
 (001.197041)  can0  75E   [8]  00 81 00 2D 18 18 18 18
 (001.200938)  can0  105   [8]  02 6B 7F 00 00 97 63 F3
 (001.201170)  can0  002   [5]  01 00 C0 00 07
 (001.201874)  can0  003   [8]  10 00 10 00 04 FF D0 E2
 (001.203266)  can0  201   [8]  DA 5B 7E 02 FF FF 30 A4
 (001.203736)  can0  203   [8]  00 00 00 00 C0 00 C0 00
 (001.204008)  can0  245   [8]  80 06 7F 7E 80 84 30 85
 (001.206089)  can0  073   [8]  05 20 93 68 00 40 70 94
 (001.207069)  can0  75E   [8]  00 81 00 2D 18 18 18 18
 (001.210368)  can0  34D   [2]  10 00
 (001.211316)  can0  30D   [8]  85 50 81 FF FF 02 5C 81
 (001.211811)  can0  003   [8]  10 00 10 00 04 FF E0 A8
 (001.212209)  can0  766   [8]  00 00 00 00 00 00 0F 08
 (001.212482)  can0  045   [8]  00 FF 00 00 00 00 30 49
 (001.213111)  can0  005   [8]  11 00 02 1D 0D 00 48 2E
 (001.216041)  can0  073   [8]  05 20 93 68 00 40 80 EB
 (001.216486)  can0  10E   [4]  00 80 3A 00
 (001.217037)  can0  75E   [8]  00 81 00 2D 18 18 18 18
 (001.220742)  can0  105   [8]  02 6D 7F 00 00 97 73 B7
 (001.221525)  can0  10D   [4]  00 C0 00 02
 (001.221945)  can0  003   [8]  10 00 10 00 04 FF F0 65
 (001.223670)  can0  201   [8]  DA 5B 7E 02 FF FF 40 FD
 (001.224011)  can0  203   [8]  00 00 00 00 C0 00 C0 00
 (001.224281)  can0  245   [8]  80 00 7F 7E 80 84 40 85
 (001.226040)  can0  073   [8]  05 20 93 68 00 40 90 26
 (001.228014)  can0  75E   [8]  00 81 00 2D 18 18 18 18
 (001.230939)  can0  33D   [8]  00 42 00 00 64 00 00 00
 (001.231761)  can0  003   [8]  10 00 10 00 04 FF 00 1A
 (001.232936)  can0  005   [8]  11 00 02 1D 0D 00 58 E3
 (001.233308)  can0  766   [8]  00 00 00 00 00 00 0F 08
 (001.236038)  can0  073   [8]  05 20 93 68 00 40 A0 6C
 (001.238020)  can0  75E   [8]  00 81 00 2D 18 18 18 18
 (001.238289)  can0  375   [8]  13 10 34 3F 3F 07 00 00
 (001.240791)  can0  105   [8]  02 6F 7F 00 00 97 83 44
 (001.241739)  can0  34F   [8]  10 A0 00 A0 03 E7 07 FF
 (001.242031)  can0  003   [8]  10 00 10 00 04 FF 10 D7
 (001.243179)  can0  201   [8]  DA 5B 7E 02 FF FF 50 30
 (001.243696)  can0  203   [8]  00 00 00 00 C0 00 C0 00
 (001.243931)  can0  245   [8]  80 01 7F 7E 81 84 50 85
 (001.246040)  can0  073   [8]  05 20 93 68 00 40 B0 A1
 (001.249014)  can0  75E   [8]  00 81 00 2D 18 18 18 18
 (001.251183)  can0  249   [8]  37 E8 00 3B E8 00 FF FF
 (001.251772)  can0  003   [8]  10 00 10 00 04 FF 20 9D
 (001.252986)  can0  005   [8]  11 00 02 1D 0D 00 68 A9
 (001.254219)  can0  766   [8]  00 00 00 00 00 00 0F 08
 (001.256037)  can0  073   [8]  05 20 93 68 00 40 C0 F8
 (001.259067)  can0  007   [8]  F0 05 3A 00 3F FC AF 79
 (001.259332)  can0  75E   [8]  00 81 00 2D 18 18 18 18
 (001.260765)  can0  105   [8]  02 6F 7F 00 00 97 93 89
 (001.261156)  can0  39D   [8]  1D 02 00 C6 FF 0E 00 77
 (001.261403)  can0  3D1   [4]  C9 08 00 00
 (001.261783)  can0  3F6   [5]  02 00 00 00 00
 (001.262054)  can0  003   [8]  10 00 10 00 04 FF 30 50
 (001.263565)  can0  201   [8]  DA 5B 7E 02 FF FF 60 7A
 (001.264008)  can0  247   [8]  00 00 00 06 00 18 00 00
 (001.264254)  can0  203   [8]  00 00 00 00 C0 00 C0 00
 (001.264579)  can0  245   [8]  80 07 7F 7E 81 84 60 85
 (001.265824)  can0  34E   [8]  00 00 B7 00 00 B7 11 27
 (001.266084)  can0  073   [8]  05 20 93 68 00 40 D0 35
 (001.268241)  can0  413   [8]  FD 00 04 0F 10 00 00 05
 (001.268971)  can0  205   [8]  06 93 0C 00 00 00 00 00
 (001.271074)  can0  75E   [8]  00 81 00 2D 18 18 18 18
 (001.271767)  can0  003   [8]  10 00 10 00 04 FF 40 09
 (001.273209)  can0  005   [8]  11 00 02 1C 0D 00 78 F9
 (001.276086)  can0  766   [8]  00 00 00 00 00 00 0F 08
 (001.276381)  can0  073   [8]  05 20 93 68 00 40 E0 7F
 (001.280765)  can0  105   [8]  02 6E 7F 00 00 97 A3 85
 (001.281534)  can0  75E   [8]  00 81 00 2D 18 18 18 18
 (001.281809)  can0  76E   [8]  00 00 00 00 00 00 00 00
 (001.282109)  can0  003   [8]  10 00 10 00 04 FF 50 C4
 (001.283159)  can0  201   [8]  DA 5B 7E 02 FF FF 70 B7
 (001.283455)  can0  203   [8]  00 00 00 00 C0 00 C0 00
 (001.283731)  can0  336   [8]  71 42 00 00 00 00 00 00
 (001.284003)  can0  245   [8]  80 07 7F 7E 81 84 70 85
 (001.285886)  can0  001   [8]  CC 83 1F 9E 55 03 C1 DE
 (001.286128)  can0  073   [8]  05 20 93 68 00 40 F0 B2
 (001.287036)  can0  388   [8]  35 FF 1F CF FF 0F 07 FF
 (001.290909)  can0  12D   [8]  01 0F 00 00 50 53 56 79
 (001.291833)  can0  003   [8]  10 00 10 00 04 FF 60 8E
 (001.292052)  can0  04B   [6]  01 00 0C 06 FF 04
 (001.292351)  can0  75E   [8]  00 81 00 2D 18 18 18 18
 (001.293011)  can0  005   [8]  11 00 02 1C 0D 00 88 86
 (001.296036)  can0  073   [8]  05 20 93 68 00 40 00 CD
 (001.297041)  can0  283   [8]  F5 0D 08 03 C0 6F 3F FF
 (001.297303)  can0  766   [8]  00 00 00 00 00 00 0F 08
 (001.300780)  can0  105   [8]  02 6F 7F 00 00 97 B3 0E
 (001.301877)  can0  003   [8]  10 00 10 00 04 FF 70 43
 (001.302002)  can0  068   [1]  01
 (001.302301)  can0  75E   [8]  00 81 00 2D 18 18 18 18
 (001.303458)  can0  201   [8]  DA 5B 7E 02 FF FF 80 C8
 (001.303777)  can0  203   [8]  00 00 00 00 C0 00 C0 00
 (001.304027)  can0  245   [8]  80 07 7F 7E 81 84 80 85
 (001.306088)  can0  073   [8]  05 20 93 68 00 40 10 00
 (001.306302)  can0  328   [2]  07 60
 (001.307184)  can0  10C   [8]  3B 7F FF 07 03 FF C3 67
 (001.310935)  can0  30D   [8]  85 50 81 FF FF 02 5C 81
 (001.311734)  can0  003   [8]  10 00 10 00 04 FF 80 3C
 (001.312129)  can0  20E   [8]  3F 00 01 F0 FF FF 3F 68
 (001.312411)  can0  045   [8]  00 FF 00 00 00 00 40 10
 (001.312708)  can0  75E   [8]  00 81 00 2D 18 18 18 18
 (001.313084)  can0  005   [8]  11 00 02 1A 0D 00 98 22
 (001.314036)  can0  3D3   [4]  C0 02 00 00
 (001.315811)  can0  35C   [8]  02 10 E0 00 00 FF FF 01
 (001.316356)  can0  073   [8]  05 20 93 68 00 40 20 4A
 (001.317056)  can0  351   [8]  00 00 00 00 00 00 00 00
 (001.317351)  can0  766   [8]  00 00 00 00 00 00 0F 08
 (001.320939)  can0  105   [8]  02 6F 7F 00 00 97 C3 57
 (001.321889)  can0  003   [8]  10 00 10 00 04 FF 90 F1
 (001.322279)  can0  75E   [8]  00 81 00 2D 18 18 18 18
 (001.322576)  can0  776   [8]  00 00 00 00 00 00 00 00
 (001.323231)  can0  201   [8]  DA 5B 7E 02 FF FF 90 05
 (001.323528)  can0  203   [8]  00 00 00 00 C0 00 C0 00
 (001.323802)  can0  245   [8]  80 06 7F 7E 80 84 90 85
 (001.326009)  can0  073   [8]  05 20 93 68 00 40 30 87
 (001.328963)  can0  37D   [8]  02 00 04 B3 12 00 FF FF
 (001.331133)  can0  33D   [8]  00 42 00 00 64 00 00 00
 (001.331816)  can0  003   [8]  10 00 10 00 04 FF A0 BB
 (001.332184)  can0  75E   [8]  00 81 00 2D 18 18 18 18
 (001.333158)  can0  005   [8]  11 00 02 1D 0D 00 A8 9C
 (001.336034)  can0  073   [8]  05 20 93 68 00 40 40 DE
 (001.338072)  can0  766   [8]  00 00 00 00 00 00 0F 08
 (001.338325)  can0  375   [8]  13 10 34 3F 3F 07 00 00
 (001.340812)  can0  105   [8]  02 6E 7F 00 00 97 D3 DC
 (001.341963)  can0  003   [8]  10 00 10 00 04 FF B0 76
 (001.342679)  can0  34F   [8]  10 A0 00 A0 03 E7 07 FF
 (001.343779)  can0  201   [8]  DA 5B 7E 02 FF FF A0 4F
 (001.344149)  can0  75E   [8]  00 81 00 2D 18 18 18 18
 (001.344422)  can0  203   [8]  00 00 00 00 C0 00 C0 00
 (001.344700)  can0  245   [8]  80 02 7F 7E 80 84 A0 85
 (001.346034)  can0  073   [8]  05 20 93 68 00 40 50 13
 (001.351510)  can0  249   [8]  3F E8 00 FF FF 00 03 FF
 (001.351845)  can0  003   [8]  10 00 10 00 04 FF C0 2F
 (001.352954)  can0  005   [8]  11 00 02 1D 0D 00 B8 51
 (001.354057)  can0  75E   [8]  00 81 00 2D 18 18 18 18
 (001.356052)  can0  073   [8]  05 20 93 68 00 40 60 59
 (001.359033)  can0  007   [8]  F0 05 3A 00 3F FC AF 79
 (001.359324)  can0  766   [8]  00 00 00 00 00 00 0F 08
 (001.360934)  can0  105   [8]  02 6E 7F 00 00 97 E3 96
 (001.361198)  can0  39D   [8]  1D 02 00 C6 FF 0E 00 7F
 (001.361471)  can0  400   [8]  FD 13 04 0F E0 81 00 05
 (001.361876)  can0  003   [8]  10 00 10 00 04 FF D0 E2
 (001.363203)  can0  201   [8]  DA 5B 7E 02 FF FF B0 82
 (001.363524)  can0  247   [8]  00 00 00 06 00 18 00 00
 (001.363799)  can0  203   [8]  00 00 00 00 C0 00 C0 00
 (001.364072)  can0  245   [8]  80 03 7F 7E 80 84 B0 85
 (001.365806)  can0  34E   [8]  00 00 B7 00 00 B7 11 27
 (001.366072)  can0  073   [8]  05 20 93 68 00 40 70 94
 (001.366345)  can0  75E   [8]  00 81 00 2D 18 18 18 18
 (001.368955)  can0  205   [8]  06 93 0C 00 00 00 00 00
 (001.371764)  can0  003   [8]  10 00 10 00 04 FF E0 A8
 (001.373086)  can0  005   [8]  11 00 02 1D 0D 00 C8 08
 (001.376033)  can0  073   [8]  05 20 93 68 00 40 80 EB
 (001.376296)  can0  75E   [8]  00 81 00 2D 18 18 18 18
 (001.380729)  can0  105   [8]  02 6C 7F 00 00 97 F3 D7
 (001.381526)  can0  766   [8]  00 00 00 00 00 00 0F 08
 (001.381898)  can0  003   [8]  10 00 10 00 04 FF F0 65
 (001.383530)  can0  201   [8]  DA 5B 7E 02 FF FF C0 DB
 (001.383873)  can0  203   [8]  00 00 00 00 C0 00 C0 00
 (001.384146)  can0  245   [8]  80 03 7F 7E 80 84 C0 85
 (001.385879)  can0  001   [8]  CC 83 1F 9E 55 03 D1 13
 (001.386121)  can0  073   [8]  05 20 93 68 00 40 90 26
 (001.387056)  can0  75E   [8]  00 81 00 2D 18 18 18 18
 (001.387321)  can0  76E   [8]  00 00 00 00 00 00 00 00
 (001.390863)  can0  12D   [8]  01 0F 00 00 50 53 56 79
 (001.391754)  can0  003   [8]  10 00 10 00 04 FF 00 1A
 (001.392149)  can0  388   [8]  35 FF 1F CF FF 0F 07 FF
 (001.392877)  can0  005   [8]  11 00 02 1D 0D 00 D8 C5
 (001.394010)  can0  2EF   [8]  F7 00 FF 0F FF FF FF 00
 (001.395631)  can0  1C1   [4]  00 00 00 00
 (001.395996)  can0  073   [8]  05 20 93 68 00 40 A0 6C
 (001.396979)  can0  04B   [6]  01 00 0C 06 FF 04
 (001.397245)  can0  75E   [8]  00 81 00 2D 18 18 18 18
 (001.400954)  can0  105   [8]  02 6B 7F 00 00 97 03 67
 (001.401898)  can0  003   [8]  10 00 10 00 04 FF 10 D7
 (001.402195)  can0  283   [8]  F5 0D 08 03 C0 6F 3F FF
 (001.402469)  can0  766   [8]  00 00 00 00 00 00 0F 08
 (001.403227)  can0  201   [8]  DA 5B 7E 02 FF FF D0 16
 (001.403725)  can0  203   [8]  00 00 00 00 C0 00 C0 00
 (001.404046)  can0  245   [8]  80 00 7F 7E 80 84 D0 85
 (001.406182)  can0  073   [8]  05 20 93 68 00 40 B0 A1
 (001.407079)  can0  75E   [8]  00 81 00 2D 18 18 18 18
 (001.410936)  can0  30D   [8]  85 50 81 FF FF 02 5C 81
 (001.411784)  can0  003   [8]  10 00 10 00 04 FF 20 9D
 (001.412349)  can0  045   [8]  00 FF 00 00 00 00 50 DD
 (001.413151)  can0  005   [8]  11 00 02 1D 0D 00 E8 8F
 (001.416038)  can0  073   [8]  05 20 93 68 00 40 C0 F8
 (001.417054)  can0  75E   [8]  00 81 00 2D 18 18 18 18
 (001.420730)  can0  105   [8]  02 6B 7F 00 00 97 13 AA
 (001.421934)  can0  003   [8]  10 00 10 00 04 FF 30 50
 (001.422227)  can0  766   [8]  00 00 00 00 00 00 0F 08
 (001.423659)  can0  201   [8]  DA 5B 7E 02 FF FF E0 5C
 (001.424021)  can0  203   [8]  00 00 00 00 C0 00 C0 00
 (001.424292)  can0  245   [8]  80 00 7F 7E 80 84 E0 85
 (001.426235)  can0  073   [8]  05 20 93 68 00 40 D0 35
 (001.427051)  can0  75E   [8]  00 81 00 2D 18 18 18 18
 (001.430930)  can0  33D   [8]  00 42 00 00 64 00 00 00
 (001.431778)  can0  003   [8]  10 00 10 00 04 FF 40 09
 (001.432951)  can0  005   [8]  11 00 02 1D 0D 00 F8 42
 (001.436026)  can0  073   [8]  05 20 93 68 00 40 E0 7F
 (001.437049)  can0  75E   [8]  00 81 00 2D 18 18 18 18
 (001.438067)  can0  375   [8]  13 10 34 3F 3F 07 00 00
 (001.440787)  can0  105   [8]  02 6A 7F 00 00 97 23 A6
 (001.441678)  can0  34F   [8]  10 A0 00 A0 03 E7 07 FF
 (001.441945)  can0  003   [8]  10 00 10 00 04 FF 50 C4
 (001.442217)  can0  766   [8]  00 00 00 00 00 00 0F 08
 (001.443298)  can0  201   [8]  DA 5B 7E 02 FF FF F0 91
 (001.443798)  can0  203   [8]  00 00 00 00 C0 00 C0 00
 (001.444067)  can0  245   [8]  80 05 7F 7E 80 84 F0 85
 (001.446000)  can0  073   [8]  05 20 93 68 00 40 F0 B2
 (001.447051)  can0  75E   [8]  00 81 00 2D 18 18 18 18
 (001.451146)  can0  249   [8]  04 FC 00 09 58 00 FF FF
 (001.451740)  can0  003   [8]  10 00 10 00 04 FF 60 8E
 (001.453001)  can0  005   [8]  11 00 02 1D 0D 00 08 3D
 (001.456000)  can0  073   [8]  05 20 93 68 00 40 00 CD
 (001.457048)  can0  75E   [8]  00 81 00 2D 18 18 18 18
 (001.458232)  can0  413   [8]  FD 00 04 0F 10 00 00 05
 (001.458923)  can0  007   [8]  F0 05 3A 00 3F FC AF 79
 (001.460734)  can0  105   [8]  02 6B 7F 00 00 97 33 2D
 (001.461116)  can0  39D   [8]  1D 02 00 C6 FF 0E 00 07
 (001.461365)  can0  3D1   [4]  C9 08 00 00
 (001.461894)  can0  003   [8]  10 00 10 00 04 FF 70 43
 (001.462727)  can0  3F6   [5]  02 00 00 00 00
 (001.463093)  can0  766   [8]  00 00 00 00 00 00 0F 08
 (001.463492)  can0  201   [8]  DA 5B 7E 02 FF FF 00 EE
 (001.463846)  can0  247   [8]  00 00 00 06 00 18 00 00
 (001.464115)  can0  203   [8]  00 00 00 00 C0 00 C0 00
 (001.464467)  can0  245   [8]  80 05 7F 7E 81 84 00 85
 (001.465695)  can0  34E   [8]  00 00 B7 00 00 B7 11 27
 (001.466245)  can0  073   [8]  05 20 93 68 00 40 10 00
 (001.468039)  can0  75E   [8]  00 81 00 2D 18 18 18 18
 (001.468945)  can0  205   [8]  06 93 0C 00 00 00 00 00
 (001.471723)  can0  003   [8]  10 00 10 00 04 FF 80 3C
 (001.473076)  can0  005   [8]  11 00 02 1E 0D 00 18 4A
 (001.476207)  can0  073   [8]  05 20 93 68 00 40 20 4A
 (001.478023)  can0  75E   [8]  00 81 00 2D 18 18 18 18
 (001.481070)  can0  105   [8]  02 6B 7F 00 00 97 43 74
 (001.481794)  can0  003   [8]  10 00 10 00 04 FF 90 F1
 (001.483044)  can0  766   [8]  00 00 00 00 00 00 0F 08
 (001.483290)  can0  201   [8]  DA 5B 7E 02 FF FF 10 23
 (001.483562)  can0  203   [8]  00 00 00 00 C0 00 C0 00
 (001.483839)  can0  245   [8]  80 03 7F 7E 81 84 10 85
 (001.484088)  can0  336   [8]  71 42 00 00 00 00 00 00
 (001.485996)  can0  073   [8]  05 20 93 68 00 40 30 87
 (001.486769)  can0  001   [8]  CC 83 1F 9E 55 03 E1 59
 (001.488113)  can0  75E   [8]  00 81 00 2D 18 18 18 18
 (001.488366)  can0  76E   [8]  00 00 00 00 00 00 00 00
 (001.490981)  can0  12D   [8]  01 0F 00 00 50 53 56 79
 (001.491730)  can0  003   [8]  10 00 10 00 04 FF A0 BB
 (001.492944)  can0  005   [8]  11 00 02 1D 0D 00 28 BA
 (001.493290)  can0  388   [8]  35 FF 1F CF FF 0F 07 FF
 (001.495994)  can0  073   [8]  05 20 93 68 00 40 40 DE
 (001.497968)  can0  04B   [6]  01 00 0C 06 FF 04
 (001.498239)  can0  75E   [8]  00 81 00 2D 18 18 18 18
 (001.501091)  can0  105   [8]  02 6C 7F 00 00 97 53 76
 (001.501810)  can0  003   [8]  10 00 10 00 04 FF B0 76
 (001.503371)  can0  201   [8]  DA 5B 7E 02 FF FF 20 69
 (001.503866)  can0  203   [8]  00 00 00 00 C0 00 C0 00
 (001.504141)  can0  245   [8]  80 05 7F 7E 80 84 20 85
 (001.504390)  can0  283   [8]  F5 0D 08 03 C0 6F 3F FF
 (001.504693)  can0  766   [8]  00 00 00 00 00 00 0F 08
 (001.506026)  can0  073   [8]  05 20 93 68 00 40 50 13
 (001.506270)  can0  328   [2]  07 60
 (001.508870)  can0  068   [1]  01
 (001.509135)  can0  75E   [8]  00 81 00 2D 18 18 18 18
 (001.510893)  can0  30D   [8]  85 50 81 FF FF 02 5C 81
 (001.511743)  can0  003   [8]  10 00 10 00 04 FF C0 2F
 (001.512264)  can0  045   [8]  00 FF 00 00 00 00 60 97
 (001.513015)  can0  005   [8]  11 00 02 1D 0D 00 38 77
 (001.513991)  can0  3D3   [4]  C0 02 00 00
 (001.514362)  can0  10C   [8]  3B 7F FF 07 03 FF C3 67
 (001.515766)  can0  35C   [8]  02 10 E0 00 00 FF FF 01
 (001.516062)  can0  073   [8]  05 20 93 68 00 40 60 59
 (001.519019)  can0  20E   [8]  3F 00 01 F0 FF FF 3F 68
 (001.519287)  can0  75E   [8]  00 81 00 2D 18 18 18 18
 (001.520907)  can0  105   [8]  02 6C 7F 00 00 97 63 3C
 (001.521891)  can0  003   [8]  10 00 10 00 04 FF D0 E2
 (001.523224)  can0  201   [8]  DA 5B 7E 02 FF FF 30 A4
 (001.523512)  can0  203   [8]  00 00 00 00 C0 00 C0 00
 (001.523787)  can0  245   [8]  80 07 7F 7E 81 84 30 85
 (001.525022)  can0  351   [8]  00 00 00 00 00 00 00 00
 (001.525285)  can0  766   [8]  00 00 00 00 00 00 0F 08
 (001.526019)  can0  073   [8]  05 20 93 68 00 40 70 94
 (001.528995)  can0  37D   [8]  02 00 04 B3 12 00 FF FF
 (001.530042)  can0  75E   [8]  00 81 00 2D 18 18 18 18
 (001.530337)  can0  776   [8]  00 00 00 00 00 00 00 00
 (001.530990)  can0  33D   [8]  00 42 00 00 64 00 00 00
 (001.531764)  can0  003   [8]  10 00 10 00 04 FF E0 A8
 (001.532990)  can0  005   [8]  11 00 02 1D 0D 00 48 2E
 (001.535993)  can0  073   [8]  05 20 93 68 00 40 80 EB
 (001.536260)  can0  208   [8]  1F 40 11 80 00 06 40 A8
 (001.538170)  can0  375   [8]  13 10 34 3F 3F 07 00 00
 (001.540696)  can0  105   [8]  02 6A 7F 00 00 97 73 78
 (001.541494)  can0  207   [8]  10 09 3D 22 0F CB 4D AC
 (001.541838)  can0  75E   [8]  00 81 00 2D 18 18 18 18
 (001.542110)  can0  003   [8]  10 00 10 00 04 FF F0 65
 (001.542560)  can0  34F   [8]  10 A0 00 A0 03 E7 07 FF
 (001.543514)  can0  201   [8]  DA 5B 7E 02 FF FF 40 FD
 (001.544013)  can0  203   [8]  00 00 00 00 C0 00 C0 00
 (001.544284)  can0  245   [8]  80 06 7F 7E 81 84 40 85
 (001.546015)  can0  073   [8]  05 20 93 68 00 40 90 26
 (001.546990)  can0  206   [8]  00 00 0D 20 C1 80 D2 CC
 (001.547259)  can0  766   [8]  00 00 00 00 00 00 0F 08
 (001.548038)  can0  400   [8]  FD 13 04 0F E0 81 00 05
 (001.551099)  can0  249   [8]  0E 1D 00 13 E8 00 FF FF
 (001.551758)  can0  003   [8]  10 00 10 00 04 FF 00 1A
 (001.552186)  can0  20A   [8]  FA FF 00 FC FF FF FF 7F
 (001.552458)  can0  75E   [8]  00 81 00 2D 18 18 18 18
 (001.552964)  can0  005   [8]  11 00 02 1D 0D 00 58 E3
 (001.553992)  can0  004   [5]  01 00 00 37 07
 (001.555995)  can0  073   [8]  05 20 93 68 00 40 A0 6C
 (001.559124)  can0  007   [8]  F0 05 3A 00 3F FC AF 79
 (001.560889)  can0  39D   [8]  1D 02 00 C6 FF 0E 00 0F
 (001.561185)  can0  105   [8]  02 69 7F 00 00 97 83 CD
 (001.561864)  can0  003   [8]  10 00 10 00 04 FF 10 D7
 (001.563012)  can0  75E   [8]  00 81 00 2D 18 18 18 18
 (001.563283)  can0  201   [8]  DA 5B 7E 02 FF FF 50 30
 (001.563610)  can0  247   [8]  00 00 00 06 00 18 00 00
 (001.563858)  can0  203   [8]  00 00 00 00 C0 00 C0 00
 (001.564131)  can0  245   [8]  80 07 7F 7E 81 84 50 85
 (001.565688)  can0  34E   [8]  00 00 B7 00 00 B7 11 27
 (001.566034)  can0  073   [8]  05 20 93 68 00 40 B0 A1
 (001.568095)  can0  766   [8]  00 00 00 00 00 00 0F 08
 (001.568987)  can0  205   [8]  06 93 0C 00 00 00 00 00
 (001.571771)  can0  003   [8]  10 00 10 00 04 FF 20 9D
 (001.573119)  can0  75E   [8]  00 81 00 2D 18 18 18 18
 (001.573360)  can0  005   [8]  11 00 02 1E 0D 00 68 13
 (001.576216)  can0  073   [8]  05 20 93 68 00 40 C0 F8
 (001.580700)  can0  105   [8]  02 69 7F 00 00 97 93 00
 (001.581764)  can0  003   [8]  10 00 10 00 04 FF 30 50
 (001.583513)  can0  201   [8]  DA 5B 7E 02 FF FF 60 7A
 (001.583861)  can0  203   [8]  00 00 00 00 C0 00 C0 00
 (001.584137)  can0  245   [8]  80 0B 7F 7E 81 84 60 85
 (001.584416)  can0  75E   [8]  00 81 00 2D 18 18 18 18
 (001.585838)  can0  001   [8]  CC 83 1F 9E 55 03 F1 94
 (001.586082)  can0  073   [8]  05 20 93 68 00 40 D0 35
 (001.589043)  can0  766   [8]  00 00 00 00 00 00 0F 08
 (001.590843)  can0  12D   [8]  01 0F 00 00 50 53 56 79
 (001.591745)  can0  003   [8]  10 00 10 00 04 FF 40 09
 (001.592863)  can0  005   [8]  11 00 02 1E 0D 00 78 DE
 (001.594036)  can0  75E   [8]  00 81 00 2D 18 18 18 18
 (001.594307)  can0  2EF   [8]  F7 00 FF 0F FF FF FF 00
 (001.594608)  can0  76E   [8]  00 00 00 00 00 00 00 00
 (001.595987)  can0  073   [8]  05 20 93 68 00 40 E0 7F
 (001.599012)  can0  388   [8]  35 FF 1F CF FF 0F 07 FF
 (001.600895)  can0  105   [8]  02 6B 7F 00 00 97 A3 C6
 (001.601880)  can0  003   [8]  10 00 10 00 04 FF 50 C4
 (001.603241)  can0  201   [8]  DA 5B 7E 02 FF FF 70 B7
 (001.603734)  can0  203   [8]  00 00 00 00 C0 00 C0 00
 (001.604033)  can0  245   [8]  80 05 7F 7E 80 84 70 85
 (001.604259)  can0  04B   [6]  01 00 0C 06 FF 04
 (001.604538)  can0  75E   [8]  00 81 00 2D 18 18 18 18
 (001.606043)  can0  073   [8]  05 20 93 68 00 40 F0 B2
 (001.609093)  can0  283   [8]  F5 0D 08 03 C0 6F 3F FF
 (001.609358)  can0  766   [8]  00 00 00 00 00 00 0F 08
 (001.610962)  can0  30D   [8]  85 50 81 FF FF 02 5C 81
 (001.611734)  can0  003   [8]  10 00 10 00 04 FF 60 8E
 (001.612307)  can0  045   [8]  00 FF 00 00 00 00 70 5A
 (001.613134)  can0  005   [8]  11 00 02 1E 0D 00 88 A1
 (001.614208)  can0  75E   [8]  00 81 00 2D 18 18 18 18
 (001.615985)  can0  073   [8]  05 20 93 68 00 40 00 CD
 (001.620702)  can0  105   [8]  02 6B 7F 00 00 97 B3 0B
 (001.621916)  can0  003   [8]  10 00 10 00 04 FF 70 43
 (001.623791)  can0  201   [8]  DA 5B 7E 02 FF FF 80 C8
 (001.624133)  can0  203   [8]  00 00 00 00 C0 00 C0 00
 (001.624404)  can0  245   [8]  7F FF 7F 7E 80 84 80 85
 (001.625009)  can0  75E   [8]  00 81 00 2D 18 18 18 18
 (001.625991)  can0  073   [8]  05 20 93 68 00 40 10 00
 (001.630035)  can0  766   [8]  00 00 00 00 00 00 0F 08
 (001.631184)  can0  33D   [8]  00 42 00 00 64 00 00 00
 (001.631707)  can0  003   [8]  10 00 10 00 04 FF 80 3C
 (001.632958)  can0  005   [8]  11 00 02 20 0D 00 98 F6
 (001.635047)  can0  75E   [8]  00 81 00 2D 18 18 18 18
 (001.635983)  can0  073   [8]  05 20 93 68 00 40 20 4A
 (001.638051)  can0  375   [8]  13 10 34 3F 3F 07 00 00
 (001.640916)  can0  105   [8]  02 6B 7F 00 00 97 C3 52
 (001.641859)  can0  003   [8]  10 00 10 00 04 FF 90 F1
 (001.642607)  can0  34F   [8]  10 A0 00 A0 03 E7 07 FF
 (001.643236)  can0  201   [8]  DA 5B 7E 02 FF FF 90 05
 (001.643732)  can0  203   [8]  00 00 00 00 C0 00 C0 00
 (001.644180)  can0  245   [8]  80 05 7F 7E 80 84 90 85
 (001.646008)  can0  073   [8]  05 20 93 68 00 40 30 87
 (001.646252)  can0  75E   [8]  00 81 00 2D 18 18 18 18
 (001.648234)  can0  413   [8]  FD 00 04 0F 10 00 00 05
 (001.651167)  can0  766   [8]  00 00 00 00 00 00 0F 08
 (001.651412)  can0  249   [8]  16 0B 00 19 47 00 FF FF
 (001.651806)  can0  003   [8]  10 00 10 00 04 FF A0 BB
 (001.653084)  can0  005   [8]  11 00 02 1E 0D 00 A8 26
 (001.656005)  can0  073   [8]  05 20 93 68 00 40 40 DE
 (001.656319)  can0  75E   [8]  00 81 00 2D 18 18 18 18
 (001.658925)  can0  007   [8]  F0 05 3A 00 3F FC AF 79
 (001.660908)  can0  3D1   [4]  C9 08 00 00
 (001.661229)  can0  105   [8]  02 6B 7F 00 00 97 D3 9F
 (001.661501)  can0  39D   [8]  1D 02 00 C6 FF 0E 00 17
 (001.661904)  can0  003   [8]  10 00 10 00 04 FF B0 76
 (001.662152)  can0  3F6   [5]  02 00 00 00 00
 (001.663306)  can0  204   [8]  00 57 44 44 4B 4A 36 46
 (001.663602)  can0  201   [8]  DA 5B 7E 02 FF FF A0 4F
 (001.663878)  can0  247   [8]  00 00 00 06 00 18 00 00
 (001.664126)  can0  203   [8]  00 00 00 00 C0 00 C0 00
 (001.664476)  can0  245   [8]  80 06 7F 7E 80 84 A0 85
 (001.665757)  can0  34E   [8]  00 00 B7 00 00 B7 11 27
 (001.666053)  can0  073   [8]  05 20 93 68 00 40 50 13
 (001.667032)  can0  75E   [8]  00 81 00 2D 18 18 18 18
 (001.668957)  can0  205   [8]  06 93 0C 00 00 00 00 00
 (001.671737)  can0  003   [8]  10 00 10 00 04 FF C0 2F
 (001.672178)  can0  766   [8]  00 00 00 00 00 00 0F 08
 (001.673083)  can0  005   [8]  11 00 02 1E 0D 00 B8 EB
 (001.676010)  can0  073   [8]  05 20 93 68 00 40 60 59
 (001.677031)  can0  75E   [8]  00 81 00 2D 18 18 18 18
 (001.681877)  can0  105   [8]  02 6B 7F 00 00 97 E3 D5
 (001.681882)  can0  003   [8]  10 00 10 00 04 FF D0 E2
 (001.683154)  can0  201   [8]  DA 5B 7E 02 FF FF B0 82
 (001.683449)  can0  203   [8]  00 00 00 00 C0 00 C0 00
 (001.683727)  can0  204   [8]  01 42 31 47 46 33 31 34
 (001.683991)  can0  245   [8]  80 02 7F 7E 80 84 B0 85
 (001.684308)  can0  336   [8]  71 42 00 00 00 00 00 00
 (001.685809)  can0  001   [8]  CC 83 1F 9E 55 03 01 EB
 (001.686076)  can0  073   [8]  05 20 93 68 00 40 70 94
 (001.686299)  can0  1C0   [2]  00 00
 (001.687031)  can0  75E   [8]  00 81 00 2D 18 18 18 18
 (001.690821)  can0  12D   [8]  01 0F 00 00 50 53 56 79
 (001.691746)  can0  003   [8]  10 00 10 00 04 FF E0 A8
 (001.692205)  can0  766   [8]  00 00 00 00 00 00 0F 08
 (001.693030)  can0  005   [8]  11 00 02 20 0D 00 C8 28
 (001.696005)  can0  073   [8]  05 20 93 68 00 40 80 EB
 (001.697027)  can0  75E   [8]  00 81 00 2D 18 18 18 18
 (001.697298)  can0  76E   [8]  00 00 00 00 00 00 00 00
 (001.700723)  can0  105   [8]  02 6B 7F 00 00 97 F3 18
 (001.701815)  can0  003   [8]  10 00 10 00 04 FF F0 65
 (001.702024)  can0  002   [5]  01 00 C0 00 07
 (001.702324)  can0  388   [8]  35 FF 1F CF FF 0F 07 FF
 (001.703414)  can0  201   [8]  DA 5B 7E 02 FF FF C0 DB
 (001.703702)  can0  203   [8]  00 00 00 00 C0 00 C0 00
 (001.703974)  can0  204   [8]  02 33 33 35 FF FF FF FF
 (001.704251)  can0  245   [8]  80 05 7F 7E 81 84 C0 85
 (001.706053)  can0  073   [8]  05 20 93 68 00 40 90 26
 (001.706274)  can0  328   [2]  07 60
 (001.707081)  can0  04B   [6]  01 00 0C 06 FF 04
 (001.707376)  can0  75E   [8]  00 81 00 2D 18 18 18 18
 (001.710404)  can0  34D   [2]  10 00
 (001.710876)  can0  30D   [8]  85 50 81 FF FF 02 5C 81
 (001.711728)  can0  003   [8]  10 00 10 00 04 FF 00 1A
 (001.712151)  can0  283   [8]  F5 0D 08 03 C0 6F 3F FF
 (001.712423)  can0  045   [8]  00 FF 00 00 00 00 80 25
 (001.712726)  can0  766   [8]  00 00 00 00 00 00 0F 08
 (001.713077)  can0  005   [8]  11 00 02 1F 0D 00 D8 E2
 (001.713855)  can0  3D3   [4]  C0 02 00 00
 (001.715757)  can0  35C   [8]  02 10 E0 00 00 FF FF 01
 (001.716049)  can0  073   [8]  05 20 93 68 00 40 A0 6C
 (001.716852)  can0  068   [1]  01
 (001.717147)  can0  75E   [8]  00 81 00 2D 18 18 18 18
 (001.717325)  can0  10E   [4]  00 80 3A 00
 (001.720735)  can0  105   [8]  02 6B 7F 00 00 97 03 67
 (001.721634)  can0  10D   [4]  00 C0 00 02
 (001.721980)  can0  003   [8]  10 00 10 00 04 FF 10 D7
 (001.723008)  can0  10C   [8]  3B 7F FF 07 03 FF C3 67
 (001.723325)  can0  201   [8]  DA 5B 7E 02 FF FF D0 16
 (001.723600)  can0  203   [8]  00 00 00 00 C0 00 C0 00
 (001.723848)  can0  245   [8]  80 06 7F 7E 81 84 D0 85
 (001.726017)  can0  073   [8]  05 20 93 68 00 40 B0 A1
 (001.728039)  can0  20E   [8]  3F 00 01 F0 FF FF 3F 68
 (001.728297)  can0  75E   [8]  00 81 00 2D 18 18 18 18
 (001.729004)  can0  37D   [8]  02 00 04 B4 12 00 FF FF
 (001.730879)  can0  33D   [8]  00 42 00 00 64 00 00 00
 (001.731728)  can0  003   [8]  10 00 10 00 04 FF 20 9D
 (001.733028)  can0  005   [8]  11 00 02 1F 0D 00 E8 A8
 (001.733294)  can0  351   [8]  00 00 00 00 00 00 00 00
 (001.733598)  can0  766   [8]  00 00 00 00 00 00 0F 08
 (001.734321)  can0  400   [8]  FD 13 04 0F E0 81 00 05
 (001.736003)  can0  073   [8]  05 20 93 68 00 40 C0 F8
 (001.738018)  can0  75E   [8]  00 81 00 2D 18 18 18 18
 (001.738304)  can0  375   [8]  13 10 34 3F 3F 07 00 00
 (001.738597)  can0  776   [8]  00 00 00 00 00 00 00 00
 (001.740689)  can0  105   [8]  02 6B 7F 00 00 97 13 AA
 (001.741834)  can0  003   [8]  10 00 10 00 04 FF 30 50
 (001.742577)  can0  34F   [8]  10 A0 00 A0 03 E7 07 FF
 (001.743531)  can0  201   [8]  DA 5B 7E 02 FF FF E0 5C
 (001.744026)  can0  203   [8]  00 00 00 00 C0 00 C0 00
 (001.744274)  can0  245   [8]  80 06 7F 7E 81 84 E0 85
 (001.746001)  can0  073   [8]  05 20 93 68 00 40 D0 35
 (001.748999)  can0  75E   [8]  00 81 00 2D 18 18 18 18
 (001.751090)  can0  249   [8]  1C 70 00 22 B4 00 FF FF
 (001.751736)  can0  003   [8]  10 00 10 00 04 FF 40 09
 (001.752950)  can0  005   [8]  11 00 02 1F 0D 00 F8 65
 (001.754056)  can0  766   [8]  00 00 00 00 00 00 0F 08
 (001.756030)  can0  073   [8]  05 20 93 68 00 40 E0 7F
 (001.759045)  can0  75E   [8]  00 81 00 2D 18 18 18 18
 (001.759270)  can0  007   [8]  F0 05 3A 00 3F FC AF 79
 (001.760898)  can0  105   [8]  02 6A 7F 00 00 97 23 A6
 (001.761472)  can0  39D   [8]  1D 02 00 C6 FF 0E 00 1F
 (001.761847)  can0  003   [8]  10 00 10 00 04 FF 50 C4
 (001.763125)  can0  201   [8]  DA 5B 7E 02 FF FF F0 91
 (001.763243)  can0  317   [2]  0A 00
 (001.763518)  can0  247   [8]  00 00 00 06 00 18 00 00
 (001.763795)  can0  203   [8]  00 00 00 00 C0 00 C0 00
 (001.764119)  can0  245   [8]  80 07 7F 7E 81 84 F0 85
 (001.765700)  can0  34E   [8]  00 00 B7 00 00 B7 11 27
 (001.766020)  can0  073   [8]  05 20 93 68 00 40 F0 B2
 (001.768974)  can0  205   [8]  06 93 0C 00 00 00 00 00
 (001.771087)  can0  75E   [8]  00 81 00 2D 18 18 18 18
 (001.771738)  can0  003   [8]  10 00 10 00 04 FF 60 8E
 (001.773027)  can0  005   [8]  11 00 02 1F 0D 00 08 1A
 (001.776012)  can0  073   [8]  05 20 93 68 00 40 00 CD
 (001.776267)  can0  766   [8]  00 00 00 00 00 00 0F 08
 (001.780650)  can0  105   [8]  02 6A 7F 00 00 97 33 6B
 (001.781471)  can0  75E   [8]  00 81 00 2D 18 18 18 18
 (001.781794)  can0  003   [8]  10 00 10 00 04 FF 70 43
 (001.783449)  can0  201   [8]  DA 5B 7E 02 FF FF 00 EE
 (001.783796)  can0  203   [8]  00 00 00 00 C0 00 C0 00
 (001.784106)  can0  245   [8]  80 06 7F 7E 81 84 00 85
 (001.785805)  can0  001   [8]  CC 83 1F 9E 55 03 11 26
 (001.786070)  can0  073   [8]  05 20 93 68 00 40 10 00
 (001.790830)  can0  12D   [8]  01 0F 00 00 50 53 56 79
 (001.791779)  can0  003   [8]  10 00 10 00 04 FF 80 3C
 (001.792179)  can0  75E   [8]  00 81 00 2D 18 18 18 18
 (001.792876)  can0  005   [8]  11 00 02 1E 0D 00 18 4A
 (001.794023)  can0  2EF   [8]  F7 00 FF 0F FF FF FF 00
 (001.795997)  can0  073   [8]  05 20 93 68 00 40 20 4A
 (001.797045)  can0  766   [8]  00 00 00 00 00 00 0F 08
 (001.800718)  can0  105   [8]  02 6B 7F 00 00 97 43 74
 (001.801950)  can0  003   [8]  10 00 10 00 04 FF 90 F1
 (001.802243)  can0  75E   [8]  00 81 00 2D 18 18 18 18
 (001.802518)  can0  76E   [8]  00 00 00 00 00 00 00 00
 (001.803100)  can0  201   [8]  DA 5B 7E 02 FF FF 10 23
 (001.803393)  can0  203   [8]  00 00 00 00 C0 00 C0 00
 (001.803667)  can0  245   [8]  80 06 7F 7E 80 84 10 85
 (001.806036)  can0  073   [8]  05 20 93 68 00 40 30 87
 (001.807032)  can0  388   [8]  35 FF 1F CF FF 0F 07 FF
 (001.811048)  can0  30D   [8]  85 50 81 FF FF 02 57 81
 (001.811770)  can0  003   [8]  10 00 10 00 04 FF A0 BB
 (001.812119)  can0  04B   [6]  01 00 0C 06 FF 04
 (001.812418)  can0  045   [8]  00 FF 00 00 00 00 90 E8
 (001.812693)  can0  75E   [8]  00 81 00 2D 18 18 18 18
 (001.813042)  can0  005   [8]  11 00 02 1F 0D 00 28 9D
 (001.815997)  can0  073   [8]  05 20 93 68 00 40 40 DE
 (001.816894)  can0  2FF   [8]  02 28 00 53 FF 54 62 FE
 (001.817141)  can0  283   [8]  F5 0D 08 03 C0 6F 3F FF
 (001.817453)  can0  766   [8]  00 00 00 00 00 00 0F 08
 (001.820736)  can0  105   [8]  02 6B 7F 00 00 97 53 B9
 (001.821964)  can0  003   [8]  10 00 10 00 04 FF B0 76
 (001.822225)  can0  75E   [8]  00 81 00 2D 18 18 18 18
 (001.823655)  can0  201   [8]  DA 5B 7E 02 FF FF 20 69
 (001.823921)  can0  203   [8]  00 00 00 00 C0 00 C0 00
 (001.824172)  can0  245   [8]  80 07 7F 7E 81 84 20 85
 (001.826001)  can0  073   [8]  05 20 93 68 00 40 50 13
 (001.828221)  can0  413   [8]  FD 00 04 0F 10 00 00 05
 (001.830871)  can0  33D   [8]  00 42 00 00 64 00 00 00
 (001.831768)  can0  003   [8]  10 00 10 00 04 FF C0 2F
 (001.832141)  can0  75E   [8]  00 81 00 2D 18 18 18 18
 (001.833042)  can0  005   [8]  11 00 02 1F 0D 00 38 50
 (001.836202)  can0  073   [8]  05 20 93 68 00 40 60 59
 (001.838059)  can0  375   [8]  13 10 34 3F 3F 07 00 00
 (001.838367)  can0  766   [8]  00 00 00 00 00 00 0F 08
 (001.839279)  can0  30E   [8]  0C 00 00 00 00 05 FF 03
 (001.840694)  can0  105   [8]  02 6B 7F 00 00 97 63 F3
 (001.841626)  can0  34F   [8]  10 A0 00 A0 03 E7 07 FF
 (001.841918)  can0  003   [8]  10 00 10 00 04 FF D0 E2
 (001.843144)  can0  201   [8]  DA 5B 7E 02 FF FF 30 A4
 (001.843642)  can0  203   [8]  00 00 00 00 C0 00 C0 00
 (001.844141)  can0  245   [8]  80 07 7F 7E 81 84 30 85
 (001.844414)  can0  75E   [8]  00 81 00 2D 18 18 18 18
 (001.845994)  can0  073   [8]  05 20 93 68 00 40 70 94
 (001.851142)  can0  249   [8]  24 B6 00 2B E8 00 FF FF
 (001.851805)  can0  003   [8]  10 00 10 00 04 FF E0 A8
 (001.852950)  can0  005   [8]  11 00 02 1E 0D 00 48 94
 (001.854084)  can0  75E   [8]  00 81 00 2D 18 18 18 18
 (001.855977)  can0  073   [8]  05 20 93 68 00 40 80 EB
 (001.859022)  can0  766   [8]  00 00 00 00 00 00 0F 08
 (001.859290)  can0  007   [8]  F0 05 3A 00 3F FC AF 79
 (001.860684)  can0  105   [8]  02 6C 7F 00 00 97 73 F1
 (001.861090)  can0  39D   [8]  1D 02 00 C6 FF 0E 00 27
 (001.861336)  can0  3D1   [4]  C9 08 00 00
 (001.861714)  can0  3F6   [5]  02 00 00 00 00
 (001.861988)  can0  003   [8]  10 00 10 00 04 FF F0 65
 (001.863467)  can0  201   [8]  DA 5B 7E 02 FF FF 40 FD
 (001.863763)  can0  247   [8]  00 00 00 06 00 18 00 00
 (001.864038)  can0  203   [8]  00 00 00 00 C0 00 C0 00
 (001.864311)  can0  75E   [8]  00 81 00 2D 18 18 18 18
 (001.864590)  can0  245   [8]  80 06 7F 7E 80 84 40 85
 (001.865791)  can0  34E   [8]  00 00 B7 00 00 B7 11 27
 (001.866061)  can0  073   [8]  05 20 93 67 00 40 90 4E
 (001.869220)  can0  205   [8]  06 93 0C 00 00 00 00 00
 (001.871802)  can0  003   [8]  10 00 10 00 04 FF 00 1A
 (001.873053)  can0  005   [8]  11 00 02 1E 0D 00 58 59
 (001.874275)  can0  75E   [8]  00 81 00 2D 18 18 18 18
 (001.875968)  can0  073   [8]  05 20 93 67 00 40 A0 04
 (001.879016)  can0  766   [8]  00 00 00 00 00 00 0F 08
 (001.880679)  can0  105   [8]  02 6D 7F 00 00 97 83 C8
 (001.881865)  can0  003   [8]  10 00 10 00 04 FF 10 D7
 (001.883089)  can0  201   [8]  DA 5B 7E 02 FF FF 50 30
 (001.883411)  can0  203   [8]  00 00 00 00 C0 00 C0 00
 (001.883687)  can0  336   [8]  71 42 00 00 00 00 00 00
 (001.883970)  can0  245   [8]  80 03 7F 7E 80 84 50 85
 (001.884240)  can0  75E   [8]  00 81 00 2D 18 18 18 18
 (001.885277)  can0  26F   [2]  6F C0
 (001.885969)  can0  073   [8]  05 20 93 67 00 40 B0 C9
 (001.886288)  can0  001   [8]  CC 83 1F 9E 55 03 21 6C
 (001.890803)  can0  12D   [8]  01 0F 00 00 50 53 56 79
 (001.891746)  can0  003   [8]  10 00 10 00 04 FF 20 9D
 (001.892940)  can0  005   [8]  11 00 02 1E 0D 00 68 13
 (001.894064)  can0  75E   [8]  00 81 00 2D 18 18 18 18
 (001.895615)  can0  1C1   [4]  00 00 00 00
 (001.895935)  can0  073   [8]  05 20 93 67 00 40 C0 90
 (001.899013)  can0  766   [8]  00 00 00 00 00 00 0F 08
 (001.901060)  can0  105   [8]  02 6D 7F 00 00 97 93 05
 (001.901964)  can0  003   [8]  10 00 10 00 04 FF 30 50
 (001.903473)  can0  201   [8]  DA 5B 7E 02 FF FF 60 7A
 (001.903787)  can0  203   [8]  00 00 00 00 C0 00 C0 00
 (001.904035)  can0  245   [8]  80 05 7F 7E 80 84 60 85
 (001.905016)  can0  75E   [8]  00 81 00 2D 18 18 18 18
 (001.905311)  can0  76E   [8]  00 00 00 00 00 00 00 00
 (001.905995)  can0  073   [8]  05 20 93 67 00 40 D0 5D
 (001.906260)  can0  328   [2]  07 60
 (001.908849)  can0  3B8   [8]  00 00 00 60 41 05 00 00
 (001.910016)  can0  388   [8]  35 FF 1F CF FF 0F 07 FF
 (001.910742)  can0  39F   [8]  12 1F 1D 02 0B 19 0A FF
 (001.911010)  can0  30D   [8]  85 50 81 FF FF 02 57 81
 (001.911712)  can0  003   [8]  10 00 10 00 04 FF 40 09
 (001.912261)  can0  045   [8]  00 FF 00 00 00 00 A0 A2
 (001.913112)  can0  005   [8]  11 00 02 1F 0D 00 78 43
 (001.913711)  can0  3D3   [4]  C0 02 00 00
 (001.914937)  can0  04B   [6]  01 00 0C 06 FF 04
 (001.915234)  can0  75E   [8]  00 81 00 2D 18 18 18 18
 (001.915763)  can0  35C   [8]  02 10 E0 00 00 FF FF 01
 (001.916034)  can0  073   [8]  05 20 93 67 00 40 E0 17
 (001.916310)  can0  19F   [8]  00 00 74 F0 1C 22 62 01
 (001.920023)  can0  283   [8]  F5 0D 08 03 C0 6F 3F FF
 (001.920312)  can0  766   [8]  00 00 00 00 00 00 0F 08
 (001.920897)  can0  105   [8]  02 6D 7F 00 00 97 A3 4F
 (001.921286)  can0  400   [8]  FD 13 04 0F E0 81 00 05
 (001.921838)  can0  003   [8]  10 00 10 00 04 FF 50 C4
 (001.923241)  can0  201   [8]  DA 5B 7E 02 FF FF 70 B7
 (001.923486)  can0  203   [8]  00 00 00 00 C0 00 C0 00
 (001.923760)  can0  245   [8]  80 03 7F 7E 80 84 70 85
 (001.925699)  can0  3E3   [8]  5A FD 95 C7 29 CF 5E D0
 (001.925985)  can0  073   [8]  05 20 93 67 00 40 F0 DA
 (001.926132)  can0  068   [1]  01
 (001.926407)  can0  75E   [8]  00 81 00 2D 18 18 18 18
 (001.928889)  can0  37D   [8]  02 00 04 B4 12 00 FF FF
 (001.931243)  can0  33D   [8]  00 42 00 00 64 00 00 00
 (001.931506)  can0  10C   [8]  3B 7F FF 07 03 FF C3 67
 (001.931784)  can0  003   [8]  10 00 10 00 04 FF 60 8E
 (001.932060)  can0  3F2   [8]  00 17 00 06 00 00 3F FD
 (001.933011)  can0  005   [8]  11 00 02 20 0D 00 88 3B
 (001.935767)  can0  3E5   [8]  0E 0A 0A 0A 04 FF FF 00
 (001.936035)  can0  073   [8]  05 20 93 67 00 40 00 A5
 (001.937018)  can0  20E   [8]  3F 00 01 F0 FF FF 3F 68
 (001.937282)  can0  75E   [8]  00 81 00 2D 18 18 18 18
 (001.937641)  can0  3E7   [8]  5A FD 97 89 29 CF 5D E8
 (001.938123)  can0  375   [8]  13 10 34 3F 3F 07 00 00
 (001.940651)  can0  105   [8]  02 6D 7F 00 00 97 B3 82
 (001.941819)  can0  003   [8]  10 00 10 00 04 FF 70 43
 (001.942135)  can0  351   [8]  00 00 00 00 00 00 00 00
 (001.942433)  can0  766   [8]  00 00 00 00 00 00 0F 08
 (001.943011)  can0  34F   [8]  10 A0 00 A0 03 E7 07 FF
 (001.943535)  can0  201   [8]  DA 5B 7E 02 FF FF 80 C8
 (001.944010)  can0  203   [8]  00 00 00 00 C0 00 C0 00
 (001.944282)  can0  245   [8]  80 05 7F 7E 80 84 80 85
 (001.945735)  can0  3E9   [8]  07 E9 0B 03 02 1F 0B 54
 (001.946005)  can0  073   [8]  05 20 93 67 00 40 10 68
 (001.947009)  can0  75E   [8]  00 81 00 2D 18 18 18 18
 (001.947305)  can0  776   [8]  00 00 00 00 00 00 00 00
 (001.947633)  can0  3EB   [8]  00 01 06 42 0D 3B 0D 98
 (001.951135)  can0  249   [8]  2F E8 00 33 E8 00 FF FF
 (001.951733)  can0  003   [8]  10 00 10 00 04 FF 80 3C
 (001.952991)  can0  005   [8]  11 00 02 20 0D 00 98 F6
 (001.955976)  can0  073   [8]  05 20 93 67 00 40 20 22
 (001.957019)  can0  75E   [8]  00 81 00 2D 18 18 18 18
 (001.959662)  can0  007   [8]  F0 05 3A 00 3F FC AF 79
 (001.960835)  can0  39D   [8]  1D 02 00 C6 FF 0E 00 2F
 (001.961155)  can0  105   [8]  02 6D 7F 00 00 97 C3 DB
 (001.961884)  can0  003   [8]  10 00 10 00 04 FF 90 F1
 (001.963084)  can0  766   [8]  00 00 00 00 00 00 0F 08
 (001.963354)  can0  2C4   [8]  00 00 FC 3F 7F FF 3F FF
 (001.963583)  can0  201   [8]  DA 5B 7E 02 FF FF 90 05
 (001.963882)  can0  203   [8]  00 00 00 00 C0 00 C0 00
 (001.964157)  can0  245   [8]  80 05 7F 7E 80 84 90 85
 (001.964431)  can0  247   [8]  00 00 00 06 00 18 00 00
 (001.965710)  can0  34E   [8]  00 00 B7 00 00 B7 11 27
 (001.966006)  can0  073   [8]  05 20 93 67 00 40 30 EF
 (001.968890)  can0  205   [8]  06 93 0C 00 00 00 00 00
 (001.969157)  can0  75E   [8]  00 81 00 2D 18 18 18 18
 (001.971717)  can0  003   [8]  10 00 10 00 04 FF A0 BB
 (001.973280)  can0  005   [8]  11 00 02 21 0D 00 A8 21
 (001.975962)  can0  073   [8]  05 20 93 67 00 40 40 B6
 (001.979016)  can0  75E   [8]  00 81 00 2D 18 18 18 18
 (001.980720)  can0  105   [8]  02 6D 7F 00 00 96 D3 5A
 (001.981707)  can0  003   [8]  10 00 10 00 04 FF B0 76
 (001.983588)  can0  201   [8]  DA 5B 7E 02 FF FF A0 4F
 (001.983855)  can0  203   [8]  00 00 00 00 C0 00 C0 00
 (001.984114)  can0  245   [8]  80 02 7F 7E 80 84 A0 85
 (001.985066)  can0  766   [8]  00 00 00 00 00 00 0F 08
 (001.985764)  can0  001   [8]  CC 83 1F 9E 55 03 31 A1
 (001.986031)  can0  073   [8]  05 20 93 67 00 40 50 7B
 (001.990219)  can0  75E   [8]  00 81 00 2D 18 18 18 18
 (001.990766)  can0  12D   [8]  01 0F 00 00 50 53 56 79
 (001.991718)  can0  003   [8]  10 00 10 00 04 FF C0 2F
 (001.992865)  can0  005   [8]  11 00 02 20 0D 00 B8 71
 (001.994014)  can0  2EF   [8]  F7 00 FF 0F FF FF FF 00
 (001.995965)  can0  073   [8]  05 20 93 67 00 40 60 31
 (002.000066)  can0  75E   [8]  00 81 00 2D 18 18 18 18
 (002.000904)  can0  105   [8]  02 6D 7F 00 00 96 E3 10
 (002.001871)  can0  003   [8]  10 00 10 00 04 FF D0 E2
 (002.003269)  can0  201   [8]  DA 5B 7E 02 FF FF B0 82
 (002.003605)  can0  203   [8]  00 00 00 00 C0 00 C0 00
 (002.003880)  can0  245   [8]  7F FE 7F 7E 80 84 B0 85
 (002.006015)  can0  073   [8]  05 20 93 67 00 40 70 FC
 (002.006279)  can0  766   [8]  00 00 00 00 00 00 0F 08
 (002.010961)  can0  30D   [8]  85 50 81 FF FF 02 57 81
 (002.011279)  can0  75E   [8]  00 81 00 2D 18 18 18 18
 (002.011580)  can0  76E   [8]  00 00 00 00 00 00 00 00
 (002.011828)  can0  003   [8]  10 00 10 00 04 FF E0 A8
 (002.012280)  can0  045   [8]  00 FF 00 00 00 00 B0 6F
 (002.013008)  can0  005   [8]  11 00 02 20 0D 00 C8 28
 (002.015959)  can0  073   [8]  05 20 93 67 00 40 80 83
 (002.016229)  can0  388   [8]  35 FF 1F CF FF 0F 07 FF
 (002.018212)  can0  413   [8]  FD 00 04 0F 10 00 00 05
 (002.020803)  can0  105   [8]  02 6D 7F 00 00 96 F3 DD
 (002.021321)  can0  04B   [6]  01 00 0C 06 FF 04
 (002.021577)  can0  75E   [8]  00 81 00 2D 18 18 18 18
 (002.021826)  can0  003   [8]  10 00 10 00 04 FF F0 65
 (002.023544)  can0  201   [8]  DA 5B 7E 02 FF FF C0 DB
 (002.024067)  can0  203   [8]  00 00 00 00 C0 00 C0 00
 (002.024386)  can0  245   [8]  80 01 7F 7E 80 84 C0 85
 (002.025966)  can0  073   [8]  05 20 93 67 00 40 90 4E
 (002.027008)  can0  283   [8]  F5 0D 08 03 C0 6F 3F FF
 (002.027278)  can0  766   [8]  00 00 00 00 00 00 0F 08
 (002.030860)  can0  33D   [8]  00 42 00 00 64 00 00 00
 (002.031756)  can0  003   [8]  10 00 10 00 04 FF 00 1A
 (002.032153)  can0  75E   [8]  00 81 00 2D 18 18 18 18
 (002.032955)  can0  005   [8]  11 00 02 20 0D 00 D8 E5
 (002.035957)  can0  073   [8]  05 20 93 67 00 40 A0 04
 (002.038046)  can0  375   [8]  13 10 34 3F 3F 07 00 00
 (002.040674)  can0  105   [8]  02 6E 7F 00 00 96 03 68
 (002.041608)  can0  34F   [8]  10 A0 00 A0 03 E7 07 FF
 (002.041876)  can0  003   [8]  10 00 10 00 04 FF 10 D7
 (002.042175)  can0  75E   [8]  00 81 00 2D 18 18 18 18
 (002.043231)  can0  201   [8]  DA 5B 7E 02 FF FF D0 16
 (002.043731)  can0  203   [8]  00 00 00 00 C0 00 C0 00
 (002.044052)  can0  245   [8]  80 05 7F 7E 81 84 D0 85
 (002.045931)  can0  073   [8]  05 20 93 67 00 40 B0 C9
 (002.047030)  can0  766   [8]  00 00 00 00 00 00 0F 08
 (002.051098)  can0  249   [8]  37 E8 00 3B E8 00 FF FF
 (002.051733)  can0  003   [8]  10 00 10 00 04 FF 20 9D
 (002.052252)  can0  75E   [8]  00 81 00 2D 18 18 18 18
 (002.052931)  can0  005   [8]  11 00 02 20 0D 00 E8 AF
 (002.053834)  can0  004   [5]  01 00 00 37 07
 (002.055962)  can0  073   [8]  05 20 93 67 00 40 C0 90
 (002.058861)  can0  007   [8]  F0 05 3A 00 3F FC AF 79
 (002.060956)  can0  39D   [8]  1D 02 00 C6 FF 0E 00 37
 (002.061299)  can0  105   [8]  02 6E 7F 00 00 96 13 A5
 (002.061497)  can0  3D1   [4]  C9 08 00 00
 (002.061799)  can0  003   [8]  10 00 10 00 04 FF 30 50
 (002.062625)  can0  3F6   [5]  02 00 00 00 00
 (002.063073)  can0  75E   [8]  00 81 00 2D 18 18 18 18
 (002.063398)  can0  201   [8]  DA 5B 7E 02 FF FF E0 5C
 (002.063699)  can0  247   [8]  00 00 00 06 00 18 00 00
 (002.063974)  can0  203   [8]  00 00 00 00 C0 00 C0 00
 (002.064321)  can0  245   [8]  80 05 7F 7E 81 84 E0 85
 (002.065754)  can0  34E   [8]  00 00 B7 00 00 B7 11 27
 (002.066023)  can0  073   [8]  05 20 93 67 00 40 D0 5D
 (002.068081)  can0  766   [8]  00 00 00 00 00 00 0F 08
 (002.068879)  can0  205   [8]  06 93 0C 00 00 00 00 00
 (002.071758)  can0  003   [8]  10 00 10 00 04 FF 40 09
 (002.073032)  can0  005   [8]  11 00 02 1F 0D 00 F8 65
 (002.073300)  can0  75E   [8]  00 81 00 2D 18 18 18 18
