 (000.000000)  can0  12D   [8]  01 0F 00 00 50 53 56 79
 (000.002147)  can0  073   [8]  05 20 92 66 00 40 E0 E0
 (000.002850)  can0  766   [8]  00 00 00 00 00 00 0F 08
 (000.005524)  can0  003   [8]  0F F7 10 00 04 FF 50 22
 (000.007795)  can0  75E   [8]  00 81 00 2D 18 18 18 18
 (000.008293)  can0  201   [8]  27 2C B5 B7 FF FF 70 A7
 (000.008742)  can0  203   [8]  00 00 00 00 C0 00 C0 00
 (000.008991)  can0  245   [8]  80 03 81 7E 80 84 70 85
 (000.009289)  can0  105   [8]  02 5F 7F 00 00 99 A3 10
 (000.012076)  can0  073   [8]  05 20 92 66 00 40 F0 2D
 (000.015573)  can0  003   [8]  0F F7 10 00 04 FF 60 68
 (000.016221)  can0  045   [8]  00 FF 00 00 00 00 50 DD
 (000.018423)  can0  005   [8]  11 00 03 3F 0D 00 88 1C
 (000.019022)  can0  75E   [8]  00 81 00 2D 18 18 18 18
 (000.020119)  can0  30D   [8]  88 51 7E FF FF 02 79 81
 (000.022244)  can0  073   [8]  05 20 92 66 00 40 00 52
 (000.023753)  can0  766   [8]  00 00 00 00 00 00 0F 08
 (000.025518)  can0  003   [8]  0F F7 10 00 04 FF 70 A5
 (000.028743)  can0  75E   [8]  00 81 00 2D 18 18 18 18
 (000.029012)  can0  201   [8]  27 2C B5 B7 FF FF 80 D8
 (000.029290)  can0  105   [8]  02 60 7F 00 00 99 B3 24
 (000.030043)  can0  203   [8]  00 00 00 00 C0 00 C0 00
 (000.030518)  can0  245   [8]  80 05 81 7E 80 83 80 85
 (000.032225)  can0  073   [8]  05 20 92 66 00 40 10 9F
 (000.035532)  can0  003   [8]  0F F7 10 00 04 FF 80 DA
 (000.038324)  can0  005   [8]  11 00 03 40 0D 00 98 42
 (000.038945)  can0  75E   [8]  00 81 00 2D 18 18 18 18
 (000.039542)  can0  33D   [8]  00 42 00 00 64 00 00 00
 (000.040395)  can0  39D   [8]  1E 02 00 C1 FF 0E 00 17
 (000.040611)  can0  3F6   [5]  02 00 00 00 00
 (000.042143)  can0  073   [8]  05 20 92 66 00 40 20 D5
 (000.043594)  can0  375   [8]  13 10 34 3F 3F 07 00 00
 (000.043954)  can0  766   [8]  00 00 00 00 00 00 0F 08
 (000.045495)  can0  34E   [8]  00 00 B3 00 00 B3 11 2C
 (000.045761)  can0  003   [8]  0F F7 10 00 04 FF 90 17
 (000.048371)  can0  201   [8]  27 2C B5 B7 FF FF 90 15
 (000.048787)  can0  75E   [8]  00 81 00 2D 18 18 18 18
 (000.049060)  can0  203   [8]  00 00 00 00 C0 00 C0 00
 (000.049336)  can0  105   [8]  02 62 7F 00 00 99 C3 F1
 (000.049639)  can0  76E   [8]  00 00 00 00 00 00 00 00
 (000.050044)  can0  245   [8]  80 03 81 7E 80 83 90 85
 (000.050294)  can0  34F   [8]  10 9E 00 9E 03 E7 07 FF
 (000.052197)  can0  073   [8]  05 20 92 66 00 40 30 18
 (000.053745)  can0  388   [8]  35 FF 1F CF FF 0F 07 FF
 (000.055535)  can0  003   [8]  0F F7 10 00 04 FF A0 5D
 (000.058298)  can0  005   [8]  11 00 03 40 0D 00 A8 08
 (000.058863)  can0  04B   [6]  01 00 0C 06 FF 04
 (000.059136)  can0  75E   [8]  00 81 00 2D 18 18 18 18
 (000.060342)  can0  336   [8]  71 42 00 00 00 00 00 00
 (000.060622)  can0  249   [8]  15 47 00 18 70 00 FF FF
 (000.062194)  can0  073   [8]  05 20 92 66 00 40 40 41
 (000.063720)  can0  283   [8]  F5 0D 08 03 C0 6E 3F FF
 (000.064010)  can0  766   [8]  00 00 00 00 00 00 0F 08
 (000.064848)  can0  400   [8]  FD 13 04 0F E0 81 00 05
 (000.065364)  can0  007   [8]  F0 05 3A 00 3F FC AF 79
 (000.065634)  can0  003   [8]  0F F7 10 00 04 FF B0 90
 (000.068773)  can0  75E   [8]  00 81 00 2D 18 18 18 18
 (000.069034)  can0  201   [8]  27 2C B5 B7 FF FF A0 5F
 (000.069310)  can0  105   [8]  02 62 7F 00 00 99 D3 3C
 (000.069508)  can0  3D1   [4]  C9 08 00 00
 (000.070011)  can0  203   [8]  00 00 00 00 C0 00 C0 00
 (000.070310)  can0  247   [8]  00 00 00 06 00 18 00 00
 (000.070709)  can0  245   [8]  80 01 81 7E 7F 83 A0 85
 (000.072296)  can0  073   [8]  05 20 92 66 00 40 50 8C
 (000.075430)  can0  205   [8]  06 93 0C 00 00 00 00 00
 (000.075674)  can0  003   [8]  0F F7 10 00 04 FF C0 C9
 (000.078384)  can0  005   [8]  11 00 03 3F 0D 00 B8 56
 (000.079839)  can0  75E   [8]  00 81 00 2D 18 18 18 18
 (000.082190)  can0  073   [8]  05 20 92 66 00 40 60 C6
 (000.084766)  can0  766   [8]  00 00 00 00 00 00 0F 08
 (000.085514)  can0  003   [8]  0F F7 10 00 04 FF D0 04
 (000.088339)  can0  201   [8]  27 2C B5 B7 FF FF B0 92
 (000.088667)  can0  203   [8]  00 00 00 00 C0 00 C0 00
 (000.088931)  can0  245   [8]  80 05 81 7E 7F 83 B0 85
 (000.089183)  can0  105   [8]  02 61 7F 00 00 99 E3 BC
 (000.090088)  can0  75E   [8]  00 81 00 2D 18 18 18 18
 (000.090307)  can0  004   [5]  01 00 00 37 07
 (000.092044)  can0  073   [8]  05 20 92 66 00 40 70 0B
 (000.094969)  can0  001   [8]  CC 83 1F 9E 55 03 81 CD
 (000.095559)  can0  003   [8]  0F F7 10 00 04 FF E0 4E
 (000.098339)  can0  005   [8]  11 00 03 40 0D 00 C8 9C
 (000.099748)  can0  75E   [8]  00 81 00 2D 18 18 18 18
 (000.100007)  can0  12D   [8]  01 0F 00 00 50 53 56 79
 (000.102226)  can0  073   [8]  05 20 92 66 00 40 80 74
 (000.104816)  can0  766   [8]  00 00 00 00 00 00 0F 08
 (000.105542)  can0  003   [8]  0F F7 10 00 04 FF F0 83
 (000.108789)  can0  201   [8]  27 2C B5 B7 FF FF C0 CB
 (000.109084)  can0  105   [8]  02 5E 7F 00 00 99 F3 88
 (000.110013)  can0  203   [8]  00 00 00 00 C0 00 C0 00
 (000.110284)  can0  75E   [8]  00 81 00 2D 18 18 18 18
 (000.110572)  can0  245   [8]  80 07 81 7E 7F 83 C0 85
 (000.112101)  can0  073   [8]  05 20 92 66 00 40 90 B9
 (000.112815)  can0  328   [2]  07 60
 (000.113437)  can0  34D   [2]  10 00
 (000.115570)  can0  003   [8]  0F F7 10 00 04 FF 00 FC
 (000.116290)  can0  045   [8]  00 FF 00 00 00 00 60 97
 (000.118405)  can0  005   [8]  11 00 03 3F 0D 00 D8 C2
 (000.119624)  can0  35C   [8]  02 10 E0 00 00 FF FF 01
 (000.120061)  can0  30D   [8]  88 51 7E FF FF 02 79 81
 (000.120788)  can0  75E   [8]  00 81 00 2D 18 18 18 18
 (000.122342)  can0  073   [8]  05 20 92 66 00 40 A0 F3
 (000.125513)  can0  003   [8]  0F F7 10 00 04 FF 10 31
 (000.125937)  can0  766   [8]  00 00 00 00 00 00 0F 08
 (000.128353)  can0  201   [8]  27 2C B5 B7 FF FF D0 06
 (000.128655)  can0  203   [8]  00 00 00 00 C0 00 C0 00
 (000.128930)  can0  245   [8]  80 03 81 7E 7F 83 D0 85
 (000.129182)  can0  105   [8]  02 5E 7F 00 00 99 03 F7
 (000.130747)  can0  75E   [8]  00 81 00 2D 18 18 18 18
 (000.132194)  can0  073   [8]  05 20 92 66 00 40 B0 3E
 (000.135548)  can0  37D   [8]  02 00 04 BC 12 00 FF FF
 (000.135763)  can0  003   [8]  0F F7 10 00 04 FF 20 7B
 (000.138290)  can0  005   [8]  11 00 03 3F 0D 00 E8 88
 (000.139529)  can0  33D   [8]  00 42 00 00 64 00 00 00
 (000.140591)  can0  39D   [8]  1E 02 00 C1 FF 0E 00 1F
 (000.140830)  can0  75E   [8]  00 81 00 2D 18 18 18 18
 (000.142116)  can0  073   [8]  05 20 92 66 00 40 C0 67
 (000.143542)  can0  375   [8]  13 10 34 3F 3F 07 00 00
 (000.145487)  can0  34E   [8]  00 00 B3 00 00 B3 11 2C
 (000.145754)  can0  003   [8]  0F F7 10 00 04 FF 30 B6
 (000.146104)  can0  766   [8]  00 00 00 00 00 00 0F 08
 (000.148710)  can0  201   [8]  27 2C B5 B7 FF FF E0 4C
 (000.149215)  can0  105   [8]  02 5C 7F 00 00 99 13 B6
 (000.150185)  can0  203   [8]  00 00 00 00 C0 00 C0 00
 (000.150481)  can0  3D3   [4]  C0 02 00 00
 (000.150776)  can0  245   [8]  80 05 81 7E 7F 83 E0 85
 (000.151025)  can0  34F   [8]  10 9E 00 9E 03 E7 07 FF
 (000.151303)  can0  75E   [8]  00 81 00 2D 18 18 18 18
 (000.151578)  can0  76E   [8]  00 00 00 00 00 00 00 00
 (000.152286)  can0  073   [8]  05 20 92 66 00 40 D0 AA
 (000.155514)  can0  003   [8]  0F F7 10 00 04 FF 40 EF
 (000.155855)  can0  388   [8]  35 FF 1F CF FF 0F 07 FF
 (000.158310)  can0  005   [8]  11 00 03 3F 0D 00 F8 45
 (000.160249)  can0  249   [8]  1E B4 00 20 B6 00 FF FF
 (000.160777)  can0  04B   [6]  01 00 0C 06 FF 04
 (000.161015)  can0  75E   [8]  00 81 00 2D 18 18 18 18
 (000.161675)  can0  413   [8]  FD 00 04 0F 10 00 00 05
 (000.162181)  can0  073   [8]  05 20 92 66 00 40 E0 E0
 (000.165513)  can0  003   [8]  0F F7 10 00 04 FF 50 22
 (000.165828)  can0  283   [8]  F5 0D 08 03 C0 6E 3F FF
 (000.166102)  can0  007   [8]  F0 05 3A 00 3F FC AF 79
 (000.166378)  can0  766   [8]  00 00 00 00 00 00 0F 08
 (000.168438)  can0  201   [8]  27 2C B5 B7 FF FF F0 81
 (000.168781)  can0  247   [8]  00 00 00 06 00 18 00 00
 (000.169054)  can0  203   [8]  00 00 00 00 C0 00 C0 00
 (000.169328)  can0  105   [8]  02 5C 7F 00 00 99 23 FC
 (000.170062)  can0  245   [8]  80 07 81 7E 80 84 F0 85
 (000.171584)  can0  068   [1]  01
 (000.171852)  can0  75E   [8]  00 81 00 2D 18 18 18 18
 (000.172124)  can0  073   [8]  05 20 92 66 00 40 F0 2D
 (000.175524)  can0  205   [8]  06 93 0C 00 00 00 00 00
 (000.175793)  can0  003   [8]  0F F7 10 00 04 FF 60 68
 (000.176731)  can0  10C   [8]  3B 7F FF 07 03 FF C3 67
 (000.178380)  can0  005   [8]  11 00 03 3F 0D 00 08 3A
 (000.181733)  can0  20E   [8]  3F 00 01 F0 FF FF 3F 68
 (000.182012)  can0  75E   [8]  00 81 00 2D 18 18 18 18
 (000.182283)  can0  073   [8]  05 20 92 66 00 40 00 52
 (000.185526)  can0  003   [8]  0F F7 10 00 04 FF 70 A5
 (000.186758)  can0  351   [8]  00 00 00 00 00 00 00 00
 (000.187028)  can0  766   [8]  00 00 00 00 00 00 0F 08
 (000.188737)  can0  201   [8]  27 2C B5 B7 FF FF 00 FE
 (000.189002)  can0  203   [8]  00 00 00 00 C0 00 C0 00
 (000.189252)  can0  105   [8]  02 5B 7F 00 00 9A 33 2A
 (000.190181)  can0  245   [8]  80 06 81 7E 7F 83 00 85
 (000.192046)  can0  073   [8]  05 20 92 66 00 40 10 9F
 (000.192805)  can0  75E   [8]  00 81 00 2D 18 18 18 18
 (000.193076)  can0  776   [8]  00 00 00 00 00 00 00 00
 (000.193603)  can0  2EF   [8]  F7 00 FF 0F FF FF FF 00
 (000.194991)  can0  001   [8]  CC 83 1F 9E 55 03 91 00
 (000.195539)  can0  003   [8]  0F F7 10 00 04 FF 80 DA
 (000.198294)  can0  005   [8]  11 00 03 3F 0D 00 18 F7
 (000.200009)  can0  12D   [8]  01 0F 00 00 50 53 56 79
 (000.202199)  can0  073   [8]  05 20 92 66 00 40 20 D5
 (000.202848)  can0  75E   [8]  00 81 00 2D 18 18 18 18
 (000.205578)  can0  003   [8]  0F F7 10 00 04 FF 90 17
 (000.207828)  can0  766   [8]  00 00 00 00 00 00 0F 08
 (000.208267)  can0  201   [8]  27 2C B5 B7 FF FF 10 33
 (000.208726)  can0  203   [8]  00 00 00 00 C0 00 C0 00
 (000.208973)  can0  245   [8]  80 01 81 7E 7F 83 10 85
 (000.209274)  can0  105   [8]  02 5C 7F 00 00 9A 43 BC
 (000.209473)  can0  002   [5]  01 00 C0 00 07
 (000.212033)  can0  073   [8]  05 20 92 66 00 40 30 18
 (000.213756)  can0  75E   [8]  00 81 00 2D 18 18 18 18
 (000.215505)  can0  003   [8]  0F F7 10 00 04 FF A0 5D
 (000.216056)  can0  045   [8]  00 FF 00 00 00 00 70 5A
 (000.218360)  can0  005   [8]  11 00 03 3F 0D 00 28 BD
 (000.220058)  can0  30D   [8]  88 51 7E FF FF 02 79 81
 (000.222277)  can0  073   [8]  05 20 92 66 00 40 40 41
 (000.222964)  can0  10E   [4]  00 80 3A 00
 (000.223750)  can0  75E   [8]  00 81 00 2D 18 18 18 18
 (000.225544)  can0  003   [8]  0F F7 10 00 04 FF B0 90
 (000.228433)  can0  10D   [4]  00 C0 00 02
 (000.228773)  can0  201   [8]  27 2C B5 B7 FF FF 20 79
 (000.229048)  can0  105   [8]  02 5C 7F 00 00 9A 53 71
 (000.229342)  can0  766   [8]  00 00 00 00 00 00 0F 08
 (000.230000)  can0  203   [8]  00 00 00 00 C0 00 C0 00
 (000.230448)  can0  245   [8]  80 02 81 7E 7F 83 20 85
 (000.232199)  can0  073   [8]  05 20 92 66 00 40 50 8C
 (000.233755)  can0  75E   [8]  00 81 00 2D 18 18 18 18
 (000.235629)  can0  003   [8]  0F F7 10 00 04 FF C0 C9
 (000.238344)  can0  005   [8]  11 00 03 3F 0D 00 38 70
 (000.239954)  can0  33D   [8]  00 42 00 00 64 00 00 00
 (000.240528)  can0  39D   [8]  1E 02 00 C1 FF 0E 00 27
 (000.240873)  can0  3F6   [5]  02 00 00 00 00
 (000.242127)  can0  073   [8]  05 20 92 66 00 40 60 C6
 (000.243578)  can0  375   [8]  13 10 34 3F 3F 07 00 00
 (000.243903)  can0  75E   [8]  00 81 00 2D 18 18 18 18
 (000.245503)  can0  003   [8]  0F F7 10 00 04 FF D0 04
 (000.245797)  can0  34E   [8]  00 00 B3 00 00 B3 11 2C
 (000.248354)  can0  201   [8]  27 2C B5 B7 FF FF 30 B4
 (000.248774)  can0  766   [8]  00 00 00 00 00 00 0F 08
 (000.249046)  can0  203   [8]  00 00 00 00 C0 00 C0 00
 (000.249322)  can0  105   [8]  02 5E 7F 00 00 9A 63 B7
 (000.250028)  can0  245   [8]  80 03 81 7E 7F 83 30 85
 (000.250350)  can0  34F   [8]  10 9E 00 9E 03 E7 07 FF
 (000.250625)  can0  400   [8]  FD 13 04 0F E0 81 00 05
 (000.252283)  can0  073   [8]  05 20 92 66 00 40 70 0B
 (000.253756)  can0  75E   [8]  00 81 00 2D 18 18 18 18
 (000.254021)  can0  76E   [8]  00 00 00 00 00 00 00 00
 (000.255544)  can0  003   [8]  0F F7 10 00 04 FF E0 4E
 (000.258276)  can0  005   [8]  11 00 03 3F 0D 00 48 29
 (000.258947)  can0  388   [8]  35 FF 1F CF FF 0F 07 FF
 (000.260472)  can0  249   [8]  27 E8 00 2B E8 00 FF FF
 (000.260754)  can0  336   [8]  71 42 00 00 00 00 00 00
 (000.262128)  can0  073   [8]  05 20 92 66 00 40 80 74
 (000.263754)  can0  04B   [6]  01 00 0C 06 FF 04
 (000.264020)  can0  75E   [8]  00 81 00 2D 18 18 18 18
 (000.265427)  can0  007   [8]  F0 05 3A 00 3F FC AF 79
 (000.265695)  can0  003   [8]  0F F7 10 00 04 FF F0 83
 (000.268734)  can0  283   [8]  F5 0D 08 03 C0 6E 3F FF
 (000.268995)  can0  201   [8]  27 2C B5 B7 FF FF 40 ED
 (000.269271)  can0  105   [8]  02 5E 7F 00 00 9A 73 7A
 (000.269469)  can0  3D1   [4]  C9 08 00 00
 (000.269770)  can0  766   [8]  00 00 00 00 00 00 0F 08
 (000.270119)  can0  203   [8]  00 00 00 00 C0 00 C0 00
 (000.270395)  can0  247   [8]  00 00 00 06 00 18 00 00
 (000.270670)  can0  245   [8]  80 03 81 7E 7F 83 40 85
 (000.272051)  can0  073   [8]  05 20 92 66 00 40 90 B9
 (000.274759)  can0  75E   [8]  00 81 00 2D 18 18 18 18
 (000.275449)  can0  205   [8]  06 93 0C 00 00 00 00 00
 (000.275719)  can0  003   [8]  0F F7 10 00 04 FF 00 FC
 (000.278303)  can0  005   [8]  11 00 03 3E 0D 00 58 79
 (000.282296)  can0  073   [8]  05 20 92 66 00 40 A0 F3
 (000.284759)  can0  75E   [8]  00 81 00 2D 18 18 18 18
 (000.285575)  can0  003   [8]  0F F7 10 00 04 FF 10 31
 (000.288329)  can0  201   [8]  27 2C B5 B7 FF FF 50 20
 (000.288691)  can0  203   [8]  00 00 00 00 C0 00 C0 00
 (000.288920)  can0  245   [8]  80 06 81 7E 7F 83 50 85
 (000.289197)  can0  105   [8]  02 60 7F 00 00 9A 83 BA
 (000.290123)  can0  766   [8]  00 00 00 00 00 00 0F 08
 (000.292057)  can0  073   [8]  05 20 92 66 00 40 B0 3E
 (000.294759)  can0  75E   [8]  00 81 00 2D 18 18 18 18
 (000.294996)  can0  001   [8]  CC 83 1F 9E 55 03 A1 4A
 (000.295525)  can0  003   [8]  0F F7 10 00 04 FF 20 7B
 (000.298275)  can0  005   [8]  11 00 03 3C 0D 00 68 14
 (000.299955)  can0  12D   [8]  01 0F 00 00 50 53 56 79
 (000.302127)  can0  073   [8]  05 20 92 66 00 40 C0 67
 (000.304758)  can0  75E   [8]  00 81 00 2D 18 18 18 18
 (000.305636)  can0  003   [8]  0F F7 10 00 04 FF 30 B6
 (000.308650)  can0  201   [8]  27 2C B5 B7 FF FF 60 6A
 (000.309019)  can0  203   [8]  00 00 00 00 C0 00 C0 00
 (000.309293)  can0  105   [8]  02 5F 7F 00 00 9A 93 8E
 (000.310020)  can0  766   [8]  00 00 00 00 00 00 0F 08
 (000.310293)  can0  245   [8]  80 06 81 7E 7F 83 60 85
 (000.312023)  can0  073   [8]  05 20 92 66 00 40 D0 AA
 (000.312797)  can0  328   [2]  07 60
 (000.314761)  can0  75E   [8]  00 81 00 2D 18 18 18 18
 (000.315576)  can0  003   [8]  0F F7 10 00 04 FF 40 EF
 (000.316324)  can0  045   [8]  00 FF 00 00 00 00 80 25
 (000.318353)  can0  005   [8]  11 00 03 35 0D 00 78 D8
 (000.319624)  can0  35C   [8]  02 10 E0 00 00 FF FF 01
 (000.320017)  can0  30D   [8]  88 51 7E FF FF 02 79 81
 (000.322361)  can0  073   [8]  05 20 92 66 00 40 E0 E0
 (000.324748)  can0  75E   [8]  00 81 00 2D 18 18 18 18
 (000.325568)  can0  003   [8]  0F F7 10 00 04 FF 50 22
 (000.328331)  can0  201   [8]  27 2C B5 B7 FF FF 70 A7
 (000.328683)  can0  203   [8]  00 00 00 00 C0 00 C0 00
 (000.328939)  can0  245   [8]  80 05 81 7E 7F 83 70 85
 (000.329346)  can0  105   [8]  02 5F 7F 00 00 9A A3 C4
 (000.330100)  can0  766   [8]  00 00 00 00 00 00 0F 08
 (000.332176)  can0  073   [8]  05 20 92 66 00 40 F0 2D
 (000.334756)  can0  75E   [8]  00 81 00 2D 18 18 18 18
 (000.335611)  can0  003   [8]  0F F7 10 00 04 FF 60 68
 (000.336107)  can0  37D   [8]  02 00 04 BE 12 00 FF FF
 (000.338280)  can0  005   [8]  11 00 03 21 0D 00 88 CC
 (000.339496)  can0  33D   [8]  00 42 00 00 64 00 00 00
 (000.340698)  can0  39D   [8]  1E 02 00 C1 FF 0E 00 2F
 (000.341650)  can0  413   [8]  FD 00 04 0F 10 00 00 05
 (000.342098)  can0  073   [8]  05 20 92 66 00 40 00 52
 (000.344034)  can0  375   [8]  13 10 34 3F 3F 07 00 00
 (000.344762)  can0  75E   [8]  00 81 00 2D 18 18 18 18
 (000.345469)  can0  34E   [8]  00 00 B3 00 00 B3 11 2C
 (000.345790)  can0  003   [8]  0F F7 10 00 04 FF 70 A5
 (000.348748)  can0  201   [8]  27 2C B5 B7 FF FF 80 D8
 (000.349246)  can0  203   [8]  00 00 00 00 C0 00 C0 00
 (000.349523)  can0  105   [8]  02 5D 7F 00 00 9A B3 85
 (000.350246)  can0  766   [8]  00 00 00 00 00 00 0F 08
 (000.350500)  can0  245   [8]  80 05 81 7E 7F 84 80 85
 (000.350691)  can0  3D3   [4]  C0 02 00 00
 (000.350973)  can0  34F   [8]  10 9E 00 9E 03 E7 07 FF
 (000.352075)  can0  073   [8]  05 20 92 66 00 40 10 9F
 (000.355496)  can0  003   [8]  0F F7 10 00 04 FF 80 DA
 (000.355865)  can0  75E   [8]  00 81 00 2D 18 18 18 18
 (000.356167)  can0  76E   [8]  00 00 00 00 00 00 00 00
 (000.358307)  can0  005   [8]  11 00 02 F4 0D 00 98 3C
 (000.360198)  can0  249   [8]  2F E8 00 33 E8 00 FF FF
 (000.360843)  can0  388   [8]  35 FF 1F CF FF 0F 07 FF
 (000.362120)  can0  073   [8]  05 20 92 66 00 40 20 D5
 (000.365375)  can0  007   [8]  F0 05 3A 00 3F FC AF 79
 (000.365639)  can0  003   [8]  0F F7 10 00 04 FF 90 17
 (000.366256)  can0  04B   [6]  01 00 0C 06 FF 04
 (000.366514)  can0  75E   [8]  00 81 00 2D 18 18 18 18
 (000.368374)  can0  201   [8]  27 2C B5 B7 FF FF 90 15
 (000.368738)  can0  247   [8]  00 00 00 06 00 18 00 00
 (000.369011)  can0  203   [8]  00 00 00 00 C0 00 C0 00
 (000.369290)  can0  105   [8]  02 5D 7F 00 00 9A C3 DC
 (000.370064)  can0  245   [8]  80 09 81 7E 7F 83 90 85
 (000.372249)  can0  073   [8]  05 20 92 66 00 40 30 18
 (000.372792)  can0  283   [8]  F5 0D 08 03 C0 6E 3F FF
 (000.373064)  can0  766   [8]  00 00 00 00 00 00 0F 08
 (000.375388)  can0  1C1   [4]  00 00 00 00
 (000.375652)  can0  003   [8]  0F F7 10 00 04 FF A0 5D
 (000.375925)  can0  205   [8]  06 93 0C 00 00 00 00 00
 (000.377604)  can0  068   [1]  01
 (000.377879)  can0  75E   [8]  00 81 00 2D 18 18 18 18
 (000.378339)  can0  005   [8]  11 00 02 B7 0D 00 A8 58
 (000.382272)  can0  073   [8]  05 20 92 66 00 40 40 41
 (000.382870)  can0  10C   [8]  3B 7F FF 07 03 FF C3 67
 (000.385544)  can0  003   [8]  0F F7 10 00 04 FF B0 90
 (000.387746)  can0  20E   [8]  3F 00 01 F0 FF FF 3F 68
 (000.388015)  can0  75E   [8]  00 81 00 2D 18 18 18 18
 (000.388769)  can0  201   [8]  27 2C B5 B7 FF FF A0 5F
 (000.389040)  can0  105   [8]  02 5C 7F 00 00 9B D3 1B
 (000.389971)  can0  203   [8]  00 00 00 00 C0 00 C0 00
 (000.390266)  can0  245   [8]  80 0A 81 7E 80 83 A0 85
 (000.392031)  can0  073   [8]  05 20 92 66 00 40 50 8C
 (000.392790)  can0  351   [8]  00 00 00 00 00 00 00 00
 (000.393101)  can0  766   [8]  00 00 00 00 00 00 0F 08
 (000.393592)  can0  2EF   [8]  F7 00 FF 0F FF FF FF 00
 (000.394945)  can0  001   [8]  CC 83 1F 9E 55 03 B1 87
 (000.395517)  can0  003   [8]  0F F7 10 00 04 FF C0 C9
 (000.397822)  can0  75E   [8]  00 81 00 2D 18 18 18 18
 (000.398095)  can0  776   [8]  00 00 00 00 00 00 00 00
 (000.398340)  can0  005   [8]  11 00 02 74 0D 00 B8 8E
 (000.400001)  can0  12D   [8]  01 0F 00 00 50 53 56 79
 (000.402273)  can0  073   [8]  05 20 92 66 00 40 60 C6
 (000.405494)  can0  003   [8]  0F F7 10 00 04 FF D0 04
 (000.407792)  can0  75E   [8]  00 81 00 2D 18 18 18 18
 (000.408319)  can0  201   [8]  27 2C B5 B7 FF FF B0 92
 (000.408765)  can0  203   [8]  00 00 00 00 C0 00 C0 00
 (000.409085)  can0  105   [8]  02 5D 7F 00 00 9B E3 17
 (000.409361)  can0  245   [8]  7F FF 81 7E 80 83 B0 85
 (000.412018)  can0  073   [8]  05 20 92 66 00 40 70 0B
 (000.413769)  can0  766   [8]  00 00 00 00 00 00 0F 08
 (000.415520)  can0  003   [8]  0F F7 10 00 04 FF E0 4E
 (000.416105)  can0  045   [8]  00 FF 00 00 00 00 90 E8
 (000.418449)  can0  005   [8]  11 00 02 2E 0D 00 C8 DD
 (000.419015)  can0  75E   [8]  00 81 00 2D 18 18 18 18
 (000.420113)  can0  30D   [8]  88 51 7E FF FF 02 79 81
 (000.422097)  can0  073   [8]  05 20 92 66 00 40 80 74
 (000.425584)  can0  003   [8]  0F F7 10 00 04 FF F0 83
 (000.428740)  can0  75E   [8]  00 81 00 2D 18 18 18 18
 (000.429008)  can0  201   [8]  27 2C B5 B7 FF FF C0 CB
 (000.429283)  can0  203   [8]  00 00 00 00 C0 00 C0 00
 (000.429583)  can0  105   [8]  02 5D 7F 00 00 9B F3 DA
 (000.429858)  can0  245   [8]  7F F9 81 7E 7F 83 C0 85
 (000.432165)  can0  073   [8]  05 20 92 66 00 40 90 B9
 (000.433795)  can0  766   [8]  00 00 00 00 00 00 0F 08
 (000.434805)  can0  400   [8]  FD 13 04 0F E0 81 00 05
 (000.435570)  can0  003   [8]  0F F7 10 00 04 FF 00 FC
 (000.438288)  can0  005   [8]  11 00 01 E2 0D 00 D8 DD
 (000.438933)  can0  75E   [8]  00 81 00 2D 18 18 18 18
 (000.439509)  can0  33D   [8]  00 42 00 00 64 00 00 00
 (000.440743)  can0  39D   [8]  1E 02 00 C1 FF 0E 00 37
 (000.441162)  can0  3F6   [5]  02 00 00 00 00
 (000.442096)  can0  073   [8]  05 20 92 66 00 40 A0 F3
 (000.443519)  can0  375   [8]  13 10 34 3F 3F 07 00 00
 (000.445442)  can0  34E   [8]  00 00 B3 00 00 B3 11 2C
 (000.445706)  can0  003   [8]  0F F7 10 00 04 FF 10 31
 (000.448372)  can0  201   [8]  27 2C B5 B7 FF FF D0 06
 (000.448792)  can0  75E   [8]  00 81 00 2D 18 18 18 18
 (000.449066)  can0  203   [8]  00 00 00 00 C0 00 C0 00
 (000.449336)  can0  245   [8]  7F FE 81 7E 80 83 D0 85
 (000.449607)  can0  105   [8]  02 5E 7F 00 00 9B 03 6F
 (000.450415)  can0  34F   [8]  10 9E 00 9E 03 E7 07 FF
 (000.452267)  can0  073   [8]  05 20 92 66 00 40 B0 3E
 (000.453792)  can0  766   [8]  00 00 00 00 00 00 0F 08
 (000.455566)  can0  003   [8]  0F F7 10 00 04 FF 20 7B
 (000.458293)  can0  005   [8]  11 00 01 90 0D 00 E8 4B
 (000.458934)  can0  75E   [8]  00 81 00 2D 18 18 18 18
 (000.459233)  can0  76E   [8]  00 00 00 00 00 00 00 00
 (000.460367)  can0  336   [8]  71 42 00 00 00 00 00 00
 (000.460631)  can0  249   [8]  37 E8 00 3B E8 00 FF FF
 (000.462249)  can0  073   [8]  05 20 92 66 00 40 C0 67
 (000.463758)  can0  388   [8]  35 FF 1F CF FF 0F 07 FF
 (000.465340)  can0  007   [8]  F0 05 3A 00 3F FC AF 79
 (000.465605)  can0  003   [8]  0F F7 10 00 04 FF 30 B6
 (000.468678)  can0  201   [8]  27 2C B5 B7 FF FF E0 4C
 (000.468982)  can0  04B   [6]  01 00 0C 06 FF 04
 (000.469282)  can0  105   [8]  02 5E 7F 00 00 9B 13 A2
 (000.469557)  can0  247   [8]  00 00 00 06 00 18 00 00
 (000.469856)  can0  3D1   [4]  C9 08 00 00
 (000.470158)  can0  203   [8]  00 00 00 00 C0 00 C0 00
 (000.470404)  can0  75E   [8]  00 81 00 2D 18 18 18 18
 (000.470764)  can0  245   [8]  80 00 81 7E 7F 83 E0 85
 (000.472152)  can0  073   [8]  05 20 92 66 00 40 D0 AA
 (000.474763)  can0  283   [8]  F5 0D 08 03 C0 6E 3F FF
 (000.475004)  can0  766   [8]  00 00 00 00 00 00 0F 08
 (000.475520)  can0  003   [8]  0F F7 10 00 04 FF 40 EF
 (000.476463)  can0  205   [8]  06 93 0C 00 00 00 00 00
 (000.478341)  can0  005   [8]  11 00 01 3E 0D 00 F8 0C
 (000.479739)  can0  75E   [8]  00 81 00 2D 18 18 18 18
 (000.482194)  can0  073   [8]  05 20 92 66 00 40 E0 E0
 (000.485541)  can0  003   [8]  0F F7 10 00 04 FF 50 22
 (000.488286)  can0  201   [8]  27 2C B5 B7 FF FF F0 81
 (000.488580)  can0  203   [8]  00 00 00 00 C0 00 C0 00
 (000.488878)  can0  245   [8]  80 07 81 7E 7F 83 F0 85
 (000.489156)  can0  105   [8]  02 62 7F 00 00 9B 23 DB
 (000.490088)  can0  75E   [8]  00 81 00 2D 18 18 18 18
 (000.492022)  can0  073   [8]  05 20 92 66 00 80 F0 0E
 (000.494797)  can0  766   [8]  00 00 00 00 00 00 0F 08
 (000.495491)  can0  003   [8]  0F F7 10 00 04 FF 60 68
 (000.495834)  can0  001   [8]  CC 83 1F 9E 55 03 C1 DE
 (000.498265)  can0  005   [8]  11 00 00 F6 0D 00 08 24
 (000.499867)  can0  75E   [8]  00 81 00 2D 18 18 18 18
 (000.500102)  can0  12D   [8]  01 0F 00 00 50 53 56 79
 (000.502086)  can0  073   [8]  05 20 92 66 00 80 00 71
 (000.505636)  can0  003   [8]  0F F7 10 00 04 FF 70 A5
 (000.508566)  can0  201   [8]  27 2C B5 B7 FF FF 00 FE
 (000.508907)  can0  203   [8]  00 00 00 00 C0 00 C0 00
 (000.509156)  can0  105   [8]  02 63 7F 00 00 9B 33 50
 (000.510008)  can0  245   [8]  80 06 81 7E 81 83 00 85
 (000.510278)  can0  75E   [8]  00 81 00 2D 18 18 18 18
 (000.512085)  can0  073   [8]  05 20 92 66 00 80 10 BC
 (000.512758)  can0  328   [2]  07 60
 (000.514768)  can0  766   [8]  00 00 00 00 00 00 0F 08
 (000.515481)  can0  003   [8]  0F F7 10 00 04 FF 80 DA
 (000.516258)  can0  045   [8]  00 FF 00 00 00 00 A0 A2
 (000.518389)  can0  005   [8]  11 00 00 B9 0D 00 18 15
 (000.519586)  can0  35C   [8]  02 10 E0 00 00 FF FF 01
 (000.519927)  can0  75E   [8]  00 81 00 2D 18 18 18 18
 (000.520203)  can0  30D   [8]  88 51 7E FF FF 02 75 81
 (000.522284)  can0  073   [8]  05 20 92 66 00 80 20 F6
 (000.525540)  can0  003   [8]  0F F7 10 00 04 FF 90 17
 (000.528287)  can0  201   [8]  27 2C B6 B7 FF FF 10 8D
 (000.528627)  can0  203   [8]  00 00 00 00 C0 00 C0 00
 (000.528901)  can0  245   [8]  7F FF 81 7E 85 83 10 85
 (000.529152)  can0  105   [8]  02 63 7F 00 00 9B 43 09
 (000.530157)  can0  75E   [8]  00 81 00 2D 18 18 18 18
 (000.531658)  can0  413   [8]  FD 00 04 0F 10 00 00 05
 (000.531977)  can0  073   [8]  05 20 92 66 00 80 30 3B
 (000.534788)  can0  766   [8]  00 00 00 00 00 00 0F 08
 (000.535557)  can0  003   [8]  0F F7 10 00 04 FF A0 5D
 (000.535926)  can0  37D   [8]  02 00 04 B8 12 00 FF FF
 (000.538294)  can0  005   [8]  11 00 00 8B 0D 00 28 17
 (000.539963)  can0  33D   [8]  00 42 00 00 64 00 00 00
 (000.540204)  can0  75E   [8]  00 81 00 2D 18 18 18 18
 (000.540552)  can0  39D   [8]  1E 02 00 C1 FF 0E 00 3F
 (000.542066)  can0  073   [8]  05 20 92 66 00 80 40 62
 (000.544004)  can0  375   [8]  13 10 34 3F 3F 07 00 00
 (000.545482)  can0  003   [8]  0F F7 10 00 04 FF B0 90
 (000.545825)  can0  34E   [8]  00 00 B3 00 00 B3 11 2C
 (000.548682)  can0  201   [8]  27 2C B6 B7 FF FF 20 C7
 (000.548949)  can0  105   [8]  02 63 7F 00 00 9B 53 C4
 (000.549629)  can0  3D3   [4]  C0 02 00 00
 (000.549948)  can0  203   [8]  00 00 00 00 C0 00 C0 00
 (000.550301)  can0  245   [8]  80 02 81 7E 8A 84 20 85
 (000.550599)  can0  75E   [8]  00 81 00 2D 18 18 18 18
 (000.550898)  can0  34F   [8]  10 9E 00 9E 03 E7 07 FF
 (000.552006)  can0  073   [8]  05 20 92 66 00 80 50 AF
 (000.555507)  can0  003   [8]  0F F7 10 00 04 FF C0 C9
 (000.555875)  can0  766   [8]  00 00 00 00 00 00 0F 08
 (000.558307)  can0  005   [8]  11 00 00 6B 0D 00 38 31
 (000.560205)  can0  249   [8]  3D FC 00 FF FF 00 03 FF
 (000.560802)  can0  75E   [8]  00 81 00 2D 18 18 18 18
 (000.561098)  can0  76E   [8]  00 00 00 00 00 00 00 00
 (000.562052)  can0  073   [8]  05 20 92 66 00 80 60 E5
 (000.565515)  can0  003   [8]  0F F7 10 00 04 FF D0 04
 (000.565877)  can0  388   [8]  35 FF 1F CF FF 0F 07 FF
 (000.566154)  can0  007   [8]  F0 05 3A 00 3F FC AF 79
 (000.568272)  can0  201   [8]  28 2C B6 B7 FF FF 30 56
 (000.568575)  can0  247   [8]  00 00 00 06 00 18 00 00
 (000.568851)  can0  203   [8]  00 00 00 00 C0 00 C0 00
 (000.569159)  can0  105   [8]  02 63 7F 00 00 9B 63 8E
 (000.569939)  can0  245   [8]  80 09 81 7E 88 83 30 85
 (000.570681)  can0  04B   [6]  01 00 0C 06 FF 04
 (000.570948)  can0  75E   [8]  00 81 00 2D 18 18 18 18
 (000.572079)  can0  073   [8]  05 20 92 66 00 80 70 28
 (000.575531)  can0  003   [8]  0F F7 10 00 04 FF E0 4E
 (000.575925)  can0  205   [8]  06 93 0C 00 00 00 00 00
 (000.576173)  can0  283   [8]  F5 0D 08 03 C0 6E 3F FF
 (000.576472)  can0  766   [8]  00 00 00 00 00 00 0F 08
 (000.578356)  can0  005   [8]  11 00 00 52 0D 00 48 06
 (000.580584)  can0  068   [1]  01
 (000.580872)  can0  75E   [8]  00 81 00 2D 18 18 18 18
 (000.582183)  can0  073   [8]  05 20 92 66 00 80 80 57
 (000.585504)  can0  003   [8]  0F F7 10 00 04 FF F0 83
 (000.585848)  can0  10C   [8]  3B 7F FF 07 03 FF C3 67
 (000.588780)  can0  201   [8]  28 2C B6 B7 FF FF 40 0F
 (000.589047)  can0  105   [8]  02 63 7F 0C 08 99 74 56
 (000.589674)  can0  004   [5]  01 00 00 37 07
 (000.590022)  can0  203   [8]  00 00 00 00 C0 00 C0 00
 (000.590272)  can0  245   [8]  80 0D 81 7E 86 83 40 85
 (000.591778)  can0  20E   [8]  3F 00 01 F0 FF FF 3F 68
 (000.592048)  can0  75E   [8]  00 81 00 2D 18 18 18 18
 (000.592323)  can0  073   [8]  05 20 92 66 00 80 90 9A
 (000.593603)  can0  2EF   [8]  F7 00 FF 0F FF FF FF 00
 (000.594930)  can0  001   [8]  CC 83 1F 9E 55 03 D1 13
 (000.595525)  can0  003   [8]  0F F7 10 00 04 FF 00 FC
 (000.596778)  can0  351   [8]  00 00 00 00 00 00 00 00
 (000.597045)  can0  766   [8]  00 00 00 00 00 00 0F 08
 (000.598279)  can0  005   [8]  00 00 00 3E 0D 00 58 23
 (000.600729)  can0  12D   [8]  01 0F 00 00 50 53 56 79
 (000.601779)  can0  75E   [8]  00 81 00 2D 18 18 18 18
 (000.602045)  can0  776   [8]  00 00 00 00 00 00 00 00
 (000.602322)  can0  073   [8]  05 20 92 66 00 80 A0 D0
 (000.605554)  can0  003   [8]  0F F7 10 00 04 FF 10 31
 (000.606754)  can0  208   [8]  1F 40 11 80 00 06 40 A8
 (000.608280)  can0  201   [8]  28 2C B6 B7 FF FF 50 C2
 (000.608724)  can0  203   [8]  00 00 00 00 C0 00 C0 00
 (000.609050)  can0  105   [8]  02 64 7F 1F 15 99 84 E4
 (000.609297)  can0  245   [8]  80 07 81 7E 87 83 50 85
 (000.611762)  can0  207   [8]  10 09 3D 22 0F CB 4D AC
 (000.612053)  can0  75E   [8]  00 81 00 2D 18 18 18 18
 (000.612301)  can0  073   [8]  05 20 92 66 00 80 B0 1D
 (000.614258)  can0  34D   [2]  10 00
 (000.615300)  can0  001   [8]  CC 81 1F 9E 55 03 E1 D5
 (000.615571)  can0  003   [8]  0F F7 10 00 04 FF 20 7B
 (000.616046)  can0  045   [8]  00 FF 00 00 00 00 B0 6F
 (000.616826)  can0  206   [8]  00 00 0D 20 C1 80 D2 CC
 (000.617094)  can0  766   [8]  00 00 00 00 00 00 0F 08
 (000.617825)  can0  400   [8]  FD 13 04 0F E0 81 00 05
 (000.618272)  can0  005   [8]  00 00 00 30 0D 00 68 9C
 (000.619980)  can0  30D   [8]  88 51 7E FF FF 02 79 81
 (000.621730)  can0  20A   [8]  FA FF 00 FC FF FF FF 7F
 (000.621995)  can0  75E   [8]  00 81 00 2D 18 18 18 18
 (000.622270)  can0  073   [8]  05 20 92 66 00 80 C0 44
 (000.625506)  can0  003   [8]  0F F7 10 00 04 FF 30 B6
 (000.628726)  can0  201   [8]  28 2D B6 B8 FF FF 60 A6
 (000.628968)  can0  105   [8]  02 64 7F 2F 22 99 94 E4
 (000.629899)  can0  203   [8]  00 00 00 00 C0 00 C0 00
 (000.630370)  can0  245   [8]  80 08 81 7E 86 83 60 85
 (000.632175)  can0  073   [8]  05 20 92 66 00 80 D0 89
 (000.632795)  can0  75E   [8]  00 81 00 2D 18 18 18 18
 (000.635530)  can0  003   [8]  0F F7 10 00 04 FF 40 EF
 (000.637863)  can0  766   [8]  00 00 00 00 00 00 0F 08
 (000.638272)  can0  005   [8]  00 00 00 25 0D 00 78 A7
 (000.639503)  can0  33D   [8]  00 42 00 00 64 00 00 00
 (000.640354)  can0  39D   [8]  1E 02 00 C1 FF 0E 00 47
 (000.640621)  can0  3F6   [5]  02 00 00 00 00
 (000.642150)  can0  073   [8]  05 20 92 66 00 80 E0 C3
 (000.642870)  can0  75E   [8]  00 81 00 2D 18 18 18 18
 (000.643571)  can0  375   [8]  13 10 34 3F 3F 07 00 00
 (000.645424)  can0  34E   [8]  00 00 B3 00 00 B3 11 2C
 (000.645668)  can0  003   [8]  0F F7 10 00 04 FF 50 22
 (000.648351)  can0  201   [8]  28 2D B6 B8 FF FF 70 6B
 (000.648844)  can0  203   [8]  00 00 00 00 C0 00 C0 00
 (000.649091)  can0  105   [8]  02 6D 7F 3C 2F 99 A4 F8
 (000.649972)  can0  245   [8]  80 07 81 7E 84 83 70 85
 (000.650270)  can0  34F   [8]  10 9E 00 9E 03 E7 07 FF
 (000.651975)  can0  073   [8]  05 20 92 66 00 80 F0 0E
 (000.652796)  can0  75E   [8]  00 81 00 2D 18 18 18 18
 (000.655298)  can0  007   [8]  F0 05 38 00 3F FC AF 79
 (000.655568)  can0  003   [8]  0F F7 10 00 04 FF 60 68
 (000.658273)  can0  005   [8]  00 00 00 1C 0D 00 88 B6
 (000.658968)  can0  766   [8]  00 00 00 00 00 00 0F 08
 (000.660346)  can0  336   [8]  71 42 00 00 00 00 00 00
 (000.660675)  can0  249   [8]  05 58 00 0A 1D 00 FF FF
 (000.662097)  can0  073   [8]  05 20 92 66 00 80 00 71
 (000.663896)  can0  75E   [8]  00 81 00 2D 18 18 18 18
 (000.664193)  can0  76E   [8]  00 00 00 00 00 00 00 00
 (000.665519)  can0  003   [8]  0F F7 10 00 04 FF 70 A5
 (000.668499)  can0  3D1   [4]  C9 08 00 00
 (000.668767)  can0  201   [8]  28 2D B6 B8 FF FF 80 14
 (000.669015)  can0  105   [8]  02 76 7F 46 37 99 B4 B5
 (000.669292)  can0  388   [8]  35 FF 1F CF FF 0F 07 FF
 (000.669867)  can0  203   [8]  00 00 00 00 C0 00 C0 00
 (000.670217)  can0  247   [8]  00 00 00 06 00 18 00 00
 (000.670518)  can0  245   [8]  80 02 81 7E 85 83 80 85
 (000.672177)  can0  073   [8]  05 20 92 66 00 80 10 BC
 (000.672419)  can0  204   [8]  00 57 44 44 4B 4A 36 46
 (000.674676)  can0  04B   [6]  01 00 0C 06 FF 04
 (000.674940)  can0  75E   [8]  00 81 00 2D 18 18 18 18
 (000.675293)  can0  007   [8]  F0 05 38 00 3F FC AF 79
 (000.675565)  can0  003   [8]  0F F7 10 00 04 FF 80 DA
 (000.676268)  can0  205   [8]  06 93 0C 00 00 00 00 00
 (000.678322)  can0  005   [8]  00 00 00 15 0D 00 98 7A
 (000.681723)  can0  283   [8]  F5 0D 08 03 C0 6E 3F FF
 (000.682016)  can0  766   [8]  00 00 00 00 00 00 0F 08
 (000.682267)  can0  073   [8]  05 20 92 66 00 80 20 F6
 (000.685502)  can0  003   [8]  0F F7 10 00 04 FF 90 17
 (000.686785)  can0  75E   [8]  00 81 00 2D 18 18 18 18
 (000.688227)  can0  201   [8]  28 2D B6 B8 FF FF 90 D9
 (000.688515)  can0  203   [8]  00 00 00 00 C0 00 C0 00
 (000.688789)  can0  245   [8]  80 03 81 7E 86 83 90 85
 (000.689040)  can0  105   [8]  02 76 7F 4F 3F 98 C4 AD
 (000.692174)  can0  073   [8]  05 20 92 66 00 80 30 3B
 (000.692439)  can0  204   [8]  01 42 31 47 46 33 31 34
 (000.694902)  can0  001   [8]  CC 81 1F 9E 55 03 F1 18
 (000.695492)  can0  003   [8]  0F F7 10 00 04 FF A0 5D
 (000.695864)  can0  1C0   [2]  00 00
 (000.696796)  can0  75E   [8]  00 81 00 2D 18 18 18 18
 (000.698270)  can0  005   [8]  00 00 00 10 0D 00 A8 E3
 (000.699898)  can0  12D   [8]  01 0F 00 00 50 53 56 79
 (000.701773)  can0  766   [8]  00 00 00 00 00 00 0F 08
 (000.702140)  can0  073   [8]  05 20 92 66 00 80 40 62
 (000.705475)  can0  003   [8]  0F F7 10 00 04 FF B0 90
 (000.706795)  can0  75E   [8]  00 81 00 2D 18 18 18 18
 (000.708396)  can0  002   [5]  01 00 C0 00 07
 (000.708671)  can0  201   [8]  28 2D B6 B8 FF FF A0 93
 (000.708936)  can0  203   [8]  00 00 00 00 C0 00 C0 00
 (000.709189)  can0  105   [8]  02 7F 7F 50 40 98 D4 AF
 (000.710017)  can0  245   [8]  80 07 81 7E 86 83 A0 85
 (000.711646)  can0  413   [8]  FD 00 04 0F 10 00 00 05
 (000.711988)  can0  073   [8]  05 20 92 66 00 80 50 AF
 (000.712391)  can0  204   [8]  02 33 33 35 FF FF FF FF
 (000.712816)  can0  328   [2]  07 60
 (000.715500)  can0  003   [8]  0F F7 10 00 04 FF C0 C9
 (000.716294)  can0  045   [8]  00 FF 00 00 00 00 C0 36
 (000.717822)  can0  75E   [8]  00 81 00 2D 18 18 18 18
 (000.718443)  can0  005   [8]  00 00 00 0D 0D 00 B8 44
 (000.719567)  can0  35C   [8]  02 10 E0 00 00 FF FF 01
 (000.720149)  can0  30D   [8]  88 51 7E FF FF 02 79 81
 (000.722000)  can0  073   [8]  05 20 92 66 00 80 60 E5
 (000.722869)  can0  766   [8]  00 00 00 00 00 00 0F 08
 (000.723189)  can0  10E   [4]  00 80 3A 00
 (000.725496)  can0  003   [8]  0F F7 10 00 04 FF D0 04
 (000.727774)  can0  75E   [8]  00 81 00 2D 18 18 18 18
 (000.727968)  can0  10D   [4]  00 C0 00 02
 (000.728389)  can0  201   [8]  28 2D B6 B8 FF FF B0 5E
 (000.728762)  can0  203   [8]  00 00 00 00 C0 00 C0 00
 (000.729036)  can0  245   [8]  80 09 81 7E 88 84 B0 85
 (000.729287)  can0  105   [8]  02 89 7F 51 41 98 E4 B2
 (000.731972)  can0  073   [8]  05 20 92 66 00 80 70 28
 (000.735476)  can0  37D   [8]  02 00 04 BB 12 00 FF FF
 (000.735738)  can0  003   [8]  0F F7 10 00 04 FF E0 4E
 (000.737826)  can0  75E   [8]  00 81 00 2D 18 18 18 18
 (000.738282)  can0  005   [8]  00 00 00 09 0D 00 C8 53
 (000.739493)  can0  33D   [8]  00 42 00 00 64 00 00 00
 (000.740342)  can0  39D   [8]  1E 02 00 C1 FF 0E 00 4F
 (000.742016)  can0  073   [8]  05 20 92 66 00 80 80 57
 (000.742841)  can0  766   [8]  00 00 00 00 00 00 0F 08
 (000.743957)  can0  375   [8]  13 10 34 3F 3F 07 00 00
 (000.745515)  can0  34E   [8]  00 00 B3 00 00 B3 11 2C
 (000.745761)  can0  003   [8]  0F F7 10 00 04 FF F0 83
 (000.747779)  can0  75E   [8]  00 81 00 2D 18 18 18 18
 (000.748617)  can0  201   [8]  29 2D B7 B8 FF FF C0 30
 (000.749144)  can0  203   [8]  00 00 00 00 C0 00 C0 00
 (000.749335)  can0  105   [8]  02 89 7F 53 43 98 F4 5B
 (000.750269)  can0  245   [8]  80 05 81 7E 89 83 C0 85
 (000.750511)  can0  3D3   [4]  C0 02 00 00
 (000.750812)  can0  34F   [8]  10 9E 00 9E 03 E7 07 FF
 (000.752043)  can0  073   [8]  05 20 92 66 00 80 90 9A
 (000.755499)  can0  003   [8]  0F F7 10 00 04 FF 00 FC
 (000.757843)  can0  75E   [8]  00 81 00 2D 18 18 18 18
 (000.758315)  can0  005   [8]  00 00 00 06 0D 00 D8 F6
 (000.760194)  can0  249   [8]  0F E8 00 12 0B 00 FF FF
 (000.762071)  can0  073   [8]  05 20 92 66 00 80 A0 D0
 (000.762840)  can0  766   [8]  00 00 00 00 00 00 0F 08
 (000.765316)  can0  007   [8]  F0 05 38 00 3F FC AF 79
 (000.765559)  can0  003   [8]  0F F7 10 01 04 FF 10 AC
 (000.766467)  can0  317   [2]  0A 00
 (000.768241)  can0  201   [8]  29 2D B7 B8 FF FF D0 FD
 (000.768583)  can0  247   [8]  00 00 00 06 00 18 00 00
 (000.768859)  can0  203   [8]  00 00 00 00 C0 00 C0 00
 (000.769136)  can0  105   [8]  02 9B 7F 53 43 98 04 BC
 (000.769384)  can0  75E   [8]  00 81 00 2D 18 18 18 18
 (000.769734)  can0  76E   [8]  00 00 00 00 00 00 00 00
 (000.769982)  can0  245   [8]  7F FE 81 7E 88 83 D0 85
 (000.772193)  can0  073   [8]  05 20 92 66 00 80 B0 1D
 (000.774752)  can0  388   [8]  35 FF 1F CF FF 0F 07 FF
 (000.775344)  can0  205   [8]  06 93 0C 00 00 00 00 00
 (000.775609)  can0  003   [8]  0F F7 10 03 04 FF 20 C1
 (000.778293)  can0  005   [8]  00 00 00 05 0D 00 E8 06
 (000.779725)  can0  04B   [6]  01 00 0C 06 FF 04
 (000.779984)  can0  75E   [8]  00 81 00 2D 18 18 18 18
 (000.782091)  can0  073   [8]  05 20 92 66 00 80 C0 44
 (000.784747)  can0  283   [8]  F5 0D 08 03 C0 6E 3F FF
 (000.785010)  can0  766   [8]  00 00 00 00 00 00 0F 08
 (000.785489)  can0  003   [8]  0F F7 10 04 04 FF 30 F8
 (000.788641)  can0  201   [8]  29 2E B7 B9 FF FF E0 E0
 (000.788994)  can0  203   [8]  00 00 00 00 C0 00 C0 00
 (000.789241)  can0  105   [8]  02 BD 7F 55 45 93 14 32
 (000.789910)  can0  068   [1]  01
 (000.790142)  can0  245   [8]  7F FF 81 7E 89 83 E0 85
 (000.790418)  can0  75E   [8]  00 81 00 2D 18 18 18 18
 (000.792046)  can0  073   [8]  05 20 92 66 00 80 D0 89
 (000.793592)  can0  2EF   [8]  F7 00 FF 0F FF FF FF 00
 (000.794739)  can0  10C   [8]  3B 7F FF 07 03 FF C3 67
 (000.795311)  can0  001   [8]  CC 81 1F 9E 55 03 01 67
 (000.795584)  can0  003   [8]  0F F7 10 05 04 FF 40 3C
 (000.798300)  can0  005   [8]  00 00 00 04 0D 00 F8 56
 (000.799793)  can0  20E   [8]  3F 00 01 F0 FF FF 3F 68
 (000.800057)  can0  75E   [8]  00 81 00 2D 18 18 18 18
 (000.800485)  can0  12D   [8]  01 0F 00 00 50 53 56 79
 (000.802121)  can0  073   [8]  05 20 92 66 00 80 E0 C3
 (000.804739)  can0  351   [8]  00 00 00 00 00 00 00 00
 (000.805033)  can0  766   [8]  00 00 00 00 00 00 0F 08
 (000.805459)  can0  003   [8]  0F F7 10 05 04 FF 50 F1
 (000.805960)  can0  400   [8]  FD 13 04 0F E0 81 00 05
 (000.808218)  can0  201   [8]  29 2E B7 B9 FF FF F0 2D
 (000.808509)  can0  203   [8]  00 00 00 00 C0 00 C0 00
 (000.808782)  can0  245   [8]  80 01 81 7E 8A 83 F0 85
 (000.809031)  can0  105   [8]  02 BD 7F 54 44 93 24 6A
 (000.810877)  can0  75E   [8]  00 81 00 2D 18 18 18 18
 (000.811145)  can0  776   [8]  00 00 00 00 00 00 00 00
 (000.811960)  can0  073   [8]  05 20 92 66 00 80 F0 0E
 (000.815544)  can0  003   [8]  0F F7 10 05 04 FF 60 BB
 (000.816090)  can0  045   [8]  00 FF 00 00 00 00 D0 FB
 (000.818324)  can0  005   [8]  00 00 00 02 0D 00 08 40
 (000.819994)  can0  30D   [8]  88 51 7E FF FF 02 7E 81
 (000.820591)  can0  2FF   [8]  02 28 00 53 FF 53 62 FE
 (000.820857)  can0  75E   [8]  00 81 00 2D 18 18 18 18
 (000.822217)  can0  073   [8]  05 20 92 66 00 80 00 71
 (000.825475)  can0  003   [8]  0F F7 10 05 04 FF 70 76
 (000.825894)  can0  766   [8]  00 00 00 00 00 00 0F 08
 (000.828639)  can0  201   [8]  29 2E B7 B9 FF FF 00 52
 (000.828905)  can0  105   [8]  02 F9 7F 54 44 93 34 F2
 (000.829838)  can0  203   [8]  00 00 00 00 C0 00 C0 00
 (000.830334)  can0  245   [8]  80 05 81 7E 8A 83 00 85
 (000.830810)  can0  75E   [8]  00 81 00 2D 18 18 18 18
 (000.832051)  can0  073   [8]  05 20 92 66 00 80 10 BC
 (000.835576)  can0  003   [8]  0F F7 10 05 04 FF 80 09
 (000.838292)  can0  005   [8]  00 00 00 02 0D 00 18 8D
 (000.838683)  can0  30E   [8]  0C 00 00 00 00 05 FF 03
 (000.840183)  can0  33D   [8]  00 42 00 00 64 00 00 00
 (000.840437)  can0  39D   [8]  1E 02 00 C1 FF 0E 00 57
 (000.840706)  can0  3F6   [5]  02 00 00 00 00
 (000.841811)  can0  75E   [8]  00 81 00 2D 18 18 18 18
 (000.842206)  can0  073   [8]  05 20 92 66 00 80 20 F6
 (000.843500)  can0  375   [8]  13 10 34 3F 3F 07 00 00
 (000.845464)  can0  003   [8]  0F F7 10 05 04 FF 90 C4
 (000.845808)  can0  34E   [8]  00 00 B3 00 00 B3 11 2C
 (000.846789)  can0  766   [8]  00 00 00 00 00 00 0F 08
 (000.848298)  can0  201   [8]  2A 2E B8 B9 FF FF 10 04
 (000.848781)  can0  203   [8]  00 00 00 00 C0 00 C0 00
 (000.849259)  can0  245   [8]  80 09 81 7E 8A 83 10 85
 (000.849505)  can0  105   [8]  03 40 7F 54 44 93 44 26
 (000.850414)  can0  34F   [8]  10 9E 00 9E 03 E7 07 FF
 (000.852178)  can0  073   [8]  05 20 92 66 00 80 30 3B
 (000.852805)  can0  75E   [8]  00 81 00 2D 18 18 18 18
 (000.855484)  can0  003   [8]  0F F7 10 05 04 FF A0 8E
 (000.858300)  can0  005   [8]  00 00 00 01 0D 00 28 7D
 (000.860439)  can0  249   [8]  15 47 00 18 70 00 FF FF
 (000.860766)  can0  336   [8]  71 42 00 00 00 00 00 00
 (000.862185)  can0  073   [8]  05 20 92 66 00 80 40 62
 (000.862809)  can0  75E   [8]  00 81 00 2D 18 18 18 18
 (000.865285)  can0  007   [8]  F0 05 38 00 3F FC AF 79
 (000.865555)  can0  003   [8]  0F F7 10 04 04 FF B0 DE
 (000.868228)  can0  3D1   [4]  C9 08 00 00
 (000.868689)  can0  201   [8]  2A 2F B8 BA FF FF 20 B2
 (000.868930)  can0  105   [8]  03 85 7F 54 44 93 54 58
 (000.869232)  can0  766   [8]  00 00 00 00 00 00 0F 08
 (000.869858)  can0  203   [8]  40 08 00 00 C0 00 C0 00
 (000.870207)  can0  247   [8]  00 00 00 06 00 18 00 00
 (000.870505)  can0  245   [8]  80 09 81 7E 8C 83 20 85
 (000.872133)  can0  073   [8]  05 20 92 66 00 80 50 AF
 (000.874765)  can0  75E   [8]  00 81 00 2D 18 18 18 18
 (000.875027)  can0  76E   [8]  00 00 00 00 00 00 00 00
 (000.875304)  can0  1C1   [4]  00 00 00 00
 (000.875577)  can0  003   [8]  0F F7 10 03 04 FF C0 73
 (000.875853)  can0  205   [8]  06 93 0C 00 00 00 00 00
 (000.878283)  can0  005   [8]  00 00 00 01 0D 00 38 B0
 (000.879858)  can0  388   [8]  35 FF 1F CF FF 0F 07 FF
 (000.882155)  can0  073   [8]  05 20 92 66 00 80 60 E5
 (000.884707)  can0  04B   [6]  01 00 0C 06 FF 04
 (000.884977)  can0  75E   [8]  00 81 00 2D 18 18 18 18
 (000.885607)  can0  003   [8]  0F F7 10 01 04 FF D0 99
 (000.888289)  can0  201   [8]  2A 2F B8 BA FF FF 30 7F
 (000.888603)  can0  203   [8]  40 08 40 09 C0 00 C0 09
 (000.888876)  can0  245   [8]  80 06 81 7E 8E 83 30 85
 (000.889155)  can0  105   [8]  03 BF 7F 55 45 89 64 CC
 (000.889299)  can0  26F   [2]  6F C0
 (000.890085)  can0  283   [8]  F5 0D 08 03 C0 6E 3F FF
 (000.890380)  can0  39F   [8]  12 1E 18 02 0B 19 0A FF
 (000.890652)  can0  766   [8]  00 00 00 00 00 00 0F 08
 (000.892130)  can0  073   [8]  05 20 92 66 00 80 70 28
 (000.895135)  can0  19F   [8]  00 00 74 F0 1B 22 61 FD
 (000.895681)  can0  003   [8]  0F F7 10 00 04 FF E0 4E
 (000.896026)  can0  001   [8]  CC 81 1F 9E 55 03 11 AA
 (000.896326)  can0  75E   [8]  00 81 00 2D 18 18 18 18
 (000.898291)  can0  005   [8]  00 00 00 00 0D 00 48 74
 (000.899985)  can0  12D   [8]  01 0F 00 00 50 53 56 79
 (000.901612)  can0  413   [8]  FD 00 04 0F 10 00 00 05
 (000.902210)  can0  073   [8]  05 20 92 66 00 80 80 57
 (000.905505)  can0  003   [8]  0F F7 10 00 04 FF F0 83
 (000.905884)  can0  75E   [8]  00 81 00 2D 18 18 18 18
 (000.908646)  can0  201   [8]  2A 2F B9 BA FF FF 40 4C
 (000.908978)  can0  203   [8]  40 08 40 09 C0 09 C0 09
 (000.909250)  can0  245   [8]  80 01 81 7E 91 83 40 85
 (000.909498)  can0  105   [8]  03 F3 7F 55 45 89 74 5E
 (000.911819)  can0  766   [8]  00 00 00 00 00 00 0F 08
 (000.912126)  can0  073   [8]  05 20 92 66 00 80 90 9A
 (000.912753)  can0  328   [2]  07 60
 (000.915526)  can0  003   [8]  0F F7 10 00 04 FF 00 FC
 (000.916336)  can0  045   [8]  00 FF 00 00 00 00 E0 B1
 (000.916795)  can0  75E   [8]  00 81 00 2D 18 18 18 18
 (000.918315)  can0  005   [8]  00 00 00 00 0D 00 58 B9
 (000.919556)  can0  35C   [8]  02 10 E0 00 00 FF FF 01
 (000.919976)  can0  30D   [8]  88 51 7E FF FF 02 AA 81
 (000.922260)  can0  073   [8]  05 20 92 66 00 80 A0 D0
 (000.925478)  can0  003   [8]  0F F7 0F FF 04 FF 10 05
 (000.927791)  can0  75E   [8]  00 81 00 2D 18 18 18 18
 (000.928275)  can0  201   [8]  2B 30 B9 BB FF FF 50 90
 (000.928625)  can0  203   [8]  40 0C 40 09 C0 0F C0 0B
 (000.928875)  can0  245   [8]  80 05 81 7E 95 83 50 85
 (000.929150)  can0  105   [8]  04 22 7F 55 45 89 84 0D
 (000.930533)  can0  3E3   [8]  5A FC FE DF 29 CF A1 F5
 (000.931960)  can0  073   [8]  05 20 92 66 00 80 B0 1D
 (000.932802)  can0  766   [8]  00 00 00 00 00 00 0F 08
 (000.935476)  can0  37D   [8]  02 00 04 BE 12 00 FF FF
 (000.935700)  can0  003   [8]  0F F7 0F FD 04 FF 20 68
 (000.937831)  can0  75E   [8]  00 81 00 2D 18 18 18 18
 (000.938279)  can0  005   [8]  00 00 00 00 0D 00 68 F3
 (000.939576)  can0  3E5   [8]  0E 0A 0A 0A 04 FF FF 00
 (000.939847)  can0  33D   [8]  00 42 00 00 64 00 00 00
 (000.940223)  can0  3F2   [8]  00 1D 00 08 00 00 3F FD
 (000.940546)  can0  39D   [8]  1E 02 00 C1 FF 0E 00 5F
 (000.940796)  can0  3E7   [8]  5A FC FF A3 29 CF 9F 86
 (000.941973)  can0  073   [8]  05 20 92 66 00 80 C0 44
 (000.943482)  can0  375   [8]  13 10 34 3F 3F 07 00 00
 (000.945179)  can0  34E   [8]  00 00 B3 00 00 B3 11 2C
 (000.945731)  can0  003   [8]  0F F7 0F FC 04 FF 30 38
 (000.947763)  can0  75E   [8]  00 81 00 2D 18 18 18 18
 (000.948605)  can0  201   [8]  2B 30 B9 BB FF FF 60 DA
 (000.949126)  can0  105   [8]  04 4A 7F 55 45 89 94 B2
 (000.949498)  can0  3E9   [8]  07 E9 0B 03 02 1E 09 60
 (000.950048)  can0  203   [8]  40 0F 40 0F C0 0F C0 12
 (000.950478)  can0  245   [8]  80 03 81 7E 9A 83 60 85
 (000.950748)  can0  34F   [8]  10 9E 00 9E 03 E7 07 FF
 (000.951071)  can0  3D3   [4]  C0 02 00 00
 (000.952079)  can0  3EB   [8]  00 01 0D 52 0D 3B 0D 9B
 (000.952323)  can0  073   [8]  05 20 92 66 00 80 D0 89
 (000.953761)  can0  766   [8]  00 00 00 00 00 00 0F 08
 (000.955483)  can0  003   [8]  0F F7 0F FA 04 FF 40 08
 (000.958312)  can0  005   [8]  00 00 00 00 0D 00 78 3E
 (000.958956)  can0  75E   [8]  00 81 00 2D 18 18 18 18
 (000.960203)  can0  249   [8]  1E B4 00 20 B6 00 FF FF
 (000.962065)  can0  073   [8]  05 20 92 66 00 80 E0 C3
 (000.965320)  can0  007   [8]  F0 05 38 00 3F FC AF 79
 (000.965578)  can0  003   [8]  0F F7 0F F7 04 FF 50 8A
 (000.966578)  can0  2C4   [8]  00 00 FC 3F 7F FF 3F FF
 (000.968247)  can0  201   [8]  2C 30 BA BC FF FF 70 D3
 (000.968522)  can0  247   [8]  00 00 00 06 00 18 00 00
 (000.968795)  can0  203   [8]  40 0F 40 0F C0 15 C0 12
 (000.969046)  can0  105   [8]  04 6D 7F 56 46 89 A4 29
 (000.969322)  can0  75E   [8]  00 81 00 2D 18 18 18 18
 (000.969844)  can0  245   [8]  80 05 81 7E 9E 84 70 85
 (000.972025)  can0  073   [8]  05 20 92 66 00 80 F0 0E
 (000.973753)  can0  766   [8]  00 00 00 00 00 00 0F 08
 (000.975341)  can0  205   [8]  06 93 0C 00 00 00 00 00
 (000.975593)  can0  003   [8]  0F F6 0F F4 04 FF 60 3C
 (000.978277)  can0  005   [8]  00 00 00 00 0D 00 88 41
 (000.978950)  can0  75E   [8]  00 81 00 2D 18 18 18 18
 (000.979223)  can0  76E   [8]  00 00 00 00 00 00 00 00
 (000.982176)  can0  073   [8]  05 20 92 66 00 80 00 71
 (000.983763)  can0  388   [8]  35 FF 1F CF FF 0F 07 FF
 (000.985475)  can0  003   [8]  0F F6 0F F1 04 FF 70 22
 (000.988519)  can0  201   [8]  2C 31 BA BC FF FF 80 EA
 (000.988820)  can0  203   [8]  40 15 40 16 C0 16 C0 17
 (000.989069)  can0  245   [8]  80 01 81 7E A2 84 80 85
 (000.989322)  can0  04B   [6]  01 00 0C 06 FF 04
 (000.989571)  can0  105   [8]  04 AE 7F 57 47 89 B4 CC
 (000.989897)  can0  75E   [8]  00 81 00 2D 18 18 18 18
 (000.992200)  can0  073   [8]  05 20 92 66 00 80 10 BC
 (000.993616)  can0  2EF   [8]  F7 00 FF 0F FF FF FF 00
 (000.994745)  can0  283   [8]  F5 0D 08 03 C0 6E 3F FF
 (000.995018)  can0  766   [8]  00 00 00 00 00 00 0F 08
 (000.995269)  can0  19F   [8]  00 08 74 F0 1B 22 61 FD
 (000.995543)  can0  001   [8]  CC 81 1F 9E 55 03 21 E0
 (000.995818)  can0  003   [8]  0F F6 0F ED 04 FF 80 AA
 (000.996120)  can0  400   [8]  FD 13 04 0F E0 81 00 05
 (000.998317)  can0  005   [8]  00 00 00 00 0D 00 98 8C
 (000.999625)  can0  068   [1]  01
 (000.999967)  can0  12D   [8]  01 0F 00 00 50 53 56 79
 (001.000245)  can0  75E   [8]  00 81 00 2D 18 18 18 18
 (001.002153)  can0  073   [8]  05 20 92 66 00 80 20 F6
 (001.004731)  can0  10C   [8]  3B 7F FF 07 03 FF C3 67
 (001.005726)  can0  003   [8]  0F F5 0F E8 04 FF 90 7E
 (001.008278)  can0  201   [8]  2D 32 BB BD FF FF 90 47
 (001.008721)  can0  203   [8]  40 16 40 17 C0 1A C0 17
 (001.009045)  can0  105   [8]  04 C9 7F 59 49 89 C4 DE
 (001.009294)  can0  245   [8]  7F FE 81 7E A5 83 90 85
 (001.010856)  can0  20E   [8]  3F 00 01 F0 FF FF 3F 68
 (001.011127)  can0  75E   [8]  00 81 00 2D 18 18 18 18
 (001.012126)  can0  073   [8]  05 20 92 66 00 80 30 3B
 (001.015455)  can0  003   [8]  0F F5 0F E4 04 FF A0 E6
 (001.015868)  can0  351   [8]  00 00 00 00 00 00 00 00
 (001.016145)  can0  045   [8]  00 FF 00 00 00 00 F0 7C
 (001.016425)  can0  766   [8]  00 00 00 00 00 00 0F 08
 (001.018307)  can0  005   [8]  00 00 00 00 0D 00 A8 C6
 (001.020007)  can0  30D   [8]  88 51 7E FF FF 05 1F 81
 (001.020799)  can0  75E   [8]  00 81 00 2D 18 18 18 18
 (001.021066)  can0  776   [8]  00 00 00 00 00 00 00 00
 (001.022177)  can0  073   [8]  05 20 92 66 00 80 40 62
 (001.025476)  can0  003   [8]  0F F4 0F E0 04 FF B0 23
 (001.028727)  can0  201   [8]  2D 32 BC BD FF FF A0 06
 (001.028992)  can0  105   [8]  04 E5 7F 64 55 89 D4 06
 (001.029900)  can0  203   [8]  40 1C 40 1E C0 1D C0 1D
 (001.030602)  can0  245   [8]  7F FA 81 7E A6 84 A0 85
 (001.030942)  can0  75E   [8]  00 81 00 2D 18 18 18 18
 (001.032025)  can0  073   [8]  05 20 92 66 00 80 50 AF
 (001.035528)  can0  003   [8]  0F F4 0F DD 04 FF C0 5A
 (001.035818)  can0  766   [8]  00 00 00 00 00 00 0F 08
 (001.038324)  can0  005   [8]  00 00 00 00 0D 00 B8 0B
 (001.039527)  can0  33D   [8]  00 42 00 00 64 00 00 00
 (001.040371)  can0  39D   [8]  1E 02 00 C1 FF 0E 00 67
 (001.040640)  can0  3F6   [5]  02 00 00 00 00
 (001.040915)  can0  75E   [8]  00 81 00 2D 18 18 18 18
 (001.042039)  can0  073   [8]  05 20 92 66 00 80 60 E5
 (001.043446)  can0  375   [8]  13 10 34 3F 3F 07 00 00
 (001.045523)  can0  34E   [8]  00 00 B3 00 00 B3 11 2C
 (001.045815)  can0  003   [8]  0F F3 0F D9 04 FF D0 16
 (001.048283)  can0  201   [8]  2E 33 BD BE FF FF B0 BA
 (001.048718)  can0  203   [8]  40 23 40 22 C0 24 C0 25
 (001.048989)  can0  105   [8]  04 FC 7F 6E 5E 89 E4 2F
 (001.049898)  can0  245   [8]  7F FA 81 7E A6 83 B0 85
 (001.050192)  can0  34F   [8]  10 9E 00 9E 03 E7 07 FF
 (001.050774)  can0  75E   [8]  00 81 00 2D 18 18 18 18
 (001.052198)  can0  073   [8]  05 20 92 66 00 80 70 28
 (001.055473)  can0  003   [8]  0F F3 0F D6 04 FF E0 34
 (001.055921)  can0  766   [8]  00 00 00 00 00 00 0F 08
 (001.058279)  can0  005   [8]  00 00 00 00 0D 00 C8 52
 (001.060419)  can0  249   [8]  27 E8 00 2B E8 00 FF FF
 (001.060749)  can0  336   [8]  71 42 00 00 00 00 00 00
 (001.061025)  can0  75E   [8]  00 81 00 2D 18 18 18 18
 (001.062070)  can0  073   [8]  05 20 92 66 00 80 80 57
 (001.065331)  can0  007   [8]  F0 05 38 00 3F FC AF 79
 (001.065565)  can0  003   [8]  0F F2 0F D4 04 FF F0 98
 (001.068140)  can0  3D1   [4]  C9 08 00 00
 (001.068649)  can0  201   [8]  2F 34 BD BF FF FF C0 EC
 (001.068913)  can0  105   [8]  05 23 7F 74 64 89 F4 27
 (001.069820)  can0  203   [8]  40 25 40 25 C0 29 C0 27
 (001.070115)  can0  247   [8]  00 00 00 06 00 18 00 00
 (001.070387)  can0  245   [8]  7F FA 81 7E A6 84 C0 85
 (001.070864)  can0  75E   [8]  00 81 00 2D 18 18 18 18
 (001.072118)  can0  073   [8]  05 20 92 66 00 80 90 9A
 (001.075470)  can0  003   [8]  0F F2 0F D2 04 FF 00 8E
 (001.075864)  can0  205   [8]  06 93 0C 00 00 00 00 00
 (001.076165)  can0  766   [8]  00 00 00 00 00 00 0F 08
 (001.078298)  can0  005   [8]  00 00 00 00 0D 00 D8 9F
 (001.080745)  can0  75E   [8]  00 81 00 2D 18 18 18 18
 (001.081040)  can0  76E   [8]  00 00 00 00 00 00 00 00
 (001.082130)  can0  073   [8]  05 20 92 66 00 80 A0 D0
 (001.085474)  can0  003   [8]  0F F1 0F D0 04 FF 10 AE
 (001.085877)  can0  388   [8]  35 FF 1F CF FF 0F 07 FF
 (001.088212)  can0  201   [8]  30 34 BE C0 FF FF D0 E9
 (001.088462)  can0  203   [8]  40 2A 40 2B C0 2E C0 2D
 (001.088721)  can0  245   [8]  7F FB 81 7E A6 84 D0 85
 (001.088989)  can0  105   [8]  05 36 7F 89 77 8A 04 CE
 (001.090068)  can0  004   [5]  01 00 00 37 07
 (001.090767)  can0  04B   [6]  01 00 0C 06 FF 04
 (001.091037)  can0  75E   [8]  00 81 00 2D 18 18 18 18
 (001.091621)  can0  413   [8]  FD 00 04 0F 10 00 00 05
 (001.091963)  can0  073   [8]  05 20 92 66 00 80 B0 1D
 (001.095067)  can0  19F   [8]  00 15 74 F0 1B 22 61 FD
 (001.095464)  can0  001   [8]  CC 81 1F 9E 55 03 31 2D
 (001.095736)  can0  003   [8]  0F F1 0F CF 04 FF 20 A9
 (001.095986)  can0  283   [8]  F5 0D 08 03 C0 6E 3F FF
 (001.096289)  can0  766   [8]  00 00 00 00 00 00 0F 08
 (001.098282)  can0  005   [8]  00 00 00 00 0D 00 E8 D5
 (001.099880)  can0  12D   [8]  01 0F 00 00 50 53 56 79
 (001.100752)  can0  75E   [8]  00 81 00 2D 18 18 18 18
 (001.102171)  can0  073   [8]  05 20 92 66 00 80 C0 44
 (001.105534)  can0  003   [8]  0F F0 0F CD 04 FF 30 05
 (001.108684)  can0  201   [8]  31 35 BF C1 FF FF E0 4F
 (001.108937)  can0  105   [8]  05 49 7F 97 85 8A 14 F1
 (001.109856)  can0  203   [8]  40 2F 40 2F C0 32 C0 31
 (001.110212)  can0  245   [8]  80 00 81 7E A6 83 E0 85
 (001.110741)  can0  75E   [8]  00 81 00 2D 18 18 18 18
 (001.111996)  can0  073   [8]  05 20 92 66 00 80 D0 89
 (001.112692)  can0  328   [2]  07 60
 (001.115469)  can0  003   [8]  0F F0 0F CC 04 FF 40 C1
 (001.115938)  can0  766   [8]  00 00 00 00 00 00 0F 08
 (001.116237)  can0  045   [8]  00 FF 00 00 00 00 00 03
 (001.116384)  can0  34D   [2]  10 00
 (001.118312)  can0  005   [8]  00 00 00 00 0D 00 F8 18
 (001.119558)  can0  35C   [8]  02 10 E0 00 00 FF FF 01
 (001.119980)  can0  30D   [8]  88 51 7E FF FF 06 C1 81
 (001.120806)  can0  75E   [8]  00 81 00 2D 18 18 18 18
 (001.122231)  can0  073   [8]  05 20 92 66 00 80 E0 C3
 (001.125466)  can0  003   [8]  0F EF 0F CD 04 FF 50 40
 (001.128241)  can0  201   [8]  31 36 C0 C2 FF FF F0 3E
 (001.128509)  can0  203   [8]  40 34 40 34 C0 36 C0 36
 (001.128757)  can0  245   [8]  80 07 81 7E A8 83 F0 85
 (001.129009)  can0  105   [8]  05 6F 7F A7 93 8A 24 68
 (001.130744)  can0  75E   [8]  00 81 00 2D 18 18 18 18
 (001.132043)  can0  073   [8]  05 20 92 66 00 80 F0 0E
 (001.135413)  can0  37D   [8]  02 00 04 C3 12 00 FF FF
 (001.135660)  can0  003   [8]  0F EF 0F CD 04 FF 60 0A
 (001.136010)  can0  766   [8]  00 00 00 00 00 00 0F 08
 (001.138288)  can0  005   [8]  00 00 00 00 0D 00 08 67
 (001.139965)  can0  33D   [8]  00 42 00 00 64 00 00 00
 (001.140537)  can0  39D   [8]  1E 02 00 C1 FF 0E 00 6F
 (001.140859)  can0  75E   [8]  00 81 00 2D 18 18 18 18
 (001.142182)  can0  073   [8]  05 20 92 66 00 80 00 71
 (001.143698)  can0  375   [8]  13 10 34 3F 3F 07 00 00
 (001.145114)  can0  34E   [8]  00 00 B3 00 00 B3 11 2C
 (001.145714)  can0  003   [8]  0F EE 0F CE 04 FF 70 3B
 (001.148741)  can0  201   [8]  32 37 C1 C3 FF FF 00 17
 (001.149007)  can0  105   [8]  05 82 7F B4 A0 8A 34 0F
 (001.149258)  can0  3D3   [4]  C0 02 00 00
 (001.149871)  can0  203   [8]  40 37 40 39 C0 3C C0 3B
 (001.150319)  can0  245   [8]  80 09 81 7E AA 84 00 85
 (001.150799)  can0  34F   [8]  10 9E 00 9E 03 E7 07 FF
 (001.151779)  can0  75E   [8]  00 81 00 2D 18 18 18 18
 (001.152031)  can0  073   [8]  05 20 92 66 00 80 10 BC
 (001.155487)  can0  003   [8]  0F EE 0F CF 04 FF 80 D9
 (001.156794)  can0  766   [8]  00 00 00 00 00 00 0F 08
 (001.158299)  can0  005   [8]  00 00 00 00 0D 00 18 AA
 (001.160187)  can0  249   [8]  2F E8 00 33 E8 00 FF FF
 (001.161739)  can0  75E   [8]  00 81 00 2D 18 18 18 18
 (001.162109)  can0  073   [8]  05 20 92 66 00 80 20 F6
 (001.165268)  can0  007   [8]  F0 05 38 00 3F FC AF 79
 (001.165531)  can0  003   [8]  0F EE 0F D1 04 FF 90 C4
 (001.168196)  can0  201   [8]  34 38 C2 C4 FF FF 10 86
 (001.168557)  can0  247   [8]  00 00 00 06 00 18 00 00
 (001.168821)  can0  203   [8]  40 3C 40 3C C0 42 C0 41
 (001.169067)  can0  105   [8]  05 AF 7F C0 AB 8A 44 02
 (001.169836)  can0  245   [8]  80 0E 81 7E AD 84 10 85
 (001.171781)  can0  75E   [8]  00 81 00 2D 18 18 18 18
 (001.172108)  can0  073   [8]  05 20 92 66 00 80 30 3B
 (001.175303)  can0  205   [8]  06 93 0C 00 00 00 00 00
 (001.175554)  can0  003   [8]  0F ED 0F D4 04 FF A0 97
 (001.176815)  can0  766   [8]  00 00 00 00 00 00 0F 08
 (001.177877)  can0  400   [8]  FD 13 04 0F E0 81 00 05
 (001.178301)  can0  005   [8]  00 00 00 00 0D 00 28 E0
 (001.181755)  can0  75E   [8]  00 81 00 2D 18 18 18 18
 (001.182043)  can0  76E   [8]  00 00 00 00 00 00 00 00
 (001.182286)  can0  073   [8]  05 20 92 66 00 80 40 62
 (001.185488)  can0  003   [8]  0F ED 0F D6 04 FF B0 7D
 (001.186778)  can0  388   [8]  35 FF 1F CF FF 0F 07 FF
 (001.188577)  can0  201   [8]  35 3A C4 C5 FF FF 20 E1
 (001.188906)  can0  203   [8]  40 41 40 41 C0 46 C0 45
 (001.189183)  can0  105   [8]  05 C7 7F C7 B5 8B 54 14
 (001.189984)  can0  245   [8]  80 12 81 7E AF 84 20 85
 (001.192023)  can0  073   [8]  05 20 92 66 00 80 50 AF
 (001.192774)  can0  04B   [6]  01 00 0C 06 FF 04
 (001.193005)  can0  75E   [8]  00 81 00 2D 18 18 18 18
 (001.193902)  can0  2EF   [8]  F7 00 FF 0F FF FF FF 00
 (001.195110)  can0  19F   [8]  00 22 74 F0 1B 22 61 FD
 (001.195659)  can0  003   [8]  0F ED 0F DA 04 FF C0 F6
 (001.195929)  can0  001   [8]  CC 81 1F 9E 55 03 41 74
 (001.197792)  can0  283   [8]  F5 0D 08 03 C0 6E 3F FF
 (001.198118)  can0  766   [8]  00 00 00 00 00 00 0F 08
 (001.198360)  can0  005   [8]  00 00 00 00 0D 00 38 2D
 (001.199817)  can0  12D   [8]  01 0F 00 00 50 53 56 79
 (001.202062)  can0  073   [8]  05 20 92 66 00 80 60 E5
 (001.202696)  can0  068   [1]  01
 (001.202957)  can0  75E   [8]  00 81 00 2D 18 18 18 18
 (001.205484)  can0  003   [8]  0F ED 0F DE 04 FF D0 75
 (001.207796)  can0  10C   [8]  3B 7F FF 07 03 FF C3 67
 (001.208180)  can0  002   [5]  01 00 C0 00 07
 (001.208453)  can0  201   [8]  36 3B C5 C6 FF FF 30 5D
 (001.208778)  can0  203   [8]  40 46 40 47 C0 4B C0 4B
 (001.209026)  can0  105   [8]  05 F6 7F CC BC 8B 64 81
 (001.209333)  can0  245   [8]  80 11 81 7E B1 84 30 85
 (001.212143)  can0  073   [8]  05 20 92 66 00 80 70 28
 (001.212783)  can0  20E   [8]  3F 00 01 F0 FF FF 3F 68
 (001.213104)  can0  75E   [8]  00 81 00 2D 18 18 18 18
 (001.215463)  can0  003   [8]  0F EC 0F E1 04 FF E0 7E
 (001.216009)  can0  045   [8]  00 FF 00 00 00 00 10 CE
 (001.217825)  can0  351   [8]  00 00 00 00 00 00 00 00
 (001.218107)  can0  766   [8]  00 00 00 00 00 00 0F 08
 (001.218429)  can0  005   [8]  00 00 00 00 0D 00 48 74
 (001.220063)  can0  30D   [8]  88 51 7E FF FF 09 40 81
 (001.221916)  can0  073   [8]  05 20 92 66 00 80 80 57
 (001.222782)  can0  75E   [8]  00 81 00 2D 18 18 18 18
 (001.222976)  can0  10E   [4]  00 80 3A 00
 (001.223278)  can0  776   [8]  00 00 00 00 00 00 00 00
 (001.225460)  can0  003   [8]  0F EC 0F E4 04 FF F0 60
 (001.227932)  can0  10D   [4]  00 C0 00 02
 (001.228756)  can0  201   [8]  37 3C C6 C8 FF FF 40 DD
 (001.229028)  can0  105   [8]  06 07 7F D0 C2 8B 74 97
 (001.229934)  can0  203   [8]  40 4B 40 4B C0 51 C0 50
 (001.230405)  can0  245   [8]  80 0E 81 7E B3 84 40 85
 (001.232112)  can0  073   [8]  05 20 92 66 00 80 90 9A
 (001.232828)  can0  75E   [8]  00 81 00 2D 18 18 18 18
 (001.235493)  can0  003   [8]  0F EC 0F E9 04 FF 00 50
 (001.237813)  can0  766   [8]  00 00 00 00 00 00 0F 08
 (001.238278)  can0  005   [8]  00 00 00 00 0D 00 58 B9
 (001.239484)  can0  33D   [8]  00 42 00 00 64 00 00 00
 (001.240359)  can0  39D   [8]  1E 02 00 C1 FF 0E 00 77
 (001.240652)  can0  3F6   [5]  02 00 00 00 00
 (001.242035)  can0  073   [8]  05 20 92 66 00 80 A0 D0
 (001.242857)  can0  75E   [8]  00 81 00 2D 18 18 18 18
 (001.243506)  can0  375   [8]  13 10 34 3F 3F 07 00 00
 (001.245461)  can0  003   [8]  0F EC 0F ED 04 FF 10 D3
 (001.245802)  can0  34E   [8]  00 00 B3 00 00 B3 11 2C
 (001.248265)  can0  201   [8]  39 3E C8 C9 FF FF 50 16
 (001.248731)  can0  203   [8]  40 52 40 50 C0 57 C0 57
 (001.249049)  can0  245   [8]  80 0F 81 7E B6 83 50 85
 (001.249301)  can0  105   [8]  06 2A 7F D2 C4 8B 84 AB
 (001.250185)  can0  34F   [8]  10 9E 00 9E 03 E7 07 FF
 (001.252058)  can0  073   [8]  05 20 92 66 00 80 B0 1D
 (001.252806)  can0  75E   [8]  00 81 00 2D 18 18 18 18
 (001.255708)  can0  003   [8]  0F EC 0F F0 04 FF 20 F3
 (001.257811)  can0  766   [8]  00 00 00 00 00 00 0F 08
 (001.258280)  can0  005   [8]  00 00 00 00 0D 00 68 F3
 (001.260135)  can0  336   [8]  71 42 00 00 00 00 00 00
 (001.260455)  can0  249   [8]  37 E8 00 3B E8 00 FF FF
 (001.262162)  can0  073   [8]  05 20 92 66 00 80 C0 44
 (001.262785)  can0  75E   [8]  00 81 00 2D 18 18 18 18
 (001.265267)  can0  007   [8]  F0 05 38 00 3F FC AF 79
 (001.265526)  can0  003   [8]  0F EC 0F F3 04 FF 30 84
 (001.268114)  can0  3D1   [4]  C9 08 00 00
 (001.268602)  can0  201   [8]  3A 3F C9 CB FF FF 60 B0
 (001.268977)  can0  247   [8]  00 00 00 06 00 18 00 00
 (001.269225)  can0  203   [8]  40 56 40 57 C0 5D C0 5D
 (001.269600)  can0  105   [8]  06 35 7F D2 C4 8B 94 B7
 (001.270251)  can0  245   [8]  80 13 81 7E B8 84 60 85
 (001.271606)  can0  413   [8]  FD 00 04 0F 10 00 00 05
 (001.272177)  can0  073   [8]  05 20 92 66 00 80 D0 89
 (001.273755)  can0  75E   [8]  00 81 00 2D 18 18 18 18
 (001.275311)  can0  205   [8]  06 94 0C 00 00 00 00 00
 (001.275572)  can0  003   [8]  0F EC 0F F6 04 FF 40 0E
 (001.278311)  can0  005   [8]  00 00 00 00 0D 00 78 3E
 (001.279050)  can0  766   [8]  00 00 00 00 00 00 0F 08
 (001.282070)  can0  073   [8]  05 20 92 66 00 80 E0 C3
 (001.284758)  can0  75E   [8]  00 81 00 2D 18 18 18 18
 (001.285022)  can0  76E   [8]  00 00 00 00 00 00 00 00
 (001.285453)  can0  003   [8]  0F EC 0F F8 04 FF 50 36
 (001.288206)  can0  201   [8]  3C 41 CB CD FF FF 70 FC
 (001.288473)  can0  203   [8]  40 5C 40 5C C0 63 C0 62
 (001.288746)  can0  245   [8]  80 17 81 7E BA 84 70 85
 (001.288997)  can0  105   [8]  06 51 7F D2 C4 8A A4 CC
 (001.290134)  can0  388   [8]  35 FF 1F CF FF 0F 07 FF
 (001.291931)  can0  073   [8]  05 20 92 66 00 80 F0 0E
 (001.294712)  can0  04B   [6]  01 00 0C 06 FF 04
 (001.294973)  can0  75E   [8]  00 81 00 2D 18 18 18 18
 (001.295223)  can0  19F   [8]  00 31 74 F0 1B 22 61 FD
 (001.295473)  can0  001   [8]  CC 81 1F 9E 55 03 51 B9
 (001.295746)  can0  003   [8]  0F EC 0F FB 04 FF 60 C6
 (001.298280)  can0  005   [8]  00 00 00 00 0D 00 88 41
 (001.299807)  can0  12D   [8]  01 0F 00 00 50 53 56 79
 (001.300098)  can0  283   [8]  F5 0D 08 03 C0 6E 3F FF
 (001.300346)  can0  766   [8]  00 00 00 00 00 00 0F 08
 (001.302030)  can0  073   [8]  05 20 92 66 00 80 00 71
 (001.304758)  can0  75E   [8]  00 81 00 2D 18 18 18 18
 (001.305454)  can0  003   [8]  0F EC 0F FC 04 FF 70 FF
 (001.308608)  can0  201   [8]  3D 42 CD CE FF FF 80 CF
 (001.308847)  can0  105   [8]  06 68 7F D2 C4 8A B4 71
 (001.309778)  can0  203   [8]  40 63 40 62 C0 69 C0 68
 (001.310264)  can0  245   [8]  80 1A 81 7E BC 84 80 85
 (001.312035)  can0  073   [8]  05 20 92 66 00 80 10 BC
 (001.312700)  can0  328   [2]  07 60
 (001.314761)  can0  75E   [8]  00 81 00 2D 18 18 18 18
 (001.315451)  can0  003   [8]  0F EC 0F FE 04 FF 80 A7
 (001.316224)  can0  045   [8]  00 FF 00 00 00 00 20 84
 (001.318331)  can0  005   [8]  00 00 00 00 0D 00 98 8C
 (001.319803)  can0  766   [8]  00 00 00 00 00 00 0F 08
 (001.320248)  can0  30D   [8]  88 51 7E FF FF 0B 09 81
 (001.320496)  can0  35C   [8]  02 10 E0 00 00 FF FF 01
 (001.322205)  can0  073   [8]  05 20 92 66 00 80 20 F6
 (001.324802)  can0  75E   [8]  00 81 00 2D 18 18 18 18
 (001.325452)  can0  003   [8]  0F EC 0F FF 04 FF 90 F7
 (001.328249)  can0  201   [8]  3F 44 CF D0 FF FF 90 35
 (001.328521)  can0  203   [8]  40 69 40 69 C0 6E C0 6E
 (001.328793)  can0  245   [8]  80 1B 81 7E BD 84 90 85
 (001.329376)  can0  105   [8]  06 72 7F D2 C4 8A C4 BA
 (001.331980)  can0  073   [8]  05 20 92 66 00 80 30 3B
 (001.334753)  can0  75E   [8]  00 81 00 2D 18 18 18 18
 (001.335498)  can0  003   [8]  0F EC 10 01 04 FF A0 14
 (001.335970)  can0  37D   [8]  02 00 04 C4 12 00 FF FF
 (001.338301)  can0  005   [8]  00 00 00 00 0D 00 A8 C6
 (001.339801)  can0  766   [8]  00 00 00 00 00 00 0F 08
 (001.340093)  can0  33D   [8]  00 42 00 00 64 00 00 00
 (001.340545)  can0  39D   [8]  1E 02 00 C1 FF 0E 00 7F
 (001.341904)  can0  073   [8]  05 20 92 66 00 80 40 62
 (001.343426)  can0  375   [8]  13 10 34 3F 3F 07 00 00
 (001.344864)  can0  75E   [8]  00 81 00 2D 18 18 18 18
 (001.345220)  can0  34E   [8]  00 00 B3 00 00 B3 11 2C
 (001.345519)  can0  003   [8]  0F EC 10 01 04 FF B0 D9
 (001.348825)  can0  105   [8]  06 82 7F D2 C4 8A D4 BB
 (001.349148)  can0  3D3   [4]  C0 02 00 00
 (001.349771)  can0  201   [8]  41 46 D1 D2 FF FF A0 25
 (001.350219)  can0  203   [8]  40 6F 40 71 C0 76 C0 75
 (001.350671)  can0  245   [8]  80 1C 81 7E BD 83 A0 85
 (001.350917)  can0  34F   [8]  10 9E 00 9E 03 E7 07 FF
 (001.352151)  can0  073   [8]  05 20 92 66 00 80 50 AF
 (001.355451)  can0  003   [8]  0F EC 10 02 04 FF C0 3A
 (001.355894)  can0  75E   [8]  00 81 00 2D 18 18 18 18
 (001.358303)  can0  005   [8]  00 00 00 00 0D 00 B8 0B
 (001.360198)  can0  249   [8]  3D FC 00 FF FF 00 03 FF
 (001.360828)  can0  766   [8]  00 00 00 00 00 00 0F 08
 (001.361771)  can0  400   [8]  FD 13 04 0F E0 81 00 05
 (001.362093)  can0  073   [8]  05 20 92 66 00 80 60 E5
 (001.365247)  can0  007   [8]  F0 05 38 00 3F FC AF 79
 (001.365518)  can0  003   [8]  0F ED 10 03 04 FF D0 2C
 (001.366326)  can0  75E   [8]  00 81 00 2D 18 18 18 18
 (001.368203)  can0  201   [8]  43 48 D3 D4 FF FF B0 6C
 (001.368492)  can0  247   [8]  00 00 00 06 00 18 00 00
 (001.368766)  can0  203   [8]  40 75 40 75 C0 7B C0 7B
 (001.369015)  can0  245   [8]  80 1A 81 7E BE 83 B0 85
 (001.369268)  can0  105   [8]  06 91 7F D2 C4 8A E4 2F
 (001.372049)  can0  073   [8]  05 20 92 66 00 80 70 28
 (001.374948)  can0  1C1   [4]  00 00 00 00
 (001.375268)  can0  205   [8]  06 94 0C 00 00 00 00 00
 (001.375541)  can0  003   [8]  0F ED 10 04 04 FF E0 92
 (001.376749)  can0  75E   [8]  00 81 00 2D 18 18 18 18
 (001.378280)  can0  005   [8]  00 00 00 00 0D 00 C8 52
 (001.381853)  can0  766   [8]  00 00 00 00 00 00 0F 08
 (001.382097)  can0  073   [8]  05 20 92 66 00 80 80 57
 (001.385448)  can0  003   [8]  0F ED 10 05 04 FF F0 C2
 (001.386748)  can0  75E   [8]  00 81 00 2D 18 18 18 18
 (001.387015)  can0  76E   [8]  00 00 00 00 00 00 00 00
 (001.388600)  can0  201   [8]  45 4A D5 D6 FF FF C0 2C
 (001.388941)  can0  203   [8]  40 7B 40 7B C0 81 C0 81
 (001.389193)  can0  245   [8]  80 19 81 7E BD 84 C0 85
 (001.389440)  can0  105   [8]  06 9A 7F D2 C4 8A F4 22
 (001.392275)  can0  073   [8]  05 20 92 66 00 80 90 9A
 (001.392794)  can0  388   [8]  35 FF 1F CF FF 0F 07 FF
 (001.393597)  can0  2EF   [8]  F7 00 FF 0F FF FF FF 00
 (001.395120)  can0  19F   [8]  00 43 74 F0 1B 22 61 FD
 (001.395497)  can0  001   [8]  CC 81 1F 9E 55 03 61 F3
 (001.395764)  can0  003   [8]  0F ED 10 06 04 FF 00 07
 (001.397749)  can0  04B   [6]  01 00 0C 06 FF 04
 (001.398038)  can0  75E   [8]  00 81 00 2D 18 18 18 18
 (001.398316)  can0  005   [8]  00 00 00 00 0D 00 D8 9F
 (001.399973)  can0  12D   [8]  01 0F 00 00 50 53 56 79
 (001.402277)  can0  073   [8]  05 20 92 66 00 80 A0 D0
 (001.402816)  can0  283   [8]  F5 0D 08 03 C0 6E 3F FF
 (001.403090)  can0  766   [8]  00 00 00 00 00 00 0F 08
 (001.405452)  can0  003   [8]  0F ED 10 08 04 FF 10 3F
 (001.407646)  can0  068   [1]  01
 (001.407917)  can0  75E   [8]  00 81 00 2D 18 18 18 18
 (001.408243)  can0  201   [8]  47 4C D7 D9 FF FF D0 6E
 (001.408514)  can0  203   [8]  40 82 40 83 C0 89 C0 87
 (001.408789)  can0  245   [8]  80 1E 81 7E BE 84 D0 85
 (001.409038)  can0  105   [8]  06 A7 7F D3 C7 8A 04 39
 (001.411942)  can0  073   [8]  05 20 92 66 00 80 B0 1D
 (001.413747)  can0  10C   [8]  3B 7F FF 07 03 FF C3 67
 (001.415456)  can0  003   [8]  0F ED 10 0A 04 FF 20 52
 (001.415992)  can0  045   [8]  00 FF 00 00 00 00 30 49
 (001.418423)  can0  005   [8]  00 00 00 00 0D 00 E8 D5
 (001.418990)  can0  20E   [8]  3F 00 01 F0 FF FF 3F 68
 (001.419264)  can0  75E   [8]  00 81 00 2D 18 18 18 18
 (001.420090)  can0  30D   [8]  88 51 7E FF FF 0E 73 81
 (001.422021)  can0  073   [8]  05 20 92 66 00 80 C0 44
 (001.423845)  can0  351   [8]  00 00 00 00 00 00 00 00
 (001.424113)  can0  766   [8]  00 00 00 00 00 00 0F 08
 (001.425449)  can0  003   [8]  0F ED 10 0C 04 FF 30 F6
 (001.428798)  can0  75E   [8]  00 81 00 2D 18 18 18 18
 (001.429036)  can0  201   [8]  4A 4E DA DB FF FF E0 C1
 (001.429313)  can0  203   [8]  40 87 40 88 C0 8D C0 8E
 (001.429611)  can0  105   [8]  06 B6 7F D6 C9 8A 14 7C
 (001.429885)  can0  776   [8]  00 00 00 00 00 00 00 00
 (001.430288)  can0  245   [8]  80 1C 81 7E BF 83 E0 85
 (001.432030)  can0  073   [8]  05 20 92 66 00 80 D0 89
 (001.435473)  can0  003   [8]  0F EE 10 0D 04 FF 40 F8
 (001.438280)  can0  005   [8]  00 00 00 00 0D 00 F8 18
 (001.439097)  can0  75E   [8]  00 81 00 2D 18 18 18 18
 (001.439919)  can0  33D   [8]  00 42 00 00 64 00 00 00
 (001.440491)  can0  39D   [8]  1E 02 00 C1 FF 0E 00 07
 (001.440761)  can0  3F6   [5]  02 00 00 00 00
 (001.441945)  can0  073   [8]  05 00 92 66 00 80 E0 EB
 (001.443467)  can0  375   [8]  13 10 34 3F 3F 07 00 00
 (001.444045)  can0  766   [8]  00 00 00 00 00 00 0F 08
 (001.445420)  can0  34E   [8]  00 00 B3 00 00 B3 11 2C
 (001.445734)  can0  003   [8]  0F EE 10 0F 04 FF 50 12
 (001.448259)  can0  201   [8]  4C 51 DC DE FF FF F0 BC
 (001.448714)  can0  203   [8]  40 8E 40 8E C0 96 C0 95
 (001.448960)  can0  105   [8]  06 B9 7F D7 CB 8A 24 6D
 (001.449238)  can0  75E   [8]  00 81 00 2D 18 18 18 18
 (001.449888)  can0  245   [8]  80 17 81 7E BE 84 F0 85
 (001.450187)  can0  34F   [8]  10 9E 00 9E 03 E7 07 FF
 (001.452124)  can0  073   [8]  05 00 92 66 00 80 F0 26
 (001.455423)  can0  003   [8]  0F EE 10 10 04 FF 60 15
 (001.458321)  can0  005   [8]  00 00 00 00 0D 00 08 67
 (001.458950)  can0  75E   [8]  00 81 00 2D 18 18 18 18
 (001.460294)  can0  336   [8]  71 42 00 00 00 00 00 00
 (001.460559)  can0  249   [8]  05 58 00 0A 1D 00 FF FF
 (001.461589)  can0  413   [8]  FD 00 04 0F 10 00 00 05
 (001.462158)  can0  073   [8]  05 00 92 66 00 80 00 59
 (001.463770)  can0  766   [8]  00 00 00 00 00 00 0F 08
 (001.465446)  can0  003   [8]  0F EE 10 10 04 FF 70 D8
 (001.466041)  can0  007   [8]  F0 05 38 00 3F FC AF 79
 (001.468677)  can0  201   [8]  4E 53 DF E0 FF FF 00 D1
 (001.469011)  can0  247   [8]  00 00 00 06 00 18 00 00
 (001.469260)  can0  203   [8]  40 94 40 94 C0 9B C0 9B
 (001.469535)  can0  105   [8]  06 C4 7F D9 CD 8A 34 75
 (001.469733)  can0  3D1   [4]  C9 08 00 00
 (001.470009)  can0  75E   [8]  00 81 00 2D 18 18 18 18
 (001.470336)  can0  245   [8]  80 19 81 7E BE 84 00 85
 (001.471995)  can0  073   [8]  05 00 92 66 00 80 10 94
 (001.475268)  can0  205   [8]  06 94 0C 00 00 00 00 00
 (001.475534)  can0  003   [8]  0F EE 10 12 04 FF 80 80
 (001.478240)  can0  005   [8]  00 00 00 00 0D 00 18 AA
 (001.479914)  can0  75E   [8]  00 81 00 2D 18 18 18 18
 (001.482106)  can0  073   [8]  05 00 92 66 00 80 20 DE
 (001.484767)  can0  766   [8]  00 00 00 00 00 00 0F 08
 (001.485464)  can0  003   [8]  0F EF 10 13 04 FF 90 96
 (001.488216)  can0  201   [8]  51 56 E1 E3 FF FF 10 39
 (001.488486)  can0  203   [8]  40 9A 40 9B C0 A2 C0 A1
 (001.488734)  can0  245   [8]  80 19 81 7E BE 85 10 85
 (001.489008)  can0  105   [8]  06 D3 7F DB D1 8B 44 8E
 (001.490100)  can0  75E   [8]  00 81 00 2D 18 18 18 18
 (001.490358)  can0  76E   [8]  00 00 00 00 00 00 00 00
 (001.491925)  can0  073   [8]  05 00 92 66 00 80 30 13
 (001.494830)  can0  388   [8]  35 FF 1F CF FF 0F 07 FF
 (001.495260)  can0  19F   [8]  00 55 74 F0 1B 22 61 FD
 (001.495507)  can0  003   [8]  0F EF 10 13 04 FF A0 DC
 (001.495806)  can0  001   [8]  CC 81 1F 9E 55 03 71 3E
 (001.498291)  can0  005   [8]  00 00 00 00 0D 00 28 E0
 (001.499815)  can0  12D   [8]  01 0F 00 00 50 53 56 79
 (001.500014)  can0  04B   [6]  01 00 0C 06 FF 04
 (001.500285)  can0  75E   [8]  00 81 00 2D 18 18 18 18
 (001.502014)  can0  073   [8]  05 00 92 66 00 80 40 4A
 (001.504809)  can0  283   [8]  F5 0D 08 03 C0 6E 3F FF
 (001.505084)  can0  766   [8]  00 00 00 00 00 00 0F 08
 (001.505457)  can0  003   [8]  0F EF 10 13 04 FF B0 11
 (001.508653)  can0  201   [8]  54 58 E4 E5 FF FF 20 72
 (001.508957)  can0  203   [8]  40 A0 40 A0 C0 A8 C0 A7
 (001.509208)  can0  245   [8]  80 17 81 7E BE 85 20 85
 (001.509480)  can0  105   [8]  06 E0 7F DF D5 8B 54 FD
 (001.510172)  can0  75E   [8]  00 81 00 2D 18 18 18 18
 (001.512015)  can0  073   [8]  05 00 92 66 00 80 50 87
 (001.512668)  can0  328   [2]  07 60
 (001.515469)  can0  003   [8]  0F EF 10 13 04 FF C0 48
 (001.516189)  can0  045   [8]  00 FF 00 00 00 00 40 10
 (001.518313)  can0  005   [8]  00 00 00 00 0D 00 38 2D
 (001.519511)  can0  35C   [8]  02 10 E0 00 00 FF FF 01
 (001.519906)  can0  75E   [8]  00 81 00 2D 18 18 18 18
 (001.520157)  can0  30D   [8]  88 51 7E FF FF 10 C6 81
 (001.522200)  can0  073   [8]  05 00 92 66 00 80 60 CD
 (001.524796)  can0  766   [8]  00 00 00 00 00 00 0F 08
 (001.525435)  can0  003   [8]  0F EF 10 13 04 FF D0 85
 (001.528190)  can0  201   [8]  56 5B E7 E8 FF FF 30 3E
 (001.528481)  can0  203   [8]  40 A6 40 A7 C0 AE C0 AD
 (001.528729)  can0  245   [8]  80 18 81 7E BE 84 30 85
 (001.529004)  can0  105   [8]  06 E3 7F E3 DB 8B 64 C9
 (001.530146)  can0  75E   [8]  00 81 00 2D 18 18 18 18
 (001.532092)  can0  073   [8]  05 00 92 66 00 80 70 00
 (001.535435)  can0  003   [8]  0F F0 10 13 04 FF E0 1E
 (001.535833)  can0  37D   [8]  02 00 04 BE 12 00 FF FF
 (001.538258)  can0  005   [8]  00 00 00 00 0D 00 48 74
 (001.539497)  can0  33D   [8]  00 42 00 00 64 00 00 00
 (001.539879)  can0  75E   [8]  00 81 00 2D 18 18 18 18
 (001.540331)  can0  39D   [8]  1E 02 00 C1 FF 0E 00 0F
 (001.541898)  can0  073   [8]  05 00 92 66 00 80 80 7F
 (001.543696)  can0  375   [8]  13 10 34 3F 3F 07 00 00
 (001.544932)  can0  766   [8]  00 00 00 00 00 00 0F 08
 (001.545155)  can0  34E   [8]  00 00 B3 00 00 B3 11 2C
 (001.545669)  can0  003   [8]  0F F0 10 13 04 FF F0 D3
 (001.546007)  can0  400   [8]  FD 13 04 0F E0 81 00 05
 (001.548635)  can0  201   [8]  59 5E EA EB FF FF 40 6A
 (001.549135)  can0  203   [8]  40 AC 40 AD C0 B4 C0 B3
 (001.549379)  can0  105   [8]  06 ED 7F E9 E3 8B 74 18
 (001.549578)  can0  3D3   [4]  C0 02 00 00
 (001.550213)  can0  75E   [8]  00 81 00 2D 18 18 18 18
 (001.550455)  can0  245   [8]  80 19 81 7E BD 83 40 85
 (001.550802)  can0  34F   [8]  10 9E 00 9E 03 E7 07 FF
 (001.551923)  can0  073   [8]  05 00 92 66 00 80 90 B2
 (001.555452)  can0  003   [8]  0F F0 10 12 04 FF 00 31
 (001.558307)  can0  005   [8]  00 00 00 00 0D 00 58 B9
 (001.560182)  can0  249   [8]  0F E8 00 12 0B 00 FF FF
 (001.560826)  can0  75E   [8]  00 81 00 2D 18 18 18 18
 (001.562112)  can0  073   [8]  05 00 92 66 00 80 A0 F8
 (001.565449)  can0  003   [8]  0F F0 10 12 04 FF 10 FC
 (001.565904)  can0  766   [8]  00 00 00 00 00 00 0F 08
 (001.566154)  can0  007   [8]  F0 05 38 00 3F FC AF 79
 (001.568243)  can0  201   [8]  5C 61 ED EE FF FF 50 B2
 (001.568593)  can0  247   [8]  00 00 00 06 00 18 00 00
 (001.568852)  can0  203   [8]  40 B3 40 B2 C0 BA C0 BB
 (001.569104)  can0  105   [8]  06 FB 7F F0 ED 8B 84 D7
 (001.569909)  can0  245   [8]  80 1D 81 7E BE 83 50 85
 (001.570759)  can0  75E   [8]  00 81 00 2D 18 18 18 18
 (001.572083)  can0  073   [8]  05 00 92 66 00 80 B0 35
 (001.575271)  can0  205   [8]  06 94 0C 00 00 00 00 00
 (001.575502)  can0  003   [8]  0F F0 10 12 04 FF 20 B6
 (001.578317)  can0  005   [8]  00 00 00 00 0D 00 68 F3
 (001.580761)  can0  75E   [8]  00 81 00 2D 18 18 18 18
 (001.581986)  can0  073   [8]  05 00 92 66 00 80 C0 6C
 (001.585431)  can0  003   [8]  0F F0 10 11 04 FF 30 C1
 (001.585951)  can0  766   [8]  00 00 00 00 00 00 0F 08
 (001.588600)  can0  201   [8]  5F 64 F0 F1 FF FF 60 57
 (001.588888)  can0  105   [8]  07 02 7F F6 F4 8B 94 35
 (001.589225)  can0  004   [5]  01 00 00 37 07
 (001.589747)  can0  203   [8]  40 B8 40 B9 C0 C2 C0 C1
 (001.590074)  can0  245   [8]  80 23 81 7E BF 83 60 85
 (001.591789)  can0  75E   [8]  00 81 00 2D 18 18 18 18
 (001.592089)  can0  073   [8]  05 00 92 66 00 80 D0 A1
 (001.592322)  can0  76E   [8]  00 00 00 00 00 00 00 00
 (001.593618)  can0  2EF   [8]  F7 00 FF 0F FF FF FF 00
 (001.595086)  can0  19F   [8]  00 66 74 F0 1B 22 61 FD
 (001.595501)  can0  001   [8]  CC 81 1F 9E 55 03 81 41
 (001.595783)  can0  003   [8]  0F F0 10 11 04 FF 40 98
 (001.596737)  can0  388   [8]  35 FF 1F CF FF 0F 07 FF
 (001.598292)  can0  005   [8]  00 00 00 00 0D 00 78 3E
 (001.599938)  can0  12D   [8]  01 0F 00 00 50 53 56 79
 (001.601700)  can0  04B   [6]  01 00 0C 06 FF 04
 (001.601973)  can0  75E   [8]  00 81 00 2D 18 18 18 18
 (001.602210)  can0  073   [8]  05 00 92 66 00 80 E0 EB
 (001.605431)  can0  003   [8]  0F F1 10 10 04 FF 50 8E
 (001.606756)  can0  283   [8]  F5 0D 08 03 C0 6E 3F FF
 (001.607039)  can0  766   [8]  00 00 00 00 00 00 0F 08
 (001.608204)  can0  201   [8]  62 67 F3 F5 FF FF 70 90
 (001.608499)  can0  203   [8]  40 BF 40 C0 C0 C8 C0 C6
 (001.608751)  can0  245   [8]  80 24 81 7E BE 83 70 85
 (001.609202)  can0  105   [8]  07 0B 7F FA FA 8B A4 E8
 (001.612006)  can0  073   [8]  05 00 92 66 00 80 F0 26
 (001.612656)  can0  068   [1]  01
 (001.612925)  can0  75E   [8]  00 81 00 2D 18 18 18 18
 (001.615496)  can0  003   [8]  0F F1 10 0F 04 FF 60 89
 (001.615673)  can0  34D   [2]  10 00
 (001.616100)  can0  045   [8]  00 FF 00 00 00 00 50 DD
 (001.617785)  can0  10C   [8]  3B 7F FF 07 03 FF C3 67
 (001.618252)  can0  005   [8]  00 00 00 00 0D 00 88 41
 (001.619954)  can0  30D   [8]  88 51 7E FF FF 12 23 81
 (001.621893)  can0  073   [8]  05 00 92 66 00 80 00 59
 (001.622793)  can0  20E   [8]  3F 00 01 F0 FF FF 3F 68
 (001.623074)  can0  75E   [8]  00 81 00 2D 18 18 18 18
 (001.625453)  can0  003   [8]  0F F1 10 0D 04 FF 70 63
 (001.627790)  can0  351   [8]  00 00 00 00 00 00 00 00
 (001.628021)  can0  766   [8]  00 00 00 00 00 00 0F 08
 (001.628881)  can0  105   [8]  07 13 7F FA FA 8B B4 3B
 (001.629778)  can0  201   [8]  65 6A F7 F8 FF FF 80 D2
 (001.630275)  can0  203   [8]  40 C6 40 C7 C0 CE C0 CE
 (001.630730)  can0  245   [8]  80 24 81 7E BF 83 80 85
 (001.631935)  can0  073   [8]  05 00 92 66 00 80 10 94
 (001.632805)  can0  75E   [8]  00 81 00 2D 18 18 18 18
 (001.633076)  can0  776   [8]  00 00 00 00 00 00 00 00
 (001.635436)  can0  003   [8]  0F F1 10 0C 04 FF 80 81
 (001.637806)  can0  208   [8]  1F 40 11 80 00 06 40 A8
 (001.638274)  can0  005   [8]  00 00 00 00 0D 00 98 8C
 (001.639475)  can0  33D   [8]  00 42 00 00 64 00 00 00
 (001.640615)  can0  39D   [8]  1E 02 00 C0 FF 0E 00 17
 (001.641023)  can0  3F6   [5]  02 00 00 00 00
 (001.641574)  can0  413   [8]  FD 00 04 0F 10 00 00 05
 (001.642239)  can0  073   [8]  05 00 92 66 00 80 20 DE
 (001.642798)  can0  207   [8]  10 09 3D 22 0F CB 4D AC
 (001.643073)  can0  75E   [8]  00 81 00 2D 18 18 18 18
 (001.643423)  can0  375   [8]  13 10 34 3F 3F 07 00 00
 (001.645278)  can0  34E   [8]  00 00 B3 00 00 B3 11 2C
 (001.645522)  can0  003   [8]  0F F1 10 0A 04 FF 90 25
 (001.647740)  can0  206   [8]  00 00 0D 20 C1 80 D2 CC
 (001.648009)  can0  766   [8]  00 00 00 00 00 00 0F 08
 (001.648352)  can0  201   [8]  69 6E FA FB FF FF 90 B3
 (001.648824)  can0  203   [8]  40 CA 40 CB C0 D4 C0 D3
 (001.649150)  can0  245   [8]  80 22 81 7E BF 83 90 85
 (001.649422)  can0  105   [8]  07 1D 7F FA FA 8B C4 E1
 (001.650259)  can0  34F   [8]  10 9E 00 9E 03 E7 07 FF
 (001.652136)  can0  073   [8]  05 00 92 66 00 80 30 13
 (001.652800)  can0  20A   [8]  FA FF 00 FC FF FF FF 7F
 (001.653071)  can0  75E   [8]  00 81 00 2D 18 18 18 18
 (001.655450)  can0  003   [8]  0F F1 10 09 04 FF A0 D5
 (001.658291)  can0  005   [8]  00 00 00 00 0D 00 A8 C6
 (001.660288)  can0  336   [8]  71 42 00 00 00 00 00 00
 (001.660536)  can0  249   [8]  15 47 00 18 70 00 FF FF
 (001.661905)  can0  073   [8]  05 00 92 66 00 80 40 4A
 (001.662778)  can0  75E   [8]  00 81 00 2D 18 18 18 18
 (001.665206)  can0  007   [8]  F0 05 38 00 3F FC AF 79
 (001.665471)  can0  003   [8]  0F F1 10 08 04 FF B0 85
 (001.668080)  can0  3D1   [4]  C9 08 00 00
 (001.668728)  can0  201   [8]  6C 71 FE 00 FF FF A0 41
 (001.669020)  can0  105   [8]  07 2C 7F FA FA 8B D4 56
 (001.669300)  can0  766   [8]  00 00 00 00 00 00 0F 08
 (001.669929)  can0  203   [8]  40 D0 40 D0 C0 DA C0 D9
 (001.670272)  can0  247   [8]  00 00 00 06 00 18 00 00
 (001.670572)  can0  245   [8]  80 22 81 7E BF 84 A0 85
 (001.671948)  can0  073   [8]  05 00 92 66 00 80 50 87
 (001.672270)  can0  204   [8]  00 57 44 44 4B 4A 36 46
 (001.673763)  can0  75E   [8]  00 81 00 2D 18 18 18 18
 (001.675264)  can0  205   [8]  06 94 0C 00 00 00 00 00
 (001.675519)  can0  003   [8]  0F F1 10 06 04 FF C0 29
 (001.678275)  can0  005   [8]  00 00 00 00 0D 00 B8 0B
 (001.682006)  can0  073   [8]  05 00 92 66 00 80 60 CD
 (001.683929)  can0  75E   [8]  00 81 00 2D 18 18 18 18
 (001.685474)  can0  003   [8]  0F F1 10 04 04 FF D0 C3
 (001.688123)  can0  201   [8]  70 75 02 04 FF FF B0 94
 (001.688445)  can0  203   [8]  40 D9 40 D8 C0 E0 C0 E0
 (001.688717)  can0  245   [8]  80 29 81 7E BD 84 B0 85
 (001.688968)  can0  105   [8]  07 3F 7F FA FA 8B E4 C2
 (001.689270)  can0  766   [8]  00 00 00 00 00 00 0F 08
 (001.692022)  can0  073   [8]  05 00 92 66 00 80 70 00
 (001.692296)  can0  204   [8]  01 42 31 47 46 33 31 34
 (001.693833)  can0  75E   [8]  00 81 00 2D 18 18 18 18
 (001.694094)  can0  76E   [8]  00 00 00 00 00 00 00 00
 (001.695075)  can0  001   [8]  CC 81 1F 9E 55 03 91 8C
 (001.695318)  can0  19F   [8]  00 77 74 F0 1B 22 61 FD
 (001.695618)  can0  003   [8]  0F F1 10 03 04 FF E0 7D
 (001.696073)  can0  1C0   [2]  00 00
 (001.698267)  can0  005   [8]  00 00 00 00 0D 00 C8 52
 (001.698999)  can0  388   [8]  35 FF 1F CF FF 0F 07 FF
 (001.699750)  can0  12D   [8]  01 0F 00 00 50 53 56 79
 (001.702044)  can0  073   [8]  05 00 92 66 00 80 80 7F
 (001.703679)  can0  04B   [6]  01 00 0C 06 FF 04
 (001.703970)  can0  75E   [8]  00 81 00 2D 18 18 18 18
 (001.705423)  can0  003   [8]  0F F1 10 03 04 FF F0 B0
 (001.708522)  can0  002   [5]  01 00 C0 00 07
 (001.708772)  can0  201   [8]  73 78 06 07 FF FF C0 6C
 (001.709067)  can0  105   [8]  07 4D 7F FA FA 8B F4 EF
 (001.709316)  can0  283   [8]  F5 0D 08 03 C0 6E 3F FF
 (001.709591)  can0  766   [8]  00 00 00 00 00 00 0F 08
 (001.709916)  can0  203   [8]  40 DC 40 DD C0 E6 C0 E5
 (001.710252)  can0  245   [8]  80 31 81 7E BD 84 C0 85
 (001.711901)  can0  073   [8]  05 00 92 66 00 80 90 B2
 (001.712249)  can0  204   [8]  02 33 33 35 FF FF FF FF
 (001.712691)  can0  328   [2]  07 60
 (001.714759)  can0  75E   [8]  00 81 00 2D 18 18 18 18
 (001.715445)  can0  003   [8]  0F F1 10 02 04 FF 00 52
 (001.716195)  can0  045   [8]  00 FF 00 00 00 00 60 97
 (001.718325)  can0  005   [8]  00 00 00 00 0D 00 D8 9F
 (001.719522)  can0  35C   [8]  02 10 E0 00 00 FF FF 01
 (001.720351)  can0  30D   [8]  88 51 7E FF FF 13 54 81
 (001.722169)  can0  073   [8]  05 00 92 66 00 80 A0 F8
 (001.722816)  can0  10E   [4]  00 80 3A 00
 (001.724743)  can0  75E   [8]  00 81 00 2D 18 18 18 18
 (001.725421)  can0  003   [8]  0F F1 10 01 04 FF 10 25
 (001.727870)  can0  10D   [4]  00 C0 00 02
 (001.728245)  can0  201   [8]  77 7C 0A 0B FF FF D0 DD
 (001.728516)  can0  203   [8]  40 E1 40 E3 C0 EC C0 EC
 (001.728790)  can0  245   [8]  80 31 81 7E BD 83 D0 85
 (001.729067)  can0  105   [8]  07 5D 7F FA FA 8B 04 84
 (001.730198)  can0  766   [8]  00 00 00 00 00 00 0F 08
 (001.730795)  can0  400   [8]  FD 13 04 0F E0 81 00 05
 (001.731874)  can0  073   [8]  05 00 92 66 00 80 B0 35
 (001.734781)  can0  75E   [8]  00 81 00 2D 18 18 18 18
 (001.735428)  can0  003   [8]  0F F1 10 01 04 FF 20 6F
 (001.735795)  can0  37D   [8]  02 00 04 BC 12 00 FF FF
 (001.738272)  can0  005   [8]  00 00 00 00 0D 00 E8 D5
 (001.739920)  can0  33D   [8]  00 42 00 00 64 00 00 00
 (001.740267)  can0  39D   [8]  1E 02 00 C0 FF 0E 00 1F
 (001.742095)  can0  073   [8]  05 00 92 66 00 80 C0 6C
 (001.743638)  can0  375   [8]  13 10 34 3F 3F 07 00 00
 (001.744861)  can0  75E   [8]  00 81 00 2D 18 18 18 18
 (001.745317)  can0  34E   [8]  00 00 B3 00 00 B3 11 2C
 (001.745591)  can0  003   [8]  0F F1 10 00 04 FF 30 3F
 (001.748756)  can0  201   [8]  7B 80 0E 0F FF FF E0 14
 (001.749160)  can0  105   [8]  07 75 7F FA FA 8B 14 6B
 (001.749470)  can0  3D3   [4]  C0 02 00 00
 (001.750098)  can0  203   [8]  40 EA 40 E9 C0 F2 C0 F2
 (001.750367)  can0  766   [8]  00 00 00 00 00 00 0F 08
 (001.750638)  can0  245   [8]  80 30 81 7E BC 82 E0 85
 (001.750893)  can0  34F   [8]  10 9E 00 9E 03 E7 07 FF
 (001.751995)  can0  073   [8]  05 00 92 66 00 80 D0 A1
 (001.755460)  can0  003   [8]  0F F1 10 00 04 FF 40 66
 (001.755890)  can0  75E   [8]  00 81 00 2D 18 18 18 18
 (001.758313)  can0  005   [8]  00 00 00 00 0D 00 F8 18
 (001.760187)  can0  249   [8]  1E B4 00 20 B6 00 FF FF
 (001.761923)  can0  073   [8]  05 00 92 66 00 80 E0 EB
 (001.765199)  can0  007   [8]  F0 05 38 00 3F FC AF 79
 (001.765466)  can0  003   [8]  0F F1 10 01 04 FF 50 36
 (001.766327)  can0  75E   [8]  00 81 00 2D 18 18 18 18
 (001.766462)  can0  317   [2]  0A 00
 (001.768232)  can0  201   [8]  7E 84 12 13 FF FF F0 33
 (001.768539)  can0  247   [8]  00 00 00 06 00 18 00 00
 (001.768788)  can0  203   [8]  40 EF 40 EF C0 F8 C0 F7
 (001.769065)  can0  245   [8]  80 38 81 7E BC 83 F0 85
 (001.769315)  can0  105   [8]  07 81 7F FA FA 8B 24 E8
 (001.771766)  can0  766   [8]  00 00 00 00 00 00 0F 08
 (001.772015)  can0  073   [8]  05 00 92 66 00 80 F0 26
 (001.775218)  can0  205   [8]  06 94 0C 00 00 00 00 00
 (001.775486)  can0  003   [8]  0F F1 10 01 04 FF 60 7C
 (001.776744)  can0  75E   [8]  00 81 00 2D 18 18 18 18
 (001.778268)  can0  005   [8]  00 00 00 00 0D 00 08 67
 (001.782129)  can0  073   [8]  05 00 92 66 00 80 00 59
 (001.785438)  can0  003   [8]  0F F1 10 01 04 FF 70 B1
 (001.786757)  can0  75E   [8]  00 81 00 2D 18 18 18 18
 (001.788636)  can0  201   [8]  82 87 16 17 FF FF 00 6F
 (001.788982)  can0  203   [8]  40 F2 40 F7 C0 FE C0 FC
 (001.789212)  can0  245   [8]  80 3E 81 7E BB 83 00 85
 (001.789486)  can0  105   [8]  07 96 7F FA FA 8A 34 B2
 (001.791965)  can0  073   [8]  05 00 92 66 00 80 10 94
 (001.792833)  can0  766   [8]  00 00 00 00 00 00 0F 08
 (001.793609)  can0  2EF   [8]  F7 00 FF 0F FF FF FF 00
 (001.795145)  can0  19F   [8]  00 89 74 F0 1B 22 61 FD
 (001.795463)  can0  003   [8]  0F F1 10 02 04 FF 80 74
 (001.795736)  can0  001   [8]  CC 81 1F 9E 55 03 A1 C6
 (001.797820)  can0  75E   [8]  00 81 00 2D 18 18 18 18
 (001.798091)  can0  76E   [8]  00 00 00 00 00 00 00 00
 (001.798364)  can0  005   [8]  00 00 00 00 0D 00 18 AA
 (001.799888)  can0  12D   [8]  01 0F 00 00 50 53 56 79
 (001.801944)  can0  073   [8]  05 00 92 66 00 80 20 DE
 (001.802792)  can0  388   [8]  35 FF 1F CF FF 0F 07 FF
 (001.805441)  can0  003   [8]  0F F1 10 02 04 FF 90 B9
 (001.807751)  can0  04B   [6]  01 00 0C 06 FF 04
 (001.808011)  can0  75E   [8]  00 81 00 2D 18 18 18 18
 (001.808262)  can0  201   [8]  86 8C 1A 1B FF FF 10 1B
 (001.808536)  can0  203   [8]  40 FA 40 FB C1 03 C1 03
 (001.808809)  can0  245   [8]  80 3F 81 7E BA 84 10 85
 (001.809161)  can0  105   [8]  07 AF 7F FA FA 8A 44 9B
 (001.812014)  can0  073   [8]  05 00 92 66 00 80 30 13
 (001.812797)  can0  283   [8]  F5 0D 08 03 C0 6E 3F FF
 (001.813088)  can0  766   [8]  00 00 00 00 00 00 0F 08
 (001.815443)  can0  003   [8]  0F F1 10 02 04 FF A0 F3
 (001.816020)  can0  045   [8]  00 FF 00 00 00 00 70 5A
 (001.817654)  can0  068   [1]  01
 (001.817938)  can0  75E   [8]  00 81 00 2D 18 18 18 18
 (001.818312)  can0  005   [8]  00 00 00 00 0D 00 28 E0
 (001.819990)  can0  30D   [8]  88 51 7E FF FF 14 A7 81
 (001.820670)  can0  2FF   [8]  02 28 00 53 FF 53 62 FE
 (001.821562)  can0  413   [8]  FD 00 04 0F 10 00 00 05
 (001.821886)  can0  073   [8]  05 00 92 66 00 80 40 4A
 (001.822756)  can0  10C   [8]  3B 7F FF 07 03 FF C3 67
 (001.825464)  can0  003   [8]  0F F1 10 02 04 FF B0 3E
 (001.827765)  can0  20E   [8]  3F 00 01 F0 FF FF 3F 68
 (001.828008)  can0  75E   [8]  00 81 00 2D 18 18 18 18
 (001.828865)  can0  201   [8]  8B 90 1F 20 FF FF 20 3A
 (001.829186)  can0  203   [8]  41 00 40 FF C1 0A C1 08
 (001.829458)  can0  105   [8]  07 C8 7F FA FA 8A 54 E1
 (001.830266)  can0  245   [8]  80 40 81 7E BA 85 20 85
 (001.831992)  can0  073   [8]  05 00 92 66 00 80 50 87
 (001.832814)  can0  351   [8]  00 00 00 00 00 00 00 00
 (001.833086)  can0  766   [8]  00 00 00 00 00 00 0F 08
 (001.835447)  can0  003   [8]  0F F1 10 02 04 FF C0 67
 (001.838297)  can0  005   [8]  00 00 00 00 0D 00 38 2D
 (001.838689)  can0  30E   [8]  0C 00 00 00 00 05 FF 03
 (001.839340)  can0  75E   [8]  00 81 00 2D 18 18 18 18
 (001.839609)  can0  776   [8]  00 00 00 00 00 00 00 00
 (001.840012)  can0  33D   [8]  00 42 00 00 64 00 00 00
 (001.840564)  can0  39D   [8]  1E 02 00 C0 FF 0E 00 27
 (001.840860)  can0  3F6   [5]  02 00 00 00 00
 (001.841938)  can0  073   [8]  05 00 92 66 00 80 60 CD
 (001.843462)  can0  375   [8]  13 10 34 3F 3F 07 00 00
 (001.845416)  can0  003   [8]  0F F1 10 02 04 FF D0 AA
 (001.845760)  can0  34E   [8]  00 00 B3 00 00 B3 11 2C
 (001.848251)  can0  201   [8]  8F 94 23 24 FF FF 30 38
 (001.848762)  can0  203   [8]  41 05 41 07 C1 0F C1 0F
 (001.849214)  can0  105   [8]  07 E2 7F FA FA 8A 64 05
 (001.850120)  can0  75E   [8]  00 81 00 2D 18 18 18 18
 (001.850407)  can0  245   [8]  80 41 81 7E BB 85 30 85
 (001.850681)  can0  34F   [8]  10 9E 00 9E 03 E7 07 FF
 (001.851991)  can0  073   [8]  05 00 92 66 00 80 70 00
 (001.855463)  can0  003   [8]  0F F1 10 02 04 FF E0 E0
 (001.855884)  can0  766   [8]  00 00 00 00 00 00 0F 08
 (001.858281)  can0  005   [8]  00 00 00 00 0D 00 48 74
 (001.860141)  can0  336   [8]  71 42 00 00 00 00 00 00
 (001.860465)  can0  249   [8]  27 E8 00 2B E8 00 FF FF
 (001.860866)  can0  75E   [8]  00 81 00 2D 18 18 18 18
 (001.861888)  can0  073   [8]  05 00 92 66 00 80 80 7F
 (001.865220)  can0  007   [8]  F0 05 38 00 3F FC AF 79
 (001.865482)  can0  003   [8]  0F F1 10 01 04 FF F0 97
 (001.866394)  can0  319   [1]  80
 (001.868075)  can0  3D1   [4]  C9 08 00 00
 (001.868686)  can0  201   [8]  93 98 27 29 FF FF 40 96
 (001.869060)  can0  247   [8]  00 00 00 06 00 18 00 00
 (001.869281)  can0  105   [8]  07 FE 7F FA FA 8A 74 D3
 (001.870083)  can0  203   [8]  41 0A 41 0E C1 16 C1 15
 (001.870674)  can0  245   [8]  80 3C 81 7E BA 84 40 85
 (001.872083)  can0  073   [8]  05 00 92 66 00 80 90 B2
 (001.872806)  can0  75E   [8]  00 81 00 2D 18 18 18 18
 (001.875009)  can0  1C1   [4]  00 00 00 00
 (001.875307)  can0  205   [8]  06 94 0C 00 00 00 00 00
 (001.875579)  can0  003   [8]  0F F1 10 01 04 FF 00 E8
 (001.877865)  can0  766   [8]  00 00 00 00 00 00 0F 08
 (001.878266)  can0  005   [8]  00 00 00 00 0D 00 58 B9
 (001.881916)  can0  073   [8]  05 00 92 66 00 80 A0 F8
 (001.882787)  can0  75E   [8]  00 81 00 2D 18 18 18 18
 (001.885436)  can0  003   [8]  0F F1 10 01 04 FF 10 25
 (001.886334)  can0  3B8   [8]  00 00 00 60 41 05 00 00
 (001.888158)  can0  201   [8]  98 9D 2C 2D FF FF 50 AA
 (001.888454)  can0  203   [8]  41 10 41 11 C1 1D C1 1B
 (001.888704)  can0  245   [8]  80 38 81 7E BA 84 50 85
 (001.888977)  can0  105   [8]  08 29 7F FA FA 8A 84 DB
 (001.889797)  can0  26F   [2]  6F C0
 (001.890207)  can0  39F   [8]  12 1E 19 02 0B 19 0A FF
 (001.891909)  can0  073   [8]  05 00 92 66 00 80 B0 35
 (001.892766)  can0  3B7   [8]  A9 09 0A CF 02 01 61 D0
 (001.893002)  can0  75E   [8]  00 81 00 2D 18 18 18 18
 (001.894865)  can0  001   [8]  CC 81 1F 9E 55 03 B1 0B
 (001.895130)  can0  19F   [8]  00 98 74 F0 1B 22 61 FD
 (001.895630)  can0  003   [8]  0F F1 10 01 04 FF 20 6F
 (001.897841)  can0  766   [8]  00 00 00 00 00 00 0F 08
 (001.898261)  can0  005   [8]  00 00 00 00 0D 00 68 F3
 (001.899943)  can0  12D   [8]  01 0F 00 00 50 53 56 79
 (001.901962)  can0  073   [8]  05 00 92 66 00 80 C0 6C
 (001.902836)  can0  75E   [8]  00 81 00 2D 18 18 18 18
 (001.903131)  can0  76E   [8]  00 00 00 00 00 00 00 00
 (001.905423)  can0  003   [8]  0F F1 10 01 04 FF 30 A2
 (001.907828)  can0  388   [8]  35 FF 1F CF FF 0F 07 FF
 (001.908631)  can0  201   [8]  9C A1 31 32 FF FF 60 B1
 (001.908904)  can0  105   [8]  08 48 7F FA FA 8A 94 28
 (001.909811)  can0  203   [8]  41 16 41 16 C1 21 C1 21
 (001.910165)  can0  245   [8]  80 37 81 7E BC 85 60 85
 (001.911909)  can0  073   [8]  05 00 92 66 00 80 D0 A1
 (001.912636)  can0  328   [2]  07 60
 (001.912928)  can0  04B   [6]  01 00 0C 06 FF 04
 (001.913229)  can0  75E   [8]  00 81 00 2D 18 18 18 18
 (001.915413)  can0  003   [8]  0F F1 10 01 04 FF 40 FB
 (001.916186)  can0  045   [8]  00 FF 00 00 00 00 80 25
 (001.917837)  can0  283   [8]  F5 0D 08 03 C0 6E 3F FF
 (001.918104)  can0  766   [8]  00 00 00 00 00 00 0F 08
 (001.918377)  can0  005   [8]  00 00 00 00 0D 00 78 3E
 (001.919057)  can0  400   [8]  FD 13 04 0F E0 81 00 05
 (001.919479)  can0  35C   [8]  02 10 E0 00 00 FF FF 01
 (001.919979)  can0  30D   [8]  88 51 7E FF FF 16 3F 81
 (001.922157)  can0  073   [8]  05 00 92 66 00 80 E0 EB
 (001.922829)  can0  75E   [8]  00 81 00 2D 18 18 18 18
 (001.925425)  can0  003   [8]  0F F1 10 01 04 FF 50 36
 (001.928202)  can0  201   [8]  A1 A6 35 37 FF FF 70 E5
 (001.928477)  can0  203   [8]  41 1A 41 1C C1 28 C1 26
 (001.928725)  can0  245   [8]  80 34 81 7E BC 84 70 85
 (001.929000)  can0  105   [8]  08 65 7F FA FA 8A A4 03
 (001.929434)  can0  3E3   [8]  5A FC FE E6 29 CF A1 EB
 (001.932008)  can0  073   [8]  05 00 92 66 00 80 F0 26
 (001.932811)  can0  75E   [8]  00 81 00 2D 18 18 18 18
 (001.935344)  can0  37D   [8]  02 00 04 BB 12 00 FF FF
 (001.935604)  can0  003   [8]  0F F1 10 02 04 FF 60 C6
 (001.937832)  can0  766   [8]  00 00 00 00 00 00 0F 08
 (001.938253)  can0  005   [8]  00 00 00 00 0D 00 88 41
 (001.939519)  can0  3E5   [8]  0E 0A 0A 0A 04 FF FF 00
 (001.939826)  can0  33D   [8]  00 42 00 00 64 00 00 00
 (001.940203)  can0  3F2   [8]  00 1D 00 08 00 00 3F FD
 (001.940476)  can0  39D   [8]  1E 02 00 C0 FF 0E 00 2F
 (001.940750)  can0  3E7   [8]  5A FD 00 0D 29 CF 9F 58
 (001.941859)  can0  073   [8]  05 00 92 66 00 80 00 59
 (001.942781)  can0  75E   [8]  00 81 00 2D 18 18 18 18
 (001.943381)  can0  375   [8]  13 10 34 3F 3F 07 00 00
 (001.945134)  can0  34E   [8]  00 00 B3 00 00 B3 11 2C
 (001.945452)  can0  003   [8]  0F F1 10 02 04 FF 70 0B
 (001.948811)  can0  3D3   [4]  C0 02 00 00
 (001.949080)  can0  201   [8]  A5 AA 3A 3B FF FF 80 52
 (001.949327)  can0  105   [8]  08 7F 7F FA FA 8A B4 5C
 (001.949827)  can0  3E9   [8]  07 E9 0B 03 02 1E 09 C4
 (001.950153)  can0  203   [8]  41 21 41 22 C1 2E C1 2E
 (001.950501)  can0  245   [8]  80 2F 81 7E BD 83 80 85
 (001.950888)  can0  3EB   [8]  00 01 0D 52 0D 3E 0D 9B
 (001.951159)  can0  34F   [8]  10 9E 00 9E 03 E7 07 FF
 (001.952115)  can0  073   [8]  05 00 92 66 00 80 10 94
 (001.953763)  can0  75E   [8]  00 81 00 2D 18 18 18 18
 (001.955429)  can0  003   [8]  0F F1 10 03 04 FF 80 E9
 (001.958278)  can0  005   [8]  00 00 00 00 0D 00 98 8C
 (001.958951)  can0  766   [8]  00 00 00 00 00 00 0F 08
 (001.960449)  can0  249   [8]  2F E8 00 33 E8 00 FF FF
 (001.961985)  can0  073   [8]  05 00 92 66 00 80 20 DE
 (001.963924)  can0  75E   [8]  00 81 00 2D 18 18 18 18
 (001.965240)  can0  007   [8]  F0 05 38 00 3F FC AF 79
 (001.965500)  can0  003   [8]  0F F1 10 03 04 FF 90 24
 (001.966539)  can0  2C4   [8]  00 00 FC 3F 7F FF 3F FF
 (001.968211)  can0  201   [8]  AA AF 3F 40 FF FF 90 82
 (001.968575)  can0  247   [8]  00 00 00 06 00 18 00 00
 (001.968823)  can0  203   [8]  41 27 41 28 C1 35 C1 34
 (001.969074)  can0  105   [8]  08 99 7F FA FA 8A C4 54
 (001.969850)  can0  245   [8]  80 29 81 7E BD 84 90 85
 (001.972018)  can0  073   [8]  05 00 92 66 00 80 30 13
 (001.974764)  can0  75E   [8]  00 81 00 2D 18 18 18 18
 (001.975253)  can0  205   [8]  06 94 0C 00 00 00 00 00
 (001.975523)  can0  003   [8]  0F F1 10 04 04 FF A0 9A
 (001.978259)  can0  005   [8]  00 00 00 00 0D 00 A8 C6
 (001.979857)  can0  766   [8]  00 00 00 00 00 00 0F 08
 (001.982057)  can0  073   [8]  05 00 92 66 00 80 40 4A
 (001.984835)  can0  75E   [8]  00 81 00 2D 18 18 18 18
 (001.985401)  can0  003   [8]  0F F1 10 04 04 FF B0 57
 (001.988690)  can0  201   [8]  AF B4 44 46 FF FF A0 38
 (001.988999)  can0  203   [8]  41 2D 41 2F C1 3B C1 3B
 (001.989273)  can0  105   [8]  08 B3 7F FA FA 8A D4 37
 (001.990074)  can0  245   [8]  80 30 81 7E BF 85 A0 85
 (001.991928)  can0  073   [8]  05 00 92 66 00 80 50 87
 (001.993628)  can0  2EF   [8]  F7 00 FF 0F FF FF FF 00
 (001.994761)  can0  75E   [8]  00 81 00 2D 18 18 18 18
 (001.995356)  can0  19F   [8]  00 A9 74 F0 1B 22 61 FD
 (001.995600)  can0  001   [8]  CC 81 1F 9E 55 03 C1 52
 (001.995872)  can0  003   [8]  0F F1 10 04 04 FF C0 0E
 (001.998281)  can0  005   [8]  00 00 00 00 0D 00 B8 0B
 (001.999784)  can0  766   [8]  00 00 00 00 00 00 0F 08
 (002.000518)  can0  12D   [8]  01 0F 00 00 50 53 56 79
 (002.001977)  can0  073   [8]  05 00 92 66 00 80 60 CD
 (002.004783)  can0  75E   [8]  00 81 00 2D 18 18 18 18
 (002.005048)  can0  76E   [8]  00 00 00 00 00 00 00 00
 (002.005421)  can0  003   [8]  0F F1 10 05 04 FF D0 5E
 (002.008134)  can0  201   [8]  B4 B9 4A 4B FF FF B0 69
 (002.008400)  can0  203   [8]  41 32 41 34 C1 41 C1 40
 (002.008746)  can0  245   [8]  80 39 81 7E C0 84 B0 85
 (002.009053)  can0  105   [8]  08 CF 7F FA FA 8A E4 1E
 (002.010772)  can0  388   [8]  35 FF 1F CF FF 0F 07 FF
 (002.011574)  can0  413   [8]  FD 00 04 0F 10 00 00 05
 (002.011973)  can0  073   [8]  05 00 92 66 00 80 70 00
 (002.015435)  can0  003   [8]  0F F2 10 06 04 FF E0 64
 (002.015797)  can0  04B   [6]  01 00 0C 06 FF 04
 (002.016073)  can0  045   [8]  00 FF 00 00 00 00 90 E8
 (002.016346)  can0  75E   [8]  00 81 00 2D 18 18 18 18
 (002.018310)  can0  005   [8]  00 00 00 00 0D 00 C8 52
 (002.019955)  can0  30D   [8]  88 51 7E FF FF 18 65 81
 (002.020776)  can0  283   [8]  F5 0D 08 03 C0 6E 3F FF
 (002.021073)  can0  766   [8]  00 00 00 00 00 00 0F 08
 (002.021909)  can0  073   [8]  05 00 92 66 00 80 80 7F
 (002.025406)  can0  003   [8]  0F F2 10 07 04 FF F0 34
 (002.025670)  can0  068   [1]  01
 (002.025969)  can0  75E   [8]  00 81 00 2D 18 18 18 18
 (002.028826)  can0  201   [8]  B9 BE 4F 50 FF FF C0 C5
 (002.029147)  can0  203   [8]  41 39 41 3B C1 48 C1 47
 (002.029419)  can0  105   [8]  08 E2 7F FA FA 8A F4 B2
 (002.030253)  can0  245   [8]  80 3A 81 7E C1 83 C0 85
 (002.030902)  can0  10C   [8]  3B 7F FF 07 03 FF C3 67
 (002.031953)  can0  073   [8]  05 00 92 66 00 80 90 B2
 (002.035408)  can0  003   [8]  0F F2 10 08 04 FF 00 23
 (002.035912)  can0  20E   [8]  3F 00 01 F0 FF FF 3F 68
 (002.036177)  can0  75E   [8]  00 81 00 2D 18 18 18 18
 (002.038255)  can0  005   [8]  00 00 00 00 0D 00 D8 9F
 (002.039875)  can0  33D   [8]  00 42 00 00 64 00 00 00
 (002.040523)  can0  39D   [8]  1E 02 00 C0 FF 0E 00 37
 (002.041199)  can0  3F6   [5]  02 00 00 00 00
 (002.041746)  can0  351   [8]  00 00 00 00 00 00 00 00
 (002.041992)  can0  073   [8]  05 00 92 66 00 80 A0 F8
 (002.042294)  can0  766   [8]  00 00 00 00 00 00 0F 08
 (002.043477)  can0  375   [8]  13 10 34 3F 3F 07 00 00
 (002.045406)  can0  003   [8]  0F F2 10 09 04 FF 10 73
 (002.045819)  can0  34E   [8]  00 00 B3 00 00 B3 11 2C
 (002.046754)  can0  75E   [8]  00 81 00 2D 18 18 18 18
 (002.047044)  can0  776   [8]  00 00 00 00 00 00 00 00
 (002.048254)  can0  201   [8]  BE C3 54 55 FF FF D0 57
 (002.048723)  can0  203   [8]  41 40 41 42 C1 4E C1 4C
 (002.049046)  can0  245   [8]  80 34 81 7E C1 84 D0 85
 (002.049268)  can0  105   [8]  08 F8 7F FA FA 8A 04 5F
 (002.050164)  can0  34F   [8]  10 9E 00 9E 03 E7 07 FF
 (002.051926)  can0  073   [8]  05 00 92 66 00 80 B0 35
 (002.055431)  can0  003   [8]  0F F2 10 09 04 FF 20 39
 (002.057825)  can0  75E   [8]  00 81 00 2D 18 18 18 18
